# HZ S RI R 50
3000000 -0.045178063905278114 0.18947857329487555 -0.13493095081683215 -0.030717913784863556 0 0 0 0
3026419 -0.043407454126434084 0.1840841483731191 -0.13533347169039445 -0.030099009632762522 0 0 0 0
3052838 -0.04083033821355963 0.1797685297474025 -0.1355486805937722 -0.02944423139468908 0 0 0 0
3079257 -0.03998794112344187 0.17480019894068385 -0.13594554604528444 -0.028690937073145163 0 0 0 0
3105676 -0.03820560543549237 0.17032583875138058 -0.13624038864492255 -0.02806651265343679 0 0 0 0
3132095 -0.03599315827113644 0.16616030801861637 -0.13637482857609978 -0.027236841162640423 0 0 0 0
3158514 -0.03443467526887609 0.16158726859446484 -0.13656754077371547 -0.02653924853942216 0 0 0 0
3184933 -0.03361631196952908 0.15645925980721528 -0.13696859152028118 -0.026201274847742154 0 0 0 0
3211352 -0.031631182788651985 0.15238165926503108 -0.1371167462258608 -0.025305067543392887 0 0 0 0
3237771 -0.030393144705784237 0.14815139123772933 -0.13747082732258278 -0.02450197108610755 0 0 0 0
3264190 -0.029306887711640944 0.14328306731549828 -0.13772648720549188 -0.024124415422827217 0 0 0 0
3290609 -0.028062422014081045 0.13900170103777293 -0.13801696914923514 -0.02347909497710724 0 0 0 0
3317028 -0.026481697842188526 0.13491668705358514 -0.1379611793656141 -0.02271106227303408 0 0 0 0
3343447 -0.02554292637110955 0.13044256589356673 -0.1382463054845287 -0.022179002048955766 0 0 0 0
3369866 -0.02472934714009619 0.12584473942654487 -0.13828789577813658 -0.021557692336992507 0 0 0 0
3396285 -0.0237405285313196 0.12134481401876702 -0.13862193389225977 -0.02093742505221343 0 0 0 0
3422704 -0.022800290232818172 0.11716575578796536 -0.13886910774892358 -0.020152581120986106 0 0 0 0
3449123 -0.021661647628791962 0.11297225284411194 -0.13882626355952538 -0.01960767402411121 0 0 0 0
3475542 -0.021219655230428004 0.10918058460385177 -0.13931978959643992 -0.01908097286543567 0 0 0 0
3501961 -0.020049249785413396 0.10446406852051544 -0.1392268300243091 -0.01838530637021734 0 0 0 0
3528380 -0.019751107762603203 0.10000331912640929 -0.13945001968180243 -0.01785171535501575 0 0 0 0
3554799 -0.018717140453534085 0.09574909842188255 -0.13974100958478344 -0.017128704321580354 0 0 0 0
3581218 -0.017887608590319633 0.09156234610476172 -0.1397272076911147 -0.016524278644781357 0 0 0 0
3607637 -0.01720191792030855 0.08773046797961674 -0.13992167727450477 -0.015798275428928574 0 0 0 0
3634056 -0.016580845921714864 0.0834139751758914 -0.13988921608472482 -0.0154279607763279 0 0 0 0
3660475 -0.015969198089625616 0.07872845089428486 -0.14002385449276916 -0.014830118525779206 0 0 0 0
3686894 -0.016120653215747644 0.07486858483440938 -0.1400184644842902 -0.014232447600255623 0 0 0 0
3713313 -0.014963419246233109 0.07027697331700893 -0.14016637155707024 -0.013737218225002006 0 0 0 0
3739732 -0.014452680167498627 0.06649492360341187 -0.14036151422453103 -0.013067076697247337 0 0 0 0
3766151 -0.01379193256129134 0.06205500475997672 -0.140409303706888 -0.01228534883404332 0 0 0 0
3792570 -0.01407900339426139 0.05756331084636465 -0.14040439669783514 -0.012029837281356565 0 0 0 0
3818989 -0.013653893564219295 0.05396791606204114 -0.14089348969989993 -0.011283295067986813 0 0 0 0
3845408 -0.01333733515914707 0.049363529443058565 -0.14079532850342216 -0.010653646753765936 0 0 0 0
3871827 -0.013134187593582298 0.0458447398121309 -0.1406230738053543 -0.010241231392730322 0 0 0 0
3898246 -0.01308156023889832 0.04208114898357038 -0.1410905610264748 -0.009601087257405683 0 0 0 0
3924665 -0.012516261720555718 0.03797387108438532 -0.14091987488073435 -0.009030336399486123 0 0 0 0
3951084 -0.012735963366804713 0.03402876480542194 -0.14095042001242267 -0.008482503960494686 0 0 0 0
3977503 -0.012805705615737652 0.030509119608305737 -0.14112441237097295 -0.007811405337453358 0 0 0 0
4003922 -0.013021038562089136 0.02659704337082458 -0.14104607869622812 -0.007393934744226199 0 0 0 0
4030341 -0.01260123602289132 0.023016944606215617 -0.14107149381663525 -0.00674628542939133 0 0 0 0
4056760 -0.012706970306552422 0.018987204197441897 -0.14100748215258144 -0.006050731283587434 0 0 0 0
4083179 -0.012780936477100715 0.01542766701037053 -0.14126372408256163 -0.005751391330939601 0 0 0 0
4109598 -0.013067731048675885 0.011707296198447886 -0.1412506552878549 -0.00525588321625619 0 0 0 0
4136017 -0.012816519174049204 0.008163335538408277 -0.14140802584862003 -0.00457235532308926 0 0 0 0
4162436 -0.013347068124236059 0.0047288145756202915 -0.141347378522002 -0.004039931522207027 0 0 0 0
4188855 -0.013434201731409844 0.0009927625506037905 -0.14123955866102333 -0.003584198286866435 0 0 0 0
4215274 -0.01379073660846211 -0.0025043302701826947 -0.1412439282667808 -0.0030991509586538943 0 0 0 0
4241693 -0.013947671015704323 -0.006090320408320384 -0.14118570042067408 -0.0023984312477228187 0 0 0 0
4268112 -0.014086068804114464 -0.009949911927996066 -0.14137457745693893 -0.0018843572930342797 0 0 0 0
4294531 -0.01410989296240143 -0.012822094504656378 -0.14131597401569804 -0.001372273552148671 0 0 0 0
4320950 -0.014767741310673176 -0.01621925323236902 -0.1411926558929092 -0.0009686197426511462 0 0 0 0
4347369 -0.014960819512147696 -0.01995893700122092 -0.1412642032581859 -0.0004326175245871028 0 0 0 0
4373788 -0.015491481981883857 -0.023424456114500797 -0.141190300773723 0.00012141580733793304 0 0 0 0
4400207 -0.016053335093212887 -0.026897596376951556 -0.1412075744971709 0.0006480238301782136 0 0 0 0
4426626 -0.015886990503836334 -0.03004718086546608 -0.1411920820895542 0.001065416038568522 0 0 0 0
4453045 -0.01658978241013582 -0.033423193244054926 -0.1413474946651118 0.0017130051108972864 0 0 0 0
4479464 -0.017097155889421716 -0.03692945419736786 -0.1411385716618116 0.0021002451063453463 0 0 0 0
4505883 -0.017696342604599825 -0.04025820733287116 -0.14109815651131896 0.002726522309547674 0 0 0 0
4532302 -0.018003683190835205 -0.043490045915695295 -0.1408754308921564 0.0031347433774713894 0 0 0 0
4558721 -0.01852770417171896 -0.04678914920446915 -0.14121202577794778 0.0037155776512934036 0 0 0 0
4585140 -0.019305059857419316 -0.05049400163459137 -0.14110620180856778 0.004082062217036542 0 0 0 0
4611559 -0.01970399900340015 -0.053488297844873856 -0.14088515218701508 0.004612187754823154 0 0 0 0
4637978 -0.02032854057533524 -0.05647555962566217 -0.14109076313418287 0.005224378458036606 0 0 0 0
4664397 -0.02094890092028606 -0.060256062576332835 -0.14103222645128183 0.005445537839012278 0 0 0 0
4690816 -0.021280170289480854 -0.06311806006745532 -0.14105114372942146 0.006321256874534411 0 0 0 0
4717235 -0.02205874584473062 -0.06646427265856975 -0.14093754387825946 0.0065509375019906745 0 0 0 0
4743654 -0.022648333031926628 -0.06944145827132601 -0.14069219709261754 0.006936740488813195 0 0 0 0
4770073 -0.02362600299520491 -0.07291740291380785 -0.1407910990797588 0.0076096121521660835 0 0 0 0
4796492 -0.024383694969364947 -0.0762314623059046 -0.14060981131860706 0.007965518789085585 0 0 0 0
4822911 -0.025050383691204846 -0.07917062821805482 -0.14067643685598605 0.008531081188324942 0 0 0 0
4849330 -0.025609696225041702 -0.08211781995064936 -0.14055532051964037 0.008990438047810112 0 0 0 0
4875749 -0.025277618413115318 -0.08553078783656878 -0.1404051095603923 0.009167102053728043 0 0 0 0
4902168 -0.02679371920100721 -0.08811773337813832 -0.14016322819928867 0.009794595203558791 0 0 0 0
4928587 -0.02770964437062864 -0.09213746512385672 -0.14021167680848276 0.010110868433247553 0 0 0 0
4955006 -0.02792555203317349 -0.09467752755960346 -0.14002389257803102 0.01062199019198902 0 0 0 0
4981425 -0.028774458972326663 -0.09793601007320271 -0.13990995941042214 0.011115107824805499 0 0 0 0
5007844 -0.029985067629645933 -0.09994706587455209 -0.13990537442993117 0.011487847639444104 0 0 0 0
5034263 -0.03131521943885535 -0.10337115666239097 -0.13999051002957538 0.012087596328453794 0 0 0 0
5060682 -0.0317502216709533 -0.10695399497658434 -0.13990929253228826 0.012572251603896441 0 0 0 0
5087101 -0.0327619316243918 -0.10955466927730274 -0.139505882095843 0.012686678968298996 0 0 0 0
5113520 -0.03353737694700781 -0.11211323627288743 -0.13963884391364426 0.013317671269354528 0 0 0 0
5139939 -0.0342192426516158 -0.11531898636320338 -0.13965795456710062 0.014014202429960362 0 0 0 0
5166358 -0.03557672192932932 -0.117759203790331 -0.13938685820124755 0.014074625289936107 0 0 0 0
5192777 -0.03676919129578875 -0.12083970114698188 -0.13920233264825163 0.014744076130226044 0 0 0 0
5219196 -0.03736200925004848 -0.12367015878717065 -0.1393065936954767 0.015258978332469569 0 0 0 0
5245615 -0.03807303735400554 -0.12625356747299485 -0.13900935960598212 0.015478579815278426 0 0 0 0
5272034 -0.039547524801261405 -0.12876245949099582 -0.13880525555421377 0.01584179696382018 0 0 0 0
5298453 -0.04063583339827757 -0.1323230971975929 -0.13895114865760563 0.01639966242874178 0 0 0 0
5324872 -0.0418094125698536 -0.1343627232143638 -0.13872210790746622 0.016608444040465346 0 0 0 0
5351291 -0.04314852971053873 -0.1373662253525106 -0.13882510787181565 0.01704753291862472 0 0 0 0
5377710 -0.043978680646454445 -0.13994302995674715 -0.13856382126493633 0.017610912772523506 0 0 0 0
5404129 -0.04445487477788555 -0.14236950960378023 -0.1385193517548179 0.01810689758327905 0 0 0 0
5430548 -0.046603264427059504 -0.14467550801059587 -0.1382029652413826 0.01846368614786609 0 0 0 0
5456967 -0.04749463764184377 -0.1476546217584069 -0.13811890224079404 0.018648967814735278 0 0 0 0
5483386 -0.048398116310142174 -0.149909244129151 -0.13801905656543528 0.019188368875465902 0 0 0 0
5509805 -0.04927234127986365 -0.15296576195941103 -0.13806785960156345 0.019585706535861412 0 0 0 0
5536224 -0.05023640830202378 -0.15571927018895498 -0.13787844727600856 0.02005303239206402 0 0 0 0
5562643 -0.052424037711282866 -0.15808462158899178 -0.13761598312679751 0.02036094474051943 0 0 0 0
5589062 -0.05364623013118291 -0.16011358726224353 -0.13747257484890518 0.020670994076423702 0 0 0 0
5615481 -0.05472187294878793 -0.16204592803238757 -0.137146058689474 0.021049837568407934 0 0 0 0
5641900 -0.055985237344176514 -0.16568998067167848 -0.13714814781381995 0.021482550261356727 0 0 0 0
5668319 -0.05754553655495068 -0.16817399067838662 -0.13701953376688292 0.021726008832746994 0 0 0 0
5694738 -0.05750768660940753 -0.16969214403682903 -0.13690850755721698 0.02224885389554841 0 0 0 0
5721157 -0.059147940573567974 -0.1729711218234733 -0.13673740233135792 0.02262723416838716 0 0 0 0
5747576 -0.06057389238495974 -0.17454343999050695 -0.13671584091034494 0.023283315391698967 0 0 0 0
5773995 -0.06259366049008214 -0.17727427666241768 -0.13659194128226052 0.023305510066010674 0 0 0 0
5800414 -0.06375945406412156 -0.17888051649815495 -0.1363260090949901 0.02365988509718053 0 0 0 0
5826833 -0.0638195666518655 -0.18096271204686015 -0.1360284268377723 0.024112357875668657 0 0 0 0
5853252 -0.06555074061048413 -0.18428622866129887 -0.13598793376546445 0.024399681573911182 0 0 0 0
5879671 -0.06647078439004525 -0.18581617434814277 -0.13595403642948603 0.024883014961338146 0 0 0 0
5906090 -0.06857850865714271 -0.1889689779983684 -0.13592563676665792 0.025169354135814507 0 0 0 0
5932509 -0.07046622989454952 -0.19077551602189183 -0.13556993700601855 0.02553906232286402 0 0 0 0
5958928 -0.07053868504464274 -0.19311020162942963 -0.13546815912522203 0.02589593571962983 0 0 0 0
5985347 -0.07305441131319557 -0.19568484762071067 -0.13517802143425778 0.026290237146104366 0 0 0 0
6011766 -0.07476110103706213 -0.19760019278913102 -0.13510946370487936 0.026462354961232008 0 0 0 0
6038185 -0.07526428166578189 -0.19898469600020052 -0.13490502237173455 0.027082014060207906 0 0 0 0
6064604 -0.0771124801120412 -0.20238930292462054 -0.13481958251328002 0.027094843381283013 0 0 0 0
6091023 -0.07905800362459145 -0.20390664381411186 -0.1347540662493988 0.027412098559149337 0 0 0 0
6117442 -0.07947276465302518 -0.20578137668943344 -0.13428403478645579 0.02810814172915357 0 0 0 0
6143861 -0.0808140418710645 -0.20798530139908786 -0.13432635308844387 0.028517971281757388 0 0 0 0
6170280 -0.08312792838517537 -0.2106481265768915 -0.134031932947444 0.02870863540295472 0 0 0 0
6196699 -0.08483713320364118 -0.21231994770363463 -0.13399846198797008 0.028746444177584037 0 0 0 0
6223118 -0.08549182432057802 -0.21395781390066804 -0.13379073631768956 0.02928819654562511 0 0 0 0
6249537 -0.08661104030412951 -0.21694340403811674 -0.13367427650078512 0.02952967531912829 0 0 0 0
6275956 -0.08796604577529181 -0.219031788012669 -0.1334026323698444 0.02984574102914771 0 0 0 0
6302375 -0.09075533457663079 -0.22009197615950535 -0.13329522503966962 0.030175440066738904 0 0 0 0
6328794 -0.09071071863691492 -0.22190779955929885 -0.13309466749539942 0.030668789728862403 0 0 0 0
6355213 -0.09253752324758577 -0.22475390739629528 -0.1330995278193 0.030717473808203343 0 0 0 0
6381632 -0.09451683852717757 -0.22643473923602148 -0.13267773465996668 0.03129968764736837 0 0 0 0
6408051 -0.0955332952771756 -0.22821756362586215 -0.13261859742910642 0.03149403128831269 0 0 0 0
6434470 -0.09803063768529033 -0.22981296497595918 -0.13238311321460572 0.03166115927139822 0 0 0 0
6460889 -0.09857185592034826 -0.2316533337163475 -0.13222142140938395 0.032245748421299306 0 0 0 0
6487308 -0.10009714091101281 -0.2340833777740357 -0.13211142070100107 0.03237853304621993 0 0 0 0
6513727 -0.10236679671059182 -0.23599848909887583 -0.13192814379508183 0.03247646707382047 0 0 0 0
6540146 -0.10420290438240361 -0.23764470368169704 -0.13165095794743076 0.032878738619519184 0 0 0 0
6566565 -0.10444573272942675 -0.2399339260368503 -0.13151986609557945 0.03341959754272432 0 0 0 0
6592984 -0.10634160325245852 -0.24118598877637634 -0.13126686004360164 0.03341394898728272 0 0 0 0
6619403 -0.1080546265196848 -0.24261377209547838 -0.13126986787990627 0.033907116045624075 0 0 0 0
6645822 -0.10903191271232741 -0.24528228318183007 -0.13104880716191813 0.0343329782526458 0 0 0 0
6672241 -0.11076176641637313 -0.24654249444648507 -0.1307601307683913 0.03437671111741068 0 0 0 0
6698660 -0.11212654767121871 -0.24799310213110262 -0.13046785678827558 0.03471451201973694 0 0 0 0
6725079 -0.11421218095466219 -0.24998339641890177 -0.13039778387159615 0.03496477417827822 0 0 0 0
6751498 -0.1152389806967553 -0.2520147649444227 -0.1302356421748617 0.03530613379978784 0 0 0 0
6777917 -0.11682832232258797 -0.2536943516772902 -0.13020619091100175 0.035671759404605666 0 0 0 0
6804336 -0.11857077643496446 -0.25585895986846213 -0.12982936741070797 0.03588119758055504 0 0 0 0
6830755 -0.11998165309020253 -0.25661649892030414 -0.12958773072054305 0.036104308660601 0 0 0 0
6857174 -0.12200985388946471 -0.2580645141844926 -0.1294829008541395 0.03642107260043245 0 0 0 0
6883593 -0.12340243257173909 -0.2602987750951306 -0.12920844918894928 0.03655665611229439 0 0 0 0
6910012 -0.12483459140347199 -0.26167083963583043 -0.12909360068620232 0.03681749591600138 0 0 0 0
6936431 -0.1263414646616141 -0.2635541167416065 -0.12893801358599272 0.03715891647650993 0 0 0 0
6962850 -0.12799544976944494 -0.2649548752362408 -0.12876044474995707 0.03754588417982237 0 0 0 0
6989269 -0.12990114288299853 -0.2671042811044799 -0.12854379099586566 0.03791441770639182 0 0 0 0
7015688 -0.1312048788503385 -0.2675147579307166 -0.12841691401419594 0.038143276101232006 0 0 0 0
7042107 -0.13298342474399427 -0.26946956588112847 -0.12821410456965604 0.03834116128049364 0 0 0 0
7068526 -0.13422906341611154 -0.27118508611966136 -0.1281388564560886 0.038612490542952085 0 0 0 0
7094945 -0.13571429215144698 -0.27264927707256575 -0.12779149593681544 0.03852188494267524 0 0 0 0
7121364 -0.13803098133224262 -0.2736805299723538 -0.12753351052226367 0.03903283231227524 0 0 0 0
7147783 -0.13868520959516384 -0.27555780734891433 -0.12757404639334943 0.039316947745078094 0 0 0 0
7174202 -0.1409826159701601 -0.27657360894008853 -0.12716207013445058 0.03946284713640327 0 0 0 0
7200621 -0.14198072350887564 -0.2783522560642275 -0.1269536871197006 0.03968170676557929 0 0 0 0
7227040 -0.1436391620211979 -0.2797725264449143 -0.12691839538021715 0.040193521472791933 0 0 0 0
7253459 -0.14565877302261587 -0.28115761702192604 -0.126701017820843 0.04013705211772243 0 0 0 0
7279878 -0.14671993170127218 -0.2827303375562506 -0.12658882008586922 0.04055523181155608 0 0 0 0
7306297 -0.14913300448745215 -0.28482054903609333 -0.12623439816996204 0.04095658145097796 0 0 0 0
7332716 -0.15039194265118874 -0.28616069201868655 -0.12615431473958302 0.04096164357197498 0 0 0 0
7359135 -0.15175310307140222 -0.28741210131684375 -0.12582616135664815 0.04130325124228509 0 0 0 0
7385554 -0.1529426776045172 -0.2876110603346628 -0.1255440622193788 0.04130359019725029 0 0 0 0
7411973 -0.1545608877519888 -0.2890359814505776 -0.1254495273457975 0.041907682488914855 0 0 0 0
7438392 -0.15685489511442613 -0.29174823154935564 -0.12533891027006244 0.0420241610696114 0 0 0 0
7464811 -0.1581853999511569 -0.29211802316810775 -0.12513066243370008 0.042030015196852163 0 0 0 0
7491230 -0.15925462505532728 -0.29339646292365607 -0.12486302926896017 0.04254528521241158 0 0 0 0
7517649 -0.1612044180828663 -0.2948800285706467 -0.12474551466279052 0.04274241334744433 0 0 0 0
7544068 -0.16316677346111513 -0.2964949353026207 -0.12457537724090526 0.042942549675055744 0 0 0 0
7570487 -0.1639435347928677 -0.29672999724844695 -0.12422472131234208 0.04282429991289794 0 0 0 0
7596906 -0.1661103807234475 -0.2984279168760675 -0.12411994076722947 0.04346431897001359 0 0 0 0
7623325 -0.16797724905693998 -0.3004785097858599 -0.12406304361450098 0.04356502662027382 0 0 0 0
7649744 -0.16931109905648015 -0.3007009585647072 -0.12362144814477563 0.0436755399015891 0 0 0 0
7676163 -0.17020691581436817 -0.3020788870202033 -0.12360687836938815 0.04415859521628524 0 0 0 0
7702582 -0.1726897136361106 -0.3038177671595325 -0.1232918779711277 0.04446874024065528 0 0 0 0
7729001 -0.17422718334251203 -0.3045003349683958 -0.1231345092666955 0.04435700755196906 0 0 0 0
7755420 -0.17491052663740417 -0.30547261586395297 -0.12276375622917243 0.04433501009884351 0 0 0 0
7781839 -0.17649651701910912 -0.3062906526611345 -0.12271712661828031 0.04459166522794149 0 0 0 0
7808258 -0.17902596791609146 -0.30844210876769446 -0.12259629304331619 0.045208671769491005 0 0 0 0
7834677 -0.18013888586853896 -0.30924386803330256 -0.12223756955773434 0.045004706178540355 0 0 0 0
7861096 -0.18224085442643712 -0.3105646984072674 -0.1220969749847756 0.04532903543318917 0 0 0 0
7887515 -0.18349283323574858 -0.31169177413357413 -0.12210094176954163 0.04570868318226521 0 0 0 0
7913934 -0.18464276304829058 -0.31228375486002 -0.12163609744095885 0.04583368916143184 0 0 0 0
7940353 -0.18581397337963934 -0.31348417173815013 -0.12155813211213302 0.046247406448229854 0 0 0 0
7966772 -0.18891501720578868 -0.31520011297647477 -0.12116834352100198 0.04622030878438733 0 0 0 0
7993191 -0.19037259319422112 -0.31597086031223226 -0.12119692253781957 0.04623418908815969 0 0 0 0
8019610 -0.1910201419356697 -0.31684245915407017 -0.12083430223639034 0.046607722707900714 0 0 0 0
8046029 -0.1928129301836741 -0.31742851703953046 -0.12064341470540856 0.046748727169889995 0 0 0 0
8072448 -0.19416576448798667 -0.3188778271201298 -0.12068779737623117 0.047140360058398646 0 0 0 0
8098867 -0.19635312654925277 -0.32028382671707123 -0.120297431589632 0.0473932218974098 0 0 0 0
8125286 -0.19842776203759097 -0.32126807479523634 -0.12017058546601245 0.0475901517384471 0 0 0 0
8151705 -0.19903221346567423 -0.32184381443913473 -0.11987774235939512 0.04754109849735534 0 0 0 0
8178124 -0.2007178433930821 -0.32374241691267336 -0.12010693798023588 0.04783227358760901 0 0 0 0
8204543 -0.20285788322410842 -0.3245623523111264 -0.11959384308144463 0.048076150499811114 0 0 0 0
8230962 -0.2038234143732665 -0.32478643752698544 -0.1193503135219646 0.04826594712230458 0 0 0 0
8257381 -0.2057741795205906 -0.325749645133467 -0.11916885988041384 0.04839421581702985 0 0 0 0
8283800 -0.20696357993316938 -0.3279609776392942 -0.11919760626192531 0.04863032890919204 0 0 0 0
