# HZ S RI R 50
3000000 0.9599493486977003 0.00019790118431966085 0.03971773219302591 0.0030136403656405163 0 0 0 0
3026419 0.9600204042091008 -0.0008938529807718414 0.03980050177386178 0.0029306800444122826 0 0 0 0
3052838 0.9596778984618036 -0.0004476440147502307 0.03975603073297813 0.003053455443263275 0 0 0 0
3079257 0.9599022723235262 -0.0002484096472149566 0.039800094658622186 0.0029453309275388902 0 0 0 0
3105676 0.9607843250374885 2.4074316746470012e-05 0.039840978196152226 0.002967783004111284 0 0 0 0
3132095 0.9594953000341637 -0.00021552213013339262 0.03983366782170253 0.0030768281009965264 0 0 0 0
3158514 0.9597334236417115 -0.0003199522879308512 0.03984082674758603 0.002963852533298277 0 0 0 0
3184933 0.9596747378886016 -0.0007743856174878464 0.039871366534662035 0.003007286571043044 0 0 0 0
3211352 0.9598748101383606 -0.00018468791653858055 0.03973308698602624 0.003007655932385879 0 0 0 0
3237771 0.9592283192463075 -0.00012648007182000222 0.03977795447399378 0.002962957912865609 0 0 0 0
3264190 0.9598196097859507 -0.000531655854626833 0.0398513526396812 0.002950563817731641 0 0 0 0
3290609 0.959671104451147 -0.0006969287179466665 0.03982352186440237 0.0029910893785403403 0 0 0 0
3317028 0.9599463927574151 -0.0006561069246122274 0.03981325021974305 0.002953137233128702 0 0 0 0
3343447 0.9602123518152718 -0.0008648797171507003 0.039875501700755885 0.0029856175032413625 0 0 0 0
3369866 0.9599469889630461 -0.0012315044959197712 0.03978724373712856 0.00299735002270875 0 0 0 0
3396285 0.9601614386939812 -0.0006306275431762828 0.0398133023623467 0.0029828791971965225 0 0 0 0
3422704 0.9599324354465826 -0.0012704350313322854 0.03983167155019308 0.0030237559555858677 0 0 0 0
3449123 0.9600026992326571 -0.00026825122162776833 0.03981992554378093 0.003001139386028114 0 0 0 0
3475542 0.9591945580178987 -0.000221548283615422 0.039789588067709644 0.003029493121250835 0 0 0 0
3501961 0.9596403785417318 -0.0006844798725694068 0.03980196258539561 0.0030793226249264402 0 0 0 0
3528380 0.9597743711538307 -0.001516746165363087 0.03978927464793665 0.002890925208374736 0 0 0 0
3554799 0.9609646590743945 -0.00041858444189099537 0.03976466945539926 0.0030157316219503842 0 0 0 0
3581218 0.9602584533474819 -0.001017453031141167 0.03981865800149427 0.002890110522589701 0 0 0 0
3607637 0.9602499269727006 -0.0011343991813231047 0.039746862351931804 0.0030667735151155753 0 0 0 0
3634056 0.9602029099932502 -0.0008834754108007683 0.03980782087329968 0.0029972080003106095 0 0 0 0
3660475 0.960270159937244 -0.0004843271318351768 0.039829537034538565 0.0030412818527924368 0 0 0 0
3686894 0.9603669368291108 -0.0005322938995970505 0.039824859608696965 0.0030676876498926336 0 0 0 0
3713313 0.9599461306169206 -0.0007736976378167531 0.0398512522606375 0.0029904389324122115 0 0 0 0
3739732 0.9596492865387902 -0.0011039530868607842 0.03984810348295864 0.002912421968147645 0 0 0 0
3766151 0.9599384189622157 -0.0013408560858677821 0.039889741666509666 0.0030306188019523558 0 0 0 0
3792570 0.9604333783545478 -0.0007401993233217321 0.03982990692386188 0.0030690411773844012 0 0 0 0
3818989 0.9598851412732983 -0.0004138774754770412 0.039754026018215406 0.003054916981654318 0 0 0 0
3845408 0.9601355080265461 -0.0006147367308796837 0.03971371036781957 0.003112187547189311 0 0 0 0
3871827 0.9598270803996938 -0.0006432168892432216 0.03988963677680478 0.0030792872854244003 0 0 0 0
3898246 0.9604512809222184 -0.0008014125896144281 0.03979300631393522 0.0030627039788782215 0 0 0 0
3924665 0.9599638469671593 -0.0006724822834509247 0.039756977161812555 0.0030535067586479605 0 0 0 0
3951084 0.9602419906102476 -0.0007855756385589495 0.03974778051941235 0.003090401779586653 0 0 0 0
3977503 0.9602262865376215 -0.0005268676062907923 0.03983399677519031 0.0030396459997754787 0 0 0 0
4003922 0.9605566776533745 -0.00047696865052635455 0.039880530973256355 0.003110587505166919 0 0 0 0
4030341 0.9607687393182833 -0.0011171087310803253 0.03985311761364386 0.003117500661200939 0 0 0 0
4056760 0.9595445622266149 -0.0009007201978635831 0.03981457878687794 0.0030673055813637503 0 0 0 0
4083179 0.9600671072749029 -0.0007298395157104502 0.03977984490726054 0.003080891603879894 0 0 0 0
4109598 0.9605882750620184 -0.0007061034052924196 0.039783777902917164 0.0029998489183182607 0 0 0 0
4136017 0.9598637339166578 -0.0011198463043704439 0.039794602235772504 0.0031190475814723475 0 0 0 0
4162436 0.9597339845395975 -0.0008348566737028415 0.039822263969370206 0.0031233610731370397 0 0 0 0
4188855 0.9598551267349384 -0.0009104800624696334 0.03979889594050718 0.0030734579330320773 0 0 0 0
4215274 0.9607515548812264 -0.0011056876305540083 0.0399077385673105 0.003011008544986128 0 0 0 0
4241693 0.9601745589132415 -0.0016446346393532724 0.039881525873315 0.003074416962488099 0 0 0 0
4268112 0.9608792053831868 -0.00128975362577085 0.039817003427072256 0.003099292693954564 0 0 0 0
4294531 0.9605776211920396 -0.0004361416113592654 0.039844149234556904 0.003023607377060999 0 0 0 0
4320950 0.9599488085004724 -0.0013736120311520358 0.03982880274903032 0.003147189606619866 0 0 0 0
4347369 0.9606514913060039 -0.0010243687117582653 0.03983294814001466 0.0030421483411843713 0 0 0 0
4373788 0.9595035589888957 -0.00048255222211634796 0.03986885984323424 0.003053918855845216 0 0 0 0
4400207 0.9600489460465574 -0.001039179488705644 0.03983348479112881 0.003037541810222025 0 0 0 0
4426626 0.9607278520092877 -0.0008344858223806425 0.03988933455498396 0.0031196878643467867 0 0 0 0
4453045 0.9602086364929775 -0.0004937456958981264 0.039736356435492684 0.0031765633453205433 0 0 0 0
4479464 0.9601768720191174 -0.000993523786566969 0.039872283473926726 0.0031756046728959706 0 0 0 0
4505883 0.9599558385064414 -0.00126955719504592 0.03983558178862486 0.0030647800604444303 0 0 0 0
4532302 0.960124686351814 -0.0011054163384777718 0.039789176601357425 0.0031336395388964406 0 0 0 0
4558721 0.9601340080683392 -0.001168530860902623 0.039842639084129924 0.0030825490590331963 0 0 0 0
4585140 0.9600223578782763 -0.001764357555975916 0.039781439716131003 0.0030019713078133455 0 0 0 0
4611559 0.9592932007102809 -0.0007001773048307452 0.03983349874783532 0.003056392275863749 0 0 0 0
4637978 0.9592953033788024 -0.0009366004511619835 0.03980080852088414 0.003035937479961749 0 0 0 0
4664397 0.9594548027628685 -0.0015665208372249654 0.03978537533584293 0.003106861374099784 0 0 0 0
4690816 0.9598384057856499 -0.0003198323058627043 0.039837539356719784 0.0031247444803179127 0 0 0 0
4717235 0.9610750700062376 -0.0015032382536724661 0.03987430277595156 0.003073442970233543 0 0 0 0
4743654 0.9609149870611333 -0.0016662048580151582 0.03983516177255102 0.0030904247257669813 0 0 0 0
4770073 0.9596069934413993 -0.0008183887570435862 0.039807951082781665 0.0030664631029964523 0 0 0 0
4796492 0.9597697686403095 -0.000697499263569623 0.039815155915408 0.0031530984879890216 0 0 0 0
4822911 0.9602327639343383 -0.0019800279060969653 0.03978118710403798 0.0031439969172355657 0 0 0 0
4849330 0.9606227831352049 -0.0019148024523330646 0.03984403381114309 0.003102094282966342 0 0 0 0
4875749 0.9599964629216717 -0.0003786525195266487 0.03984832710208373 0.003150176060034184 0 0 0 0
4902168 0.959606633724172 -0.00043723567506587436 0.03981630178827394 0.0031049902081569758 0 0 0 0
4928587 0.9600440873567812 -0.0012100488970228083 0.03982565799274106 0.0030475456903191708 0 0 0 0
4955006 0.9599277279084857 -0.000612959414316288 0.03981594910297855 0.0030967089612244907 0 0 0 0
4981425 0.9596459253650113 -0.0005933544403474022 0.039819171578737864 0.003197908841695786 0 0 0 0
5007844 0.9595122449261598 -0.0015420699817716285 0.03978412581747485 0.0031261512078322525 0 0 0 0
5034263 0.9595643303609612 -0.0015321295215294129 0.03975353418792871 0.0031227400250598745 0 0 0 0
5060682 0.9594984802030748 -0.0014308491974809098 0.039876935778414724 0.003082536224002264 0 0 0 0
5087101 0.9591243319056657 -0.0009849098675722351 0.03983958233878995 0.0031161673579898426 0 0 0 0
5113520 0.9598553948108928 -0.0008298296957664671 0.03983989640730449 0.0031099686892434044 0 0 0 0
5139939 0.9599133762179405 -0.0010227261040807348 0.03972948840497425 0.0032025998195884422 0 0 0 0
5166358 0.9596588566399495 -0.0015223542627485114 0.03989053093933419 0.003116318257152283 0 0 0 0
5192777 0.9592470358180756 -0.0013711547866467912 0.03982751701478534 0.0031291927932332935 0 0 0 0
5219196 0.9604297236035273 -0.0004746791736682072 0.03985614704986897 0.0031141432645911534 0 0 0 0
5245615 0.9599184924871383 -0.0014105233836504325 0.039850353978719485 0.0031124216021592662 0 0 0 0
5272034 0.9592868862964973 -0.0016065028789300328 0.03976570831794969 0.003119716662568532 0 0 0 0
5298453 0.9599709589470442 -0.002002056374904545 0.03981412942721287 0.0031170996227891986 0 0 0 0
5324872 0.9603834849224251 -0.001987981173059493 0.03982399715332269 0.0031912240252916645 0 0 0 0
5351291 0.9598067996585794 -0.0012863159150775193 0.039719287950362746 0.0031797748851326688 0 0 0 0
5377710 0.9594867250618478 -0.000987996471413252 0.039881472790534625 0.0031737477883681084 0 0 0 0
5404129 0.9604490161504762 -0.0010687189397864396 0.039879503300669375 0.0031675861769264123 0 0 0 0
5430548 0.9599916341236098 -0.001937556065087574 0.03988955907738926 0.0031524661420938224 0 0 0 0
5456967 0.9604014508327774 -0.0010513133982924718 0.03979947516468 0.0032122740172707983 0 0 0 0
5483386 0.961068967378637 -0.0006433485612352726 0.0398344120691798 0.0031349434436520928 0 0 0 0
5509805 0.9608605717148744 -0.0014777716048894839 0.039842361739243784 0.0031598904686569824 0 0 0 0
5536224 0.9606003309637954 -0.0018047662094268359 0.03980768751827325 0.003211542442765285 0 0 0 0
5562643 0.9599117274789007 -0.0019164076715974575 0.039866082884917026 0.0031619151493401778 0 0 0 0
5589062 0.9599971645227005 -0.0005691032160959645 0.03983121669227893 0.0031474147586365705 0 0 0 0
5615481 0.9604298357532102 -0.001642774448378572 0.03990601950081827 0.0031840906959686804 0 0 0 0
5641900 0.9601734853361994 -0.0018391836638485335 0.03987413091398374 0.003100313164008004 0 0 0 0
5668319 0.9610646794537763 -0.0013964633061062882 0.03981011748829259 0.0031249357493000948 0 0 0 0
5694738 0.9599926676298596 -0.0010271582944156017 0.0398630124314235 0.003143617289234223 0 0 0 0
5721157 0.9596349075346657 -0.0009150951545071704 0.03989396467766987 0.003152284542057773 0 0 0 0
5747576 0.9598217409205233 -0.0009815715844839138 0.03989979170822831 0.0031724842985561197 0 0 0 0
5773995 0.9598923601102127 -0.0015323783379355344 0.03973749516159325 0.0031911903431411644 0 0 0 0
5800414 0.959604385708163 -0.0016388531066920753 0.03978640842017744 0.0031450497891039 0 0 0 0
5826833 0.9595530706889814 -0.0010673982161005303 0.03988189525019047 0.0032198474984559636 0 0 0 0
5853252 0.9597008651330907 -0.0016035744787285555 0.03981518910721945 0.0031688291840507765 0 0 0 0
5879671 0.9595639303389325 -0.0013254453587935673 0.03985721967916444 0.0031832710613626074 0 0 0 0
5906090 0.9601691517450505 -0.0017439747977848153 0.03978628781436676 0.003109884907680944 0 0 0 0
5932509 0.9593663827277874 -0.0006895937201098877 0.03987469971466914 0.0031690104642840057 0 0 0 0
5958928 0.9601574934921832 -0.0006299300372407592 0.0398191745437537 0.0031530743233292744 0 0 0 0
5985347 0.9597886448909563 -0.002030494719635936 0.03986637216699837 0.0031174326275028343 0 0 0 0
6011766 0.9597307083397038 -0.0009373241228912037 0.03986928151681305 0.003188799565003508 0 0 0 0
6038185 0.9598162089331438 -0.001912484587006136 0.039799683125369995 0.003124888564686833 0 0 0 0
6064604 0.9596832732955681 -0.001605015477656709 0.039908018583964124 0.0031079763773802947 0 0 0 0
6091023 0.9592313928887333 -0.0010482260257350551 0.03979348180983301 0.0032540284140368525 0 0 0 0
6117442 0.9600393687416264 -0.0007574726493286292 0.03989461627498884 0.0032133357948108316 0 0 0 0
6143861 0.9608707344665663 -0.0019484701873687888 0.03983671558769151 0.0032267637771922018 0 0 0 0
6170280 0.9597121954944197 -0.0011101708030160703 0.03983788415394507 0.0032232208244788894 0 0 0 0
6196699 0.9604344498927164 -0.000658812347622612 0.039841735810480255 0.0031975431901875907 0 0 0 0
6223118 0.9597261434288749 -0.0015421936438721115 0.03991074528514986 0.00323286555824971 0 0 0 0
6249537 0.9602396355689836 -0.0008345704050292451 0.03979727046497905 0.0033182688596862598 0 0 0 0
6275956 0.9598558407297086 -0.0012126764063350231 0.03991324346099249 0.003217575226128685 0 0 0 0
6302375 0.9596775832395823 -0.0017070865239786639 0.03986571473223038 0.0033440044471996816 0 0 0 0
6328794 0.9596756275930901 -0.0010233571787299951 0.039755272482911316 0.0032084613644693693 0 0 0 0
6355213 0.9595600879939162 -0.0009527734614545489 0.03978775538384028 0.0032136696333775147 0 0 0 0
6381632 0.9604963786754207 -0.001955436705993 0.03982161892349958 0.003266640010909357 0 0 0 0
6408051 0.9597279017682082 -0.0016405174894305037 0.039817976142485306 0.0031297860340686687 0 0 0 0
6434470 0.9589230493150175 -0.000950439186394596 0.039839800634137355 0.0032466144219357933 0 0 0 0
6460889 0.960034025655656 -0.0009249600121887567 0.03983373435982499 0.003222770790416245 0 0 0 0
6487308 0.9603442878358073 -0.0010362366894200498 0.03990479963860601 0.0032916581384996525 0 0 0 0
6513727 0.9601745323246166 -0.0017218172941192219 0.03971666284966242 0.0032728575802033017 0 0 0 0
6540146 0.9593540081288483 -0.001062455035134729 0.0398760618212785 0.003266512074736067 0 0 0 0
6566565 0.9609261132196173 -0.0012481201164560175 0.0398482588594833 0.0032473416502721945 0 0 0 0
6592984 0.9599888566045851 -0.001952047002092086 0.03984684611215286 0.003218834674906042 0 0 0 0
6619403 0.9597092493045271 -0.0009109624709275612 0.03988504436830125 0.00324704902821752 0 0 0 0
6645822 0.9599349870805041 -0.0013716454909922823 0.0398580931258211 0.0032456544852421916 0 0 0 0
6672241 0.9593551561620286 -0.0016747974430706908 0.03988538003417937 0.0031837919719950184 0 0 0 0
6698660 0.9597381485010104 -0.0016449306468270498 0.03984977412961751 0.003314886335175983 0 0 0 0
6725079 0.9599842257269544 -0.001127317559937412 0.03984384853294013 0.0032167166445088166 0 0 0 0
6751498 0.9594825428724448 -0.0011040208665683364 0.03980263919243456 0.003268318105102373 0 0 0 0
6777917 0.9605248991098864 -0.0017295513896503814 0.039844511901178145 0.003328416313335296 0 0 0 0
6804336 0.960628472714625 -0.002416082992055406 0.03989968098682214 0.0032312465185361477 0 0 0 0
6830755 0.9600238434132878 -0.0008261151491939289 0.03987967508932183 0.0032008000636205595 0 0 0 0
6857174 0.9602244917774552 -0.0022813002972817 0.039913147546374025 0.00335156528797599 0 0 0 0
6883593 0.9599359689423509 -0.002270434798964058 0.039864247518893635 0.0032431128316346416 0 0 0 0
6910012 0.9602470765218026 -0.0018280281940171782 0.0399160780303802 0.0032782780463981925 0 0 0 0
6936431 0.9607085404732452 -0.0019973918335816437 0.03980608456910156 0.0032854098678271066 0 0 0 0
6962850 0.9591921009778811 -0.001083084356153421 0.039854313706120595 0.003352754182022525 0 0 0 0
6989269 0.9603311099005367 -0.0011572663543996395 0.03993536745612985 0.003323078028410434 0 0 0 0
7015688 0.9600566345786835 -0.001875435830736181 0.03981269677765501 0.003313190854903679 0 0 0 0
7042107 0.959678293125422 -0.001484173829673554 0.03979371081964211 0.0032981659700617332 0 0 0 0
7068526 0.959500971079155 -0.001731114169670931 0.039918222562672814 0.0033254673988907003 0 0 0 0
7094945 0.9607091734944567 -0.0018467549481715206 0.039870404154339845 0.0032600841329036854 0 0 0 0
7121364 0.9598038265034888 -0.001523189424116235 0.039846695911063865 0.0032691239264934398 0 0 0 0
7147783 0.9599065898289041 -0.0008556142531845955 0.039871458367506246 0.0032750322558299785 0 0 0 0
7174202 0.9602139547797331 -0.0030877498846145477 0.03984865411289896 0.0033178329832413028 0 0 0 0
7200621 0.9592202703694713 -0.0014988522117133072 0.03983732428871042 0.0033331175648828966 0 0 0 0
7227040 0.9595037058178469 -0.0006473536620603341 0.039835006189185854 0.0032874069585735076 0 0 0 0
7253459 0.9593482363411607 -0.0014954043379016239 0.03981559962459857 0.0033129888600675348 0 0 0 0
7279878 0.9595897299366525 -0.0010983528720131936 0.03989444969395861 0.0032840745253810352 0 0 0 0
7306297 0.960985648834785 -0.002034184980114665 0.03987292946044514 0.003328177855798875 0 0 0 0
7332716 0.9604483449847369 -0.0017006548877681444 0.03983826787984091 0.0032369302152508352 0 0 0 0
7359135 0.9591250201184081 -0.0013470665927171601 0.03978982569900746 0.0032868288908229127 0 0 0 0
7385554 0.9597375979596231 -0.0021151609996118105 0.03983170093848274 0.003297809666311706 0 0 0 0
7411973 0.9606519125906073 -0.001397874428036568 0.03994930230641988 0.003306841658251597 0 0 0 0
7438392 0.9602897635363457 -0.001464066549552316 0.03988283514693556 0.003313006326569525 0 0 0 0
7464811 0.9603942621840148 -0.0012812453730619057 0.03987068986067805 0.0032898108277423692 0 0 0 0
7491230 0.9598397930327977 -0.0018070333650705307 0.03982612484977372 0.0033491592280868636 0 0 0 0
7517649 0.9601863624584946 -0.0014601791908609915 0.039845240614117185 0.003348085846339109 0 0 0 0
7544068 0.9607922460927129 -0.0024873465368311443 0.039942870021186 0.0032720180326307226 0 0 0 0
7570487 0.9600462415940894 -0.002192298539598991 0.03990135997351506 0.0033097933565817087 0 0 0 0
7596906 0.9604856805660588 -0.001622706442431309 0.03990711280302738 0.0034034715271411813 0 0 0 0
7623325 0.9600964640549439 -0.001865567527975423 0.03985929806303807 0.00332945388826824 0 0 0 0
7649744 0.9604859872792052 -0.0019405592057204631 0.03986005633984498 0.0033520925464806126 0 0 0 0
7676163 0.9591194874007569 -0.001485953576037229 0.03979973533889893 0.003338197895465622 0 0 0 0
7702582 0.9611036609986614 -0.001966697779600777 0.03986472339677299 0.0032748738981340925 0 0 0 0
7729001 0.9600381937821058 -0.0029160752909447836 0.03979583168671868 0.0032435131728698833 0 0 0 0
7755420 0.9597963635194773 -0.0012804434269192597 0.03989872793965323 0.003279229871380767 0 0 0 0
7781839 0.9591771339281114 -0.0010748164119176854 0.039918810656090396 0.003307168052234877 0 0 0 0
7808258 0.9612322275613557 -0.003055285034529274 0.039876911111567416 0.0034171507144254718 0 0 0 0
7834677 0.960044237754775 -0.0022391950553503678 0.03985008264571658 0.0033980510382985857 0 0 0 0
7861096 0.9599171585655607 -0.0012317596234223994 0.03987946616607736 0.0033532405741810104 0 0 0 0
7887515 0.9601160901796953 -0.0013359027274989857 0.0398878779164365 0.003325576165490622 0 0 0 0
7913934 0.9608461769249453 -0.0017437501615064034 0.03988549966824061 0.0032890721613655577 0 0 0 0
7940353 0.960538175935081 -0.0020455583262286867 0.039889062833174706 0.003361463515872659 0 0 0 0
7966772 0.960025813042336 -0.002384715988533025 0.03985646146172793 0.003353188428049698 0 0 0 0
7993191 0.9607966149087397 -0.0019596005513045946 0.03993017749430542 0.0033020536863464555 0 0 0 0
8019610 0.9604832800014244 -0.0011717070077366296 0.03982805329948933 0.003347842681024186 0 0 0 0
8046029 0.9599225056560717 -0.002396422007918129 0.03981099998606081 0.003346422435641206 0 0 0 0
8072448 0.9592953320966446 -0.0018345761369066788 0.03990591287288639 0.0034008983013029924 0 0 0 0
8098867 0.9608069234560997 -0.002628178745718205 0.03985283482786867 0.0033839466928631493 0 0 0 0
8125286 0.9599384649734185 -0.0026488352789586756 0.039866659264180516 0.0033619523262631186 0 0 0 0
8151705 0.9601537106473546 -0.0022890012426552823 0.039802011431953124 0.0033163016214109945 0 0 0 0
8178124 0.9602070848932284 -0.0022800474584557255 0.03988183327286755 0.003341034806797428 0 0 0 0
8204543 0.960226242003977 -0.0019493030623937084 0.03988787921259947 0.003396159895357521 0 0 0 0
8230962 0.9602044997767475 -0.0017358895690511766 0.03992502408522052 0.0032514828357912548 0 0 0 0
8257381 0.9589886281851636 -0.0015625855964616338 0.03977557945931687 0.0033521226554776933 0 0 0 0
