# HZ S RI R 50
50000 -0.9958190788316506 0.04051836260016977
79305 -1.0000881270357094 0.06886851485369976
108610 -0.9936917958323424 0.08861255963824052
137915 -0.9680998234359501 0.10828834748110039
167220 -0.99882621783414 0.1330415603024324
196525 -0.9802436701541855 0.15507965836957385
225830 -0.9806792660875202 0.18056223969829333
255135 -0.961487794138107 0.20546905812921915
284440 -0.9674536538277342 0.22984266570860437
313745 -0.9617879172315086 0.24644477079589786
343050 -0.9554807595940152 0.2675203375922316
372355 -0.9479934039732776 0.289037159958516
401660 -0.9421387359094634 0.31058513430901735
430965 -0.9330779117045669 0.3328908959002316
460270 -0.9260037443559177 0.3528458002490766
489575 -0.9187409007718934 0.3733950264107337
518880 -0.9101076646316272 0.3934242324890288
548185 -0.9000992323045623 0.4153591640532045
577490 -0.8908654656595725 0.434729961999445
606795 -0.8828171717697036 0.4547168436295968
636100 -0.8689069549054513 0.4712932251512374
665405 -0.8588335889102905 0.492906754333369
694710 -0.8469722241408414 0.5108780414262678
724015 -0.8335509859979034 0.529162185895355
753320 -0.8269408780680996 0.5486686016522786
782625 -0.8107607858020649 0.5633447435425626
811930 -0.7981398755857004 0.5801150782618654
841235 -0.7851794098320023 0.597734434894348
870540 -0.770826880316148 0.6149054350799648
899845 -0.7487444452574705 0.6279930908961281
929150 -0.7430906221397122 0.647042818203648
958455 -0.72957065394712 0.6628980498564792
987760 -0.7159738813937662 0.6757644935763677
1017065 -0.6997963349212164 0.6921176439586199
1046370 -0.6844835836415301 0.706505057487213
1075675 -0.6702155018008189 0.7194956518466226
1104980 -0.654029738397269 0.7341994326229626
1134285 -0.6393485183579665 0.7474239929813076
1163590 -0.6236217592423646 0.7590534057522694
1192895 -0.6095380601201004 0.7717715944624334
1222200 -0.5919953352667132 0.7843108233583989
1251505 -0.5743539064277675 0.7966656182982977
1280810 -0.5595351376676378 0.8074936376694021
1310115 -0.5424522456083917 0.819027469535407
1339420 -0.5262405048300804 0.8273951643335425
1368725 -0.5110676175654294 0.8372493318912841
1398030 -0.4933631814670077 0.8468318172193054
1427335 -0.4765436058658894 0.8563671143140934
1456640 -0.45956913144547007 0.8663399324000863
1485945 -0.442090672107523 0.8746439651153994
1515250 -0.4243692288326053 0.8826087266211244
1544555 -0.40910960161054355 0.8891754707320444
1573860 -0.3916238813216429 0.8968477607690447
1603165 -0.375232140422491 0.9044464501286157
1632470 -0.3567212191650795 0.9119441807837321
1661775 -0.3389272939825562 0.9174006769208597
1691080 -0.3224499318632421 0.9246230272821582
1720385 -0.3053869179014688 0.9308244070326597
1749690 -0.2868491129949334 0.9356778579808057
1778995 -0.27112128638527516 0.9410755176843904
1808300 -0.2547523845621095 0.9435538907207637
1837605 -0.23695469264337324 0.9495457702838143
1866910 -0.220265522272859 0.9524460849147713
1896215 -0.2028539131325673 0.9560381966706398
1925520 -0.18587734396996314 0.9597951464887429
1954825 -0.16909643416818518 0.9632427476853108
1984130 -0.15116790681951078 0.9651399597675896
2013435 -0.13501283855254254 0.9669819664475942
2042740 -0.11699781662360764 0.968854869245035
2072045 -0.1023326160427834 0.9720727637300817
2101350 -0.08482079124909479 0.9719828324669995
2130655 -0.06875916902523849 0.9742359829490708
2159960 -0.052512899265713085 0.9737846676244747
2189265 -0.03559110024856779 0.9740807532518984
2218570 -0.019416388952334357 0.9746403847726542
2247875 -0.003631198722743091 0.9749257774523968
2277180 0.012462635921768732 0.9751127550232692
2306485 0.02861234593186587 0.9741554569048184
2335790 0.044052020290422024 0.9742880454765677
2365095 0.058470579736127994 0.9739401869609373
2394400 0.07526325500513079 0.9732516337853437
2423705 0.08989249547570217 0.971148299837305
2453010 0.10542106847879264 0.9690004784369599
2482315 0.12079849030880989 0.9671395396662624
2511620 0.1343553051087373 0.9652146741535531
2540925 0.15026259967211636 0.963071555865404
2570230 0.16467590352242722 0.9592906799442855
2599535 0.179225282151673 0.9571222161141569
2628840 0.19318187326764852 0.9539130650646078
2658145 0.2085981402352945 0.9522995755364378
2687450 0.22260131774323022 0.9489595381094302
2716755 0.2372408342638753 0.9451293772608714
2746060 0.25023655705132986 0.9406530665390544
2775365 0.2643674940545202 0.9374174096985055
2804670 0.27829343708224386 0.933389128510438
2833975 0.2907464080659542 0.9292450189569779
2863280 0.30486532153633916 0.9247475535585723
2892585 0.3164454834647989 0.9196447350573226
2921890 0.32984136139779263 0.914506168992085
2951195 0.3438789058369851 0.9095047737813973
2980500 0.3568262770896469 0.9050872777696627
3009805 0.36842116358663557 0.8998580947699342
3039110 0.3821189183939245 0.8950756889529315
3068415 0.39304452339562956 0.8893346628428422
3097720 0.40417432223000277 0.8842931381308397
3127025 0.4167374891768749 0.8776489882741301
3156330 0.4290300429077536 0.872538205539637
3185635 0.44038925140145396 0.8670270396250178
3214940 0.45190895705986245 0.8610260634055855
3244245 0.46359688764112694 0.8549333465004874
3273550 0.47374034026679346 0.8496600323802039
3302855 0.4847705488968039 0.8419417781694085
3332160 0.49537295878007626 0.835705542953259
3361465 0.5059543294846918 0.8301350403549087
3390770 0.5163140153732442 0.8223244721487223
3420075 0.5271652474333522 0.8169413996724556
3449380 0.5368013455092453 0.8090380359984523
3478685 0.5465758033257526 0.8032042791233385
3507990 0.5569639198271722 0.7964411895695632
3537295 0.5672582232418147 0.7889677554605028
3566600 0.5772628539399662 0.7808856191324436
3595905 0.5868959882859976 0.7751669463436897
3625210 0.5962851684931767 0.766382396385795
3654515 0.6053692066903649 0.760004931075159
3683820 0.6143662665410208 0.7529394128891322
3713125 0.6222986679863902 0.7453950811630243
3742430 0.6311027440364486 0.7375397504151526
3771735 0.6402741693190848 0.7300683478380315
3801040 0.6485112656106711 0.7221353895909013
3830345 0.6576919390221683 0.7152052083362983
3859650 0.6650479784688664 0.7072332186367537
3888955 0.6732781695901924 0.7010793350870875
3918260 0.6811781787924783 0.6914570317058323
3947565 0.688826601472045 0.6836379985576612
3976870 0.6963734555564988 0.6767342342361758
4006175 0.7039353484741089 0.6687754794814372
4035480 0.7108158942905443 0.6611578138828506
4064785 0.7183895676144542 0.6527080258218366
4094090 0.7250392979263927 0.6450263353672152
4123395 0.7323422910372662 0.6365155634178918
4152700 0.7392899045814424 0.6279724970973152
4182005 0.7464972251250016 0.6202924486938441
4211310 0.7523410964530397 0.6117246679534625
4240615 0.7590195733406042 0.6044641168625672
4269920 0.7651015123437752 0.596490106831573
4299225 0.7720452552924046 0.5874606031340134
4328530 0.7775954200067069 0.5797508047991199
4357835 0.7840039238361765 0.5710713264078608
4387140 0.7895313942242528 0.5628106000222014
4416445 0.795022796829829 0.5545398213707087
4445750 0.8008983237676528 0.5465450698604675
4475055 0.8060359143426 0.538508789494151
4504360 0.8119404065078516 0.5299746506346411
4533665 0.8179006398042447 0.5215220933101111
4562970 0.8229571300051551 0.5125170451559785
4592275 0.8278421534107258 0.5049047967230538
4621580 0.8327088981682887 0.49709782604213804
4650885 0.836597403456828 0.48723684173167014
4680190 0.8419047634067228 0.480066434986691
4709495 0.8468008597134973 0.47105858209776097
4738800 0.8517265924494215 0.46335851490975066
4768105 0.855947980665604 0.4543565615846238
4797410 0.860142724776744 0.4463762438151034
4826715 0.8632237532612241 0.4382607015664756
4856020 0.8679892240733227 0.429689849255372
4885325 0.8724480131470734 0.42099396360943786
4914630 0.8764547689048223 0.41313312852408945
4943935 0.8805217173101401 0.4048467466460116
4973240 0.8848715251518388 0.39586534289813996
5002545 0.8883354517170001 0.3884180043112407
5031850 0.8915076983139214 0.37981932004447283
5061155 0.8943658791665818 0.3709563341609522
5090460 0.8973205128086864 0.36382316327394393
5119765 0.9009141597502413 0.3551112807417406
5149070 0.903092422947813 0.3464547890793067
5178375 0.9069855323808115 0.3377810355658697
5207680 0.9101336306092578 0.330391222328998
5236985 0.9136539596431534 0.322032544935976
5266290 0.9153544497096108 0.3136983636927279
5295595 0.9176870407257899 0.3058322889329078
5324900 0.9198726583835853 0.29737078753357066
5354205 0.9231309746072263 0.28881323292857414
5383510 0.925943060798266 0.28113872620949654
5412815 0.9270308700869867 0.2728774620911919
5442120 0.9293224409437437 0.2634649869558661
5471425 0.9309605423911195 0.2564047496498098
5500730 0.9330174708288697 0.24811189698997987
5530035 0.9360500993134541 0.24050277725562122
5559340 0.9387336008269843 0.23222584581588812
5588645 0.9386525627125315 0.2238808937245355
5617950 0.9421073097956862 0.21580210748058415
5647255 0.9432948738625123 0.2080246115184569
5676560 0.9450927044276318 0.1993688881254602
5705865 0.9460252064087317 0.1918489098447351
5735170 0.9467566559273721 0.18407042775159746
5764475 0.9481944815152672 0.17576322325153942
5793780 0.9497760815562324 0.16780602955507912
5823085 0.9519675970981832 0.1604947943388387
5852390 0.9527867679489777 0.15206817272641915
5881695 0.9537152233374458 0.1449432998859523
5911000 0.9533788328605127 0.13706028058125422
5940305 0.9547830022542283 0.12990115258425924
5969610 0.955520794024287 0.1219496982217618
5998915 0.9562807939986917 0.1146358803804683
6028220 0.956935555896688 0.10576193273067724
6057525 0.9571728063620034 0.09786594170563433
6086830 0.9585362654230725 0.09162312555782717
6116135 0.9593088143887157 0.08408945978973671
6145440 0.9593494067818988 0.07617804624454283
6174745 0.9585178158411976 0.06814102648171907
6204050 0.9598122559727221 0.06135234334438009
6233355 0.9593565213662029 0.05358389311785655
6262660 0.9598178919311318 0.04636340239507632
6291965 0.9594675154685127 0.038904906968080376
6321270 0.9590047923699393 0.030979388932945762
6350575 0.9596196262265033 0.023863304316157522
6379880 0.959362830676963 0.016370455014989488
6409185 0.9579826880891683 0.009757965413883886
6438490 0.9583572073608498 0.0025747852019417056
6467795 0.9590442738371637 -0.004068887641769929
6497100 0.9580232844329306 -0.011591511933880623
6526405 0.958214005580255 -0.01900366752700561
6555710 0.9563519516863234 -0.025828764977622445
6585015 0.9561086047458912 -0.032767042008321895
6614320 0.9549932461708531 -0.03870487810919891
6643625 0.9545702494911511 -0.04550273319371399
6672930 0.9540205389374378 -0.05370314415031997
6702235 0.9535742215956886 -0.0594201389645822
6731540 0.9525282100802713 -0.06783399272732547
6760845 0.9518738016088878 -0.07397060973973155
6790150 0.9507119397275113 -0.07959557855390187
6819455 0.9498197068744342 -0.08719301771245652
6848760 0.948715182089205 -0.09317226862523932
6878065 0.9475789594476368 -0.0999063599120298
6907370 0.9472005537401484 -0.10663085046136674
6936675 0.9449846928707493 -0.11272765468766217
6965980 0.9428041004601396 -0.11883261087747193
6995285 0.9427059041705983 -0.12576451330190108
7024590 0.9426011201524813 -0.13247784424753278
7053895 0.9409514441676998 -0.13835470764963173
7083200 0.9390039190727603 -0.1450412261169596
7112505 0.9381235957907674 -0.15013157871898963
7141810 0.9360208560204908 -0.15767503432269822
7171115 0.9337615336038482 -0.16294162640241053
7200420 0.9326751811358917 -0.1698397521878276
7229725 0.9306094152574962 -0.1747525164252282
7259030 0.9303448044212251 -0.1811999586908275
7288335 0.9288484729444133 -0.18696204014119652
7317640 0.9274561212274974 -0.19397784903404414
7346945 0.9236574470406674 -0.19696659766932245
7376250 0.9236442939474198 -0.20381769606976516
7405555 0.9198973602507412 -0.20979054697881463
7434860 0.9195831890614066 -0.21628441831878212
7464165 0.9176585222456211 -0.22140035718161008
7493470 0.9160896360658326 -0.22767464704155208
7522775 0.9148099099619819 -0.23290175467982957
7552080 0.9128739896999453 -0.23763794668008445
7581385 0.9098040984292801 -0.24316923880287322
7610690 0.9081238451604062 -0.24943241159772161
7639995 0.9056172764982722 -0.2539276519339897
7669300 0.9042332759171413 -0.2606537853495497
7698605 0.9017841856268851 -0.26550930483530855
7727910 0.899471488895395 -0.2703884103047346
7757215 0.8983393908460994 -0.2764266518797901
7786520 0.8965300930361549 -0.2824569304762579
7815825 0.8936790446680464 -0.2870317668680238
7845130 0.892177625509542 -0.2921888360831129
7874435 0.8895723127466869 -0.2967637643402179
7903740 0.8868820670977642 -0.3019873777011382
7933045 0.8853373755852416 -0.30726082820500034
7962350 0.8825652859057371 -0.3125511709766801
7991655 0.8798639396324335 -0.31767502301946265
8020960 0.8779845429703077 -0.3222391986394731
8050265 0.8765547547848129 -0.32777992653105864
8079570 0.8745085490202772 -0.3318319747842009
8108875 0.8712848898023127 -0.3370814363766167
8138180 0.868611939598748 -0.3421156039670041
8167485 0.8672620441204649 -0.34712473323452375
8196790 0.8649217829441425 -0.3514135328230544
8226095 0.8621333306238274 -0.35514351790245613
8255400 0.8594469387793378 -0.36038508882773607
8284705 0.8568814731990729 -0.36519115677519265
8314010 0.8546148380947876 -0.37001855833467495
8343315 0.8534555112267092 -0.3750034108615341
8372620 0.8497420779871216 -0.37813866406930313
8401925 0.84707336986948 -0.38331758005098027
8431230 0.8453542034308504 -0.3879207869348333
8460535 0.8431568172133186 -0.3924832614853519
8489840 0.8398464363902634 -0.396100569089352
8519145 0.8377841900352321 -0.3996198981459406
8548450 0.8356804793074281 -0.40572845472156766
8577755 0.8320766068947922 -0.40874384651066786
8607060 0.8297953120176247 -0.4128501897728291
8636365 0.8277057007081465 -0.4175717297671261
8665670 0.8241467912858151 -0.4219755476140882
8694975 0.8230388161401275 -0.4262831114030827
8724280 0.8203967421556478 -0.43083203842170636
8753585 0.8180158714514613 -0.4347479571576224
8782890 0.8154852183741692 -0.43892707391336333
8812195 0.8123484006252292 -0.4426664395155032
8841500 0.8102447630985524 -0.4465627112481117
8870805 0.8070501175650112 -0.4508707429393233
8900110 0.8054137055618289 -0.45533870987129066
8929415 0.8024225835616742 -0.45852021377783375
8958720 0.8001650124051651 -0.4625380049622146
8988025 0.797144900923418 -0.4660043924078495
9017330 0.7945607456700448 -0.4698516481049621
9046635 0.79195448906252 -0.4742850849277941
9075940 0.7897192746794646 -0.4778435756322706
9105245 0.7856481409755257 -0.4810917276181677
9134550 0.7831870500647774 -0.4848915372380503
9163855 0.7808548287907905 -0.4883612828973079
9193160 0.7779012516541999 -0.4925600880439536
9222465 0.7754706208630895 -0.49584730601954397
9251770 0.7729195852631491 -0.49928287150965195
9281075 0.7701099760787756 -0.5027471573098519
9310380 0.7668854351811673 -0.506704725782347
9339685 0.7646445076287961 -0.510649972692028
9368990 0.7610791229368333 -0.5141954968192372
9398295 0.7596858074460917 -0.5180612455247375
9427600 0.7567264791071655 -0.5204746162474893
9456905 0.7532069868675915 -0.5236032564473568
9486210 0.7508449590072257 -0.5271510625164303
9515515 0.7485401995122946 -0.5309856364671609
9544820 0.7457732055564252 -0.5342477172107147
9574125 0.7433714063498623 -0.5384359474745382
9603430 0.7396572262024507 -0.5411710139692302
9632735 0.7375553866778674 -0.5442640482335618
9662040 0.7345412467800264 -0.5476687000189454
9691345 0.7316197748679717 -0.5506265677644685
9720650 0.7290573868854695 -0.5539096555292929
9749955 0.72625075519109 -0.5576034260102303
9779260 0.7231810597493589 -0.5602465489877735
9808565 0.7208860192696942 -0.563236137085395
9837870 0.7175858478141445 -0.567175327503975
9867175 0.7149072162462392 -0.5698296227535373
9896480 0.71297378527312 -0.5722858245843422
9925785 0.7094325040839702 -0.5760893393362523
9955090 0.7061500528729895 -0.5788647704455291
9984395 0.7042399469714554 -0.5827351989339966
10013700 0.7004910593879463 -0.5846925313044259
10043005 0.6981615465115564 -0.5875958994597904
10072310 0.6948922517655546 -0.5902419364305677
10101615 0.6927687596139361 -0.592902526749553
10130920 0.6903042080988374 -0.595961863558889
10160225 0.6870614174354756 -0.5993066359992153
10189530 0.6834040452897221 -0.6013883299375238
10218835 0.681569730314462 -0.6047423664116016
10248140 0.6778901744894584 -0.6070688813303994
10277445 0.6759178988172105 -0.6111035903045434
10306750 0.6734947817727968 -0.6131327863352725
10336055 0.6693908333901099 -0.6149856751706937
10365360 0.6667989065701218 -0.6182514358915486
10394665 0.6639253310954992 -0.6196794842328796
10423970 0.6627002772495412 -0.6243372002417594
10453275 0.6583362560049271 -0.6250357140646853
10482580 0.6557653900988144 -0.6277687256750534
10511885 0.6544703906237689 -0.6316529861595687
10541190 0.6510550856501571 -0.6350220925295053
10570495 0.6485646736856677 -0.637137521275552
10599800 0.6454943294741183 -0.6386289854990945
10629105 0.6426829058255465 -0.6420699103947025
10658410 0.637360551893601 -0.6439786945444995
10687715 0.6355477599346313 -0.646523229754926
10717020 0.6332918452619267 -0.648950895000412
10746325 0.6309918862797014 -0.6508504422380595
10775630 0.6284970400249926 -0.6545661306104775
10804935 0.6246658198163587 -0.6577534634110864
10834240 0.6223638483445435 -0.6581876156256967
10863545 0.6189587391245911 -0.6615851436474278
10892850 0.6158770554717222 -0.663165033177311
10922155 0.6150465066103755 -0.6662479630994302
10951460 0.6116491469005234 -0.6686884018904322
10980765 0.6081289225226224 -0.6714796748416701
11010070 0.6051469893357884 -0.6734573299407448
11039375 0.6015513581599127 -0.6762901996577547
11068680 0.5997351450228627 -0.6770153666214188
11097985 0.5977558067510055 -0.6792478056700584
11127290 0.5958091449040627 -0.682516439572744
11156595 0.5922174016422475 -0.6845680328113956
11185900 0.5897702886768883 -0.6864426505681654
11215205 0.5852792494812471 -0.6881404309814458
11244510 0.5825644207382149 -0.6899251271519948
11273815 0.581235267475921 -0.6917841385601986
11303120 0.5772922600862234 -0.6950915279382465
11332425 0.5751641449009741 -0.6961779719698691
11361730 0.572093005543974 -0.6986965875246669
11391035 0.5701704611782984 -0.701485136628954
11420340 0.5656109902755224 -0.7036298390566632
11449645 0.5639594956799787 -0.7048069411719329
11478950 0.5607251069874616 -0.7077090736887786
11508255 0.5577549641940776 -0.7079638144630996
11537560 0.5558902579288021 -0.7101067156049069
11566865 0.5527971033205246 -0.7123422209972492
11596170 0.5504156280288278 -0.7143558469729455
11625475 0.5470420518091306 -0.71785481777459
11654780 0.5439151318147702 -0.7193401032582482
11684085 0.5418449896108534 -0.7216851876552011
11713390 0.5384276974144415 -0.7230963996027471
11742695 0.536066879925446 -0.7251307515424223
11772000 0.5325941772780014 -0.7265744671488112
11801305 0.5294268673027923 -0.7283974013107416
11830610 0.5267621672779258 -0.7297129492159252
11859915 0.5246476664232682 -0.7323655445282165
11889220 0.5215815154638745 -0.7344028514596402
11918525 0.5197235089283202 -0.7358504696529153
11947830 0.5172211419029195 -0.7379331820708315
11977135 0.5143276374554205 -0.7399929649779705
12006440 0.5107075859543144 -0.7414233077436672
12035745 0.5087804142530683 -0.7430406577109355
12065050 0.5062352949396041 -0.7448492101318038
12094355 0.5024883448519741 -0.7456906162713187
12123660 0.49986495269800035 -0.7474762917484101
12152965 0.4978911454253978 -0.7487255464625673
12182270 0.49558847630606384 -0.7519105046631004
12211575 0.4928174887400621 -0.7534482136759963
12240880 0.48928260996873835 -0.7544913323190604
12270185 0.4865682800433241 -0.7562652955779618
12299490 0.4841068611604461 -0.7582267344301703
12328795 0.4807213754395068 -0.7585514718512939
12358100 0.4793328822812386 -0.7614068225481626
12387405 0.4766846984058443 -0.7623867728436114
12416710 0.4738028987133115 -0.7644075472114856
12446015 0.4720131516402954 -0.7664310449840664
12475320 0.4693057915260405 -0.766904621305351
