# HZ S RI R 50
50000 -0.9942344313919976 0.0036048521764112753
349500 -0.9975016098149209 0.01839674708950161
649000 -0.9934976702319958 0.030892492497163478
948500 -0.9932096860049289 0.04528121870485826
1248000 -0.9908423211351559 0.05812501699736339
1547500 -0.9896303150992207 0.07100250692441278
1847000 -0.9877561408997665 0.08348436202582121
2146500 -0.9854396300563754 0.09605287720626073
2446000 -0.9833057796708705 0.10934011540437874
2745500 -0.9809843247305438 0.12120112496635281
3045000 -0.9786815916945801 0.13307384668263575
3344500 -0.9776077638058126 0.1467770388946166
3644000 -0.9742606523121086 0.1593030200159059
3943500 -0.9712468966317717 0.1712512155211027
4243000 -0.9698379565103176 0.18253755546732103
4542500 -0.9660222161215474 0.19544723545249826
4842000 -0.9634065191050847 0.2062032777319872
5141500 -0.9598626425094328 0.21834310552183592
5441000 -0.9573818462781634 0.23023219384222735
5740500 -0.9538079420235408 0.24394671737528684
6040000 -0.9500115586749219 0.2557301230856692
6339500 -0.9454726121620297 0.2652538105942771
6639000 -0.9432315814666424 0.2773790614689282
6938500 -0.9384400203013716 0.2893580571113739
7238000 -0.9354298289727748 0.3010968384031395
7537500 -0.9308907919327583 0.3117165118850697
7837000 -0.926154078696625 0.3241804089287757
8136500 -0.9216730854796182 0.33606873882460225
8436000 -0.9172140705961406 0.34493531988776344
8735500 -0.9129006986598207 0.35770026480054024
9035000 -0.9083676203249792 0.36809888600030466
9334500 -0.9041839018667461 0.3788299781644584
9634000 -0.8987876099046231 0.3914763927145898
9933500 -0.8931866856444529 0.40144230129504144
10233000 -0.8878921402653829 0.4118545385189196
10532500 -0.8829808307636017 0.4224953807464483
10832000 -0.8779916860120516 0.43229983776110625
11131500 -0.8719842706528483 0.44385667626131475
11431000 -0.8666388137197379 0.4541513154941262
11730500 -0.8601110659064419 0.46297296287466483
12030000 -0.8549406705338523 0.4749676342215331
12329500 -0.8480890644872867 0.4849366487707444
12629000 -0.8433788518386022 0.49312022487038865
12928500 -0.8357663862152787 0.5049722653866815
13228000 -0.8303381786319812 0.5140362754339551
13527500 -0.8249973270840064 0.523219688002581
13827000 -0.8181647205203532 0.5336003201660721
14126500 -0.8105797486237251 0.5417239145231084
14426000 -0.8052760369449334 0.5518299194067557
14725500 -0.7979475693210492 0.5611176014076045
15025000 -0.7902786393925779 0.5698784410902785
15324500 -0.7858347042192932 0.5792966796707103
15624000 -0.7778227548496159 0.5876585785599657
15923500 -0.7705335678694039 0.5966627140321249
16223000 -0.7639498873419831 0.6059991874878464
16522500 -0.7555311869647727 0.6143020913499211
16822000 -0.7484990650969974 0.6225681231903184
17121500 -0.7420639171678403 0.6299841901580642
17421000 -0.7347263519066237 0.6393761383087001
17720500 -0.7257646455735463 0.6472770061783646
18020000 -0.7184413539769436 0.6564720551694008
18319500 -0.7119847050869788 0.6622219308905297
18619000 -0.7045326261981854 0.6711238921337148
18918500 -0.6975670085172133 0.6779374327592727
19218000 -0.6887602030251899 0.6863374678989786
19517500 -0.6811692783194047 0.6948974210525407
19817000 -0.6739285378765848 0.7011854537688924
20116500 -0.6653220340004632 0.7077042375563046
20416000 -0.6569878079761763 0.7146760020732141
20715500 -0.6490049128377002 0.7217812979296803
21015000 -0.6419769571508296 0.7292256414816032
21314500 -0.633971697233645 0.7364671141621582
21614000 -0.6258920779157107 0.7418098144764868
21913500 -0.6182669731669449 0.748628639223168
22213000 -0.6095059999451119 0.754051835902529
22512500 -0.6012808366890471 0.7629243681401174
22812000 -0.5926144790410176 0.7664723952079666
23111500 -0.584368322880987 0.7737548955478291
23411000 -0.5764383703822435 0.7808076817273252
23710500 -0.567506145321849 0.7863383893917028
24010000 -0.5601282636063437 0.7908278533305755
24309500 -0.5514067602404261 0.7966999755669121
24609000 -0.5433054105692765 0.8032636993428747
24908500 -0.5346213214910287 0.8103037827858034
25208000 -0.5270130557803617 0.81406083236378
25507500 -0.517772844753946 0.8199990397939768
25807000 -0.5091556034003409 0.8252430173965397
26106500 -0.5020326673726782 0.8290650408516529
26406000 -0.4930751364352305 0.833721131553768
26705500 -0.4828256863977165 0.8401280796360213
27005000 -0.47500638808179435 0.8427298682105795
27304500 -0.4667141998048288 0.8486758415121121
27604000 -0.45798752241524116 0.854557419329306
27903500 -0.4487467258245091 0.8588177946715775
28203000 -0.4387309371717638 0.863180574336547
28502500 -0.43145681265266517 0.8674976338159219
28802000 -0.42369597999165204 0.8686668871106085
29101500 -0.41687016738912647 0.8727808660091175
29401000 -0.4068709040457991 0.8770822826529006
29700500 -0.39695223876536645 0.8824508855750375
30000000 -0.3893338570652067 0.8856614211202626
