# MHz S MA R 50
!   freq        S11              S21              S12              S22       
0.050000  0.96106   -0.02  0.04742    1.88  0.04709    1.59  0.96170   -0.04
0.100000  0.95952   -0.04  0.04670    2.52  0.04675    2.03  0.95895   -0.04
0.150000  0.96003   -0.01  0.04693    1.58  0.04618    1.55  0.95981   -0.02
0.200000  0.95985    0.02  0.04677    2.00  0.04650    1.90  0.95959   -0.01
0.250000  0.95924   -0.03  0.04691    2.35  0.04673    2.13  0.95936   -0.05
0.300000  0.95958   -0.02  0.04641    0.06  0.04797    2.17  0.95923   -0.04
0.350000  0.95956   -0.07  0.04653    1.92  0.04651    1.89  0.95994   -0.10
0.400000  0.96008   -0.05  0.04657    1.84  0.04669    1.99  0.95983   -0.06
0.450000  0.95945   -0.04  0.03930  -12.45  0.03918  -12.62  0.95977   -0.07
0.500000  0.95990   -0.04  0.04754    1.75  0.04748    1.82  0.95978   -0.05
0.550000  0.96010   -0.05  0.04754    1.86  0.04754    1.71  0.95980   -0.05
0.600000  0.96049   -0.04  0.04779    1.80  0.04766    1.78  0.95986   -0.08
0.650000  0.95953   -0.05  0.04742    2.03  0.04741    1.86  0.95909   -0.06
0.700000  0.96020   -0.06  0.04760    2.09  0.04736    2.19  0.95952   -0.05
0.750000  0.95869   -0.06  0.04761    1.99  0.04755    2.12  0.95908   -0.10
0.800000  0.95941   -0.05  0.04734    2.30  0.04756    2.08  0.95995   -0.07
0.850000  0.96012   -0.06  0.04757    2.23  0.04746    2.33  0.95964   -0.08
0.900000  0.95926   -0.07  0.04758    2.10  0.04748    2.34  0.95915   -0.07
0.950000  0.95951   -0.09  0.04740    2.18  0.04741    2.13  0.95950   -0.09
1.000000  0.96027   -0.05  0.04749    2.25  0.04729    2.43  0.95955   -0.08
1.050000  0.95964   -0.10  0.04714    2.32  0.04747    2.25  0.96084   -0.07
1.100000  0.95990   -0.08  0.04751    2.24  0.04742    2.46  0.95976   -0.08
1.150000  0.95961   -0.10  0.04740    2.32  0.04746    2.07  0.95995   -0.10
1.200000  0.96118   -0.10  0.04779    2.38  0.04755    2.38  0.95997   -0.13
1.250000  0.95975   -0.09  0.04755    2.26  0.04741    2.43  0.95938   -0.11
1.300000  0.95992   -0.13  0.04747    2.32  0.04749    2.10  0.95937   -0.10
1.350000  0.96008   -0.11  0.04756    2.13  0.04727    2.32  0.96007   -0.10
1.400000  0.95998   -0.09  0.04736    2.30  0.04729    2.43  0.95945   -0.12
1.450000  0.95943   -0.11  0.04756    2.16  0.04750    2.31  0.96007   -0.12
1.500000  0.96079   -0.13  0.04760    2.14  0.04755    2.30  0.96084   -0.14
1.550000  0.95979   -0.17  0.04745    2.19  0.04746    2.11  0.95938   -0.13
1.600000  0.95977   -0.16  0.04741    2.38  0.04744    2.23  0.95992   -0.13
1.650000  0.95966   -0.14  0.04768    2.43  0.04797    2.31  0.96069   -0.15
1.700000  0.95957   -0.14  0.04745    2.07  0.04737    2.37  0.95962   -0.16
1.750000  0.95936   -0.16  0.04726    2.49  0.04740    2.18  0.95929   -0.16
1.800000  0.96053   -0.16  0.04764    2.08  0.04758    2.40  0.96082   -0.18
1.850000  0.95995   -0.16  0.04749    2.25  0.04747    2.18  0.95924   -0.17
1.900000  0.96001   -0.18  0.04742    2.43  0.04738    2.39  0.95944   -0.18
1.950000  0.95973   -0.16  0.04760    2.05  0.04732    2.43  0.96025   -0.16
2.000000  0.95966   -0.16  0.04741    2.18  0.04747    2.34  0.95988   -0.16
2.050000  0.95964   -0.18  0.04746    2.13  0.04742    2.10  0.95876   -0.21
2.100000  0.95973   -0.17  0.04733    2.33  0.04735    2.41  0.95941   -0.19
2.150000  0.95979   -0.20  0.04739    2.41  0.04742    2.38  0.95928   -0.16
2.200000  0.95915   -0.20  0.04735    2.41  0.04751    2.07  0.95952   -0.19
2.250000  0.95904   -0.19  0.04733    2.29  0.04732    2.29  0.95893   -0.21
2.300000  0.95976   -0.20  0.04752    2.13  0.04738    2.39  0.95965   -0.21
2.350000  0.95959   -0.19  0.04743    2.27  0.04741    2.20  0.95921   -0.20
2.400000  0.95891   -0.18  0.04762    2.15  0.04750    2.38  0.95944   -0.19
2.450000  0.95988   -0.20  0.04741    2.31  0.04747    2.39  0.96010   -0.19
2.500000  0.96016   -0.21  0.04748    2.28  0.04743    2.22  0.95974   -0.27
2.550000  0.95894   -0.21  0.04728    2.39  0.04755    2.17  0.95982   -0.23
2.600000  0.95962   -0.24  0.04748    2.11  0.04747    2.25  0.95988   -0.24
2.650000  0.95995   -0.23  0.04750    2.23  0.04734    2.41  0.95957   -0.22
2.700000  0.95976   -0.27  0.04731    2.40  0.04747    2.10  0.95915   -0.24
2.750000  0.96006   -0.25  0.04744    2.23  0.04745    2.40  0.96026   -0.23
2.800000  0.95947   -0.26  0.04740    2.41  0.04752    2.19  0.95977   -0.28
2.850000  0.95856   -0.27  0.04737    2.11  0.04732    2.39  0.95942   -0.26
2.900000  0.95983   -0.28  0.04740    2.36  0.04746    2.19  0.95922   -0.27
2.950000  0.95965   -0.26  0.04744    2.12  0.04746    2.02  0.95950   -0.29
3.000000  0.95894   -0.29  0.04731    2.34  0.04751    2.23  0.95975   -0.31
3.050000  0.95932   -0.29  0.04748    2.09  0.04753    2.38  0.96038   -0.27
3.100000  0.95938   -0.26  0.04753    2.12  0.04742    2.19  0.95986   -0.26
3.150000  0.96002   -0.28  0.04758    2.14  0.04751    2.37  0.96012   -0.31
3.200000  0.95984   -0.29  0.04740    2.37  0.04736    2.43  0.95931   -0.30
3.250000  0.95977   -0.29  0.04735    2.44  0.04746    2.22  0.96040   -0.30
3.300000  0.95953   -0.29  0.04743    2.09  0.04734    2.24  0.95918   -0.32
3.350000  0.96028   -0.30  0.04752    2.23  0.04751    2.07  0.95967   -0.27
3.400000  0.95982   -0.30  0.04742    2.32  0.04736    2.50  0.95982   -0.30
3.450000  0.96011   -0.34  0.04733    2.37  0.04741    2.27  0.95972   -0.34
3.500000  0.95959   -0.32  0.04745    2.04  0.04740    2.19  0.96005   -0.33
3.550000  0.95983   -0.34  0.04736    2.40  0.04746    2.18  0.96015   -0.35
3.600000  0.96038   -0.32  0.04740    2.11  0.04743    2.35  0.96013   -0.30
3.650000  0.95970   -0.32  0.04749    2.37  0.04751    2.05  0.95924   -0.35
3.700000  0.95994   -0.33  0.04742    2.32  0.04730    2.45  0.95953   -0.34
3.750000  0.95913   -0.35  0.04749    2.05  0.04749    2.24  0.95881   -0.30
3.800000  0.95956   -0.35  0.04730    2.48  0.04745    2.21  0.96022   -0.37
3.850000  0.95964   -0.32  0.04735    2.41  0.04744    2.15  0.95916   -0.31
3.900000  0.96005   -0.34  0.04740    2.28  0.04734    2.45  0.95942   -0.35
3.950000  0.96002   -0.35  0.04737    2.47  0.04746    2.20  0.95957   -0.35
4.000000  0.96032   -0.35  0.04749    2.26  0.04738    2.42  0.95955   -0.36
4.050000  0.95960   -0.37  0.04747    2.07  0.04745    2.34  0.95944   -0.36
4.100000  0.96018   -0.37  0.04746    2.12  0.04738    2.34  0.95953   -0.36
4.150000  0.95947   -0.38  0.04738    2.35  0.04750    2.13  0.95959   -0.38
4.200000  0.95881   -0.36  0.04746    2.08  0.04749    2.31  0.95918   -0.37
4.250000  0.96027   -0.38  0.04747    2.26  0.04739    2.33  0.95953   -0.37
4.300000  0.95992   -0.37  0.04732    2.52  0.04749    2.18  0.95967   -0.38
4.350000  0.95990   -0.42  0.04740    2.24  0.04742    2.14  0.96016   -0.40
4.400000  0.96002   -0.39  0.04746    2.17  0.04744    2.22  0.96000   -0.41
4.450000  0.95985   -0.39  0.04748    2.39  0.04737    2.41  0.95985   -0.41
4.500000  0.95941   -0.42  0.04740    2.15  0.04745    2.18  0.95967   -0.40
4.550000  0.95962   -0.41  0.04747    2.09  0.04750    2.17  0.95989   -0.42
4.600000  0.96007   -0.43  0.04739    2.42  0.04747    2.37  0.95951   -0.44
4.650000  0.95995   -0.43  0.04741    2.18  0.04740    2.31  0.96012   -0.42
4.700000  0.95995   -0.42  0.04737    2.38  0.04738    2.40  0.96003   -0.42
4.750000  0.95983   -0.43  0.04746    2.15  0.04743    2.13  0.95960   -0.43
4.800000  0.95989   -0.43  0.04749    2.35  0.04740    2.40  0.95967   -0.43
4.850000  0.95967   -0.47  0.04747    2.25  0.04741    2.16  0.95934   -0.45
4.900000  0.95979   -0.42  0.04747    2.06  0.04754    2.03  0.95939   -0.43
4.950000  0.95936   -0.45  0.04747    2.22  0.04752    2.20  0.96024   -0.44
5.000000  0.95990   -0.48  0.04744    2.14  0.04745    2.15  0.95980   -0.47
5.050000  0.95940   -0.46  0.04743    2.38  0.04737    2.39  0.95931   -0.46
5.100000  0.95992   -0.49  0.04747    2.27  0.04745    2.07  0.95972   -0.46
5.150000  0.95969   -0.47  0.04752    2.05  0.04750    2.28  0.96019   -0.46
5.200000  0.96000   -0.47  0.04739    2.43  0.04742    2.28  0.95968   -0.47
5.250000  0.95927   -0.44  0.04743    2.35  0.04752    2.10  0.95971   -0.45
5.300000  0.95936   -0.52  0.04740    2.17  0.04742    2.32  0.95991   -0.49
5.350000  0.95994   -0.47  0.04744    2.10  0.04749    2.00  0.95998   -0.46
5.400000  0.95946   -0.49  0.04746    2.31  0.04733    2.44  0.95940   -0.51
5.450000  0.95984   -0.54  0.04740    2.25  0.04747    2.12  0.95975   -0.48
5.500000  0.95946   -0.50  0.04748    2.05  0.04753    2.29  0.95990   -0.48
5.550000  0.95999   -0.48  0.04748    2.23  0.04737    2.34  0.95960   -0.53
5.600000  0.95966   -0.50  0.04743    2.15  0.04752    2.09  0.96023   -0.51
5.650000  0.95998   -0.53  0.04750    2.14  0.04751    2.08  0.95989   -0.53
5.700000  0.95988   -0.52  0.04732    2.39  0.04745    2.32  0.95956   -0.53
5.750000  0.95951   -0.53  0.04738    2.16  0.04739    2.32  0.95989   -0.52
5.800000  0.95986   -0.53  0.04743    2.09  0.04749    2.09  0.95993   -0.50
5.850000  0.95994   -0.52  0.04747    2.00  0.04747    2.09  0.95941   -0.53
5.900000  0.95945   -0.56  0.04743    2.00  0.04746    2.29  0.95968   -0.57
5.950000  0.95945   -0.52  0.04740    2.43  0.04749    2.24  0.95992   -0.52
6.000000  0.95905   -0.53  0.04752    2.25  0.04749    1.97  0.95917   -0.55
6.050000  0.96017   -0.54  0.04746    2.24  0.04749    2.10  0.96004   -0.55
6.100000  0.95971   -0.56  0.04744    2.10  0.04738    2.32  0.95957   -0.56
6.150000  0.95992   -0.54  0.04751    2.23  0.04752    2.06  0.95961   -0.58
6.200000  0.96004   -0.57  0.04745    2.17  0.04750    2.28  0.95962   -0.54
6.250000  0.96017   -0.58  0.04747    2.05  0.04749    2.05  0.95998   -0.54
6.300000  0.95984   -0.58  0.04740    2.33  0.04750    2.14  0.96000   -0.56
6.350000  0.95936   -0.60  0.04750    1.93  0.04756    2.15  0.95994   -0.56
6.400000  0.95971   -0.57  0.04745    2.11  0.04753    1.97  0.95956   -0.57
6.450000  0.96010   -0.60  0.04756    1.97  0.04751    2.30  0.95940   -0.59
6.500000  0.96031   -0.62  0.04757    2.02  0.04745    2.24  0.95961   -0.61
6.550000  0.95927   -0.60  0.04735    2.45  0.04745    2.20  0.95990   -0.58
6.600000  0.95944   -0.54  0.04747    2.08  0.04747    2.11  0.95966   -0.58
6.650000  0.96015   -0.59  0.04749    2.19  0.04742    2.35  0.95934   -0.63
6.700000  0.95937   -0.64  0.04737    2.40  0.04740    2.26  0.95931   -0.63
6.750000  0.95983   -0.61  0.04750    2.12  0.04754    1.99  0.96008   -0.60
6.800000  0.95988   -0.62  0.04755    2.24  0.04739    2.39  0.95955   -0.62
6.850000  0.95958   -0.60  0.04746    2.33  0.04743    2.20  0.95915   -0.61
6.900000  0.95910   -0.66  0.04752    1.98  0.04741    2.24  0.95907   -0.65
6.950000  0.95996   -0.65  0.04753    2.23  0.04756    1.95  0.96010   -0.64
7.000000  0.95960   -0.62  0.04745    2.23  0.04742    2.38  0.95969   -0.65
7.050000  0.95972   -0.64  0.04752    2.02  0.04741    2.16  0.95916   -0.62
7.100000  0.95987   -0.65  0.04747    2.27  0.04751    1.98  0.95984   -0.65
7.150000  0.95984   -0.62  0.04751    2.21  0.04757    2.21  0.95967   -0.65
7.200000  0.95917   -0.65  0.04742    2.11  0.04757    2.15  0.95945   -0.66
7.250000  0.96032   -0.67  0.04758    2.02  0.04742    2.25  0.95931   -0.68
7.300000  0.96000   -0.66  0.04751    2.26  0.04752    2.01  0.95927   -0.67
7.350000  0.96063   -0.63  0.04752    2.09  0.04754    2.20  0.96059   -0.66
7.400000  0.95988   -0.69  0.04749    1.98  0.04743    2.26  0.95989   -0.66
7.450000  0.95948   -0.65  0.04756    2.03  0.04746    1.98  0.95906   -0.67
7.500000  0.95995   -0.72  0.04743    2.36  0.04753    2.03  0.95933   -0.70
7.550000  0.95999   -0.72  0.04744    2.22  0.04752    2.10  0.96025   -0.67
7.600000  0.95999   -0.67  0.04751    2.07  0.04748    2.13  0.95913   -0.67
7.650000  0.95985   -0.73  0.04744    2.33  0.04753    2.04  0.95985   -0.69
7.700000  0.95939   -0.73  0.04742    2.28  0.04752    2.19  0.96021   -0.70
7.750000  0.95911   -0.70  0.04752    2.19  0.04747    2.21  0.95919   -0.71
7.800000  0.96001   -0.69  0.04749    2.15  0.04749    2.16  0.95996   -0.67
7.850000  0.95976   -0.68  0.04752    2.15  0.04750    2.13  0.95945   -0.72
7.900000  0.95939   -0.77  0.04746    2.36  0.04755    2.01  0.95983   -0.73
7.950000  0.95948   -0.70  0.04746    2.18  0.04754    2.18  0.95932   -0.70
8.000000  0.95987   -0.75  0.04748    2.17  0.04761    1.92  0.95956   -0.73
8.050000  0.95925   -0.73  0.04750    2.23  0.04756    2.23  0.95971   -0.74
8.100000  0.95987   -0.75  0.04756    1.97  0.04746    2.27  0.95957   -0.72
8.150000  0.95988   -0.73  0.04756    2.25  0.04742    2.29  0.95935   -0.74
8.200000  0.95956   -0.80  0.04747    2.16  0.04749    2.19  0.95918   -0.75
8.250000  0.96004   -0.74  0.04751    2.10  0.04751    2.18  0.95980   -0.74
8.300000  0.95956   -0.78  0.04740    2.32  0.04747    2.27  0.95965   -0.80
8.350000  0.95927   -0.75  0.04745    2.06  0.04749    2.01  0.95955   -0.75
8.400000  0.95970   -0.79  0.04750    2.11  0.04754    2.14  0.95941   -0.77
8.450000  0.95969   -0.79  0.04753    1.93  0.04756    1.88  0.95933   -0.78
8.500000  0.95984   -0.77  0.04753    2.23  0.04747    2.26  0.95956   -0.75
8.550000  0.96000   -0.83  0.04751    2.16  0.04754    2.10  0.95975   -0.81
8.600000  0.96003   -0.77  0.04763    1.92  0.04755    2.05  0.96026   -0.76
8.650000  0.96003   -0.81  0.04758    2.13  0.04760    2.25  0.96002   -0.77
8.700000  0.96002   -0.79  0.04757    1.90  0.04751    2.12  0.95987   -0.83
8.750000  0.95982   -0.78  0.04757    2.23  0.04743    2.35  0.95962   -0.82
8.800000  0.95973   -0.81  0.04754    2.11  0.04751    2.08  0.96003   -0.81
8.850000  0.95944   -0.81  0.04757    1.96  0.04757    1.94  0.95962   -0.79
8.900000  0.95978   -0.83  0.04757    2.06  0.04757    2.14  0.95952   -0.84
8.950000  0.95940   -0.84  0.04762    2.10  0.04753    2.30  0.95940   -0.82
9.000000  0.95971   -0.81  0.04763    2.14  0.04758    1.95  0.95942   -0.85
9.050000  0.95943   -0.83  0.04750    2.11  0.04760    2.06  0.95992   -0.86
9.100000  0.95942   -0.83  0.04754    1.99  0.04758    1.89  0.95961   -0.82
9.150000  0.96005   -0.85  0.04757    2.15  0.04749    2.32  0.95966   -0.88
9.200000  0.95969   -0.83  0.04757    2.06  0.04761    1.93  0.95953   -0.86
9.250000  0.95949   -0.83  0.04758    2.21  0.04747    2.24  0.95936   -0.87
9.300000  0.95968   -0.83  0.04745    2.22  0.04749    2.18  0.95926   -0.84
9.350000  0.95973   -0.88  0.04756    1.96  0.04759    1.91  0.95980   -0.88
9.400000  0.95982   -0.86  0.04764    1.88  0.04757    2.01  0.95977   -0.85
9.450000  0.95928   -0.87  0.04760    1.97  0.04754    2.12  0.95921   -0.85
9.500000  0.95952   -0.94  0.04752    2.18  0.04761    2.00  0.95973   -0.87
9.550000  0.95945   -0.86  0.04754    2.26  0.04760    2.05  0.95950   -0.90
9.600000  0.95975   -0.85  0.04759    2.15  0.04761    1.90  0.95943   -0.88
9.650000  0.96016   -0.88  0.04750    2.14  0.04755    2.00  0.96023   -0.87
9.700000  0.95954   -0.92  0.04755    1.89  0.04753    2.02  0.95959   -0.89
9.750000  0.95979   -0.90  0.04762    2.13  0.04754    1.96  0.95959   -0.92
9.800000  0.95946   -0.89  0.04752    2.22  0.04756    2.15  0.95968   -0.94
9.850000  0.96033   -0.89  0.04753    2.03  0.04756    2.12  0.95976   -0.90
9.900000  0.95966   -0.90  0.04764    1.80  0.04763    1.90  0.95958   -0.91
9.950000  0.95972   -0.92  0.04752    2.07  0.04762    1.92  0.95991   -0.90
10.000000  0.95949   -0.90  0.04760    2.02  0.04757    2.02  0.95984   -0.88
10.050000  0.95965   -0.97  0.04757    2.21  0.04756    2.20  0.95943   -0.94
10.100000  0.95945   -0.91  0.04757    1.96  0.04761    1.96  0.95946   -0.90
10.150000  0.95980   -0.97  0.04762    2.00  0.04762    1.96  0.95999   -0.92
10.200000  0.95903   -0.90  0.04754    2.12  0.04752    2.22  0.95954   -0.91
10.250000  0.95945   -0.91  0.04757    2.19  0.04761    1.98  0.95950   -0.93
10.300000  0.95928   -0.94  0.04753    2.13  0.04761    1.85  0.96027   -0.93
10.350000  0.95966   -0.94  0.04763    1.89  0.04766    1.86  0.95991   -0.93
10.400000  0.95958   -0.93  0.04752    2.22  0.04750    2.17  0.95990   -1.00
10.450000  0.95977   -0.96  0.04756    1.92  0.04758    1.94  0.95954   -0.98
10.500000  0.95957   -0.99  0.04746    2.17  0.04750    2.10  0.95950   -0.99
10.550000  0.95958   -0.96  0.04752    2.25  0.04757    2.19  0.95963   -0.96
10.600000  0.95952   -0.98  0.04755    1.91  0.04756    1.97  0.95949   -0.97
10.650000  0.95982   -1.01  0.04764    2.01  0.04761    1.92  0.95912   -0.99
10.700000  0.96017   -1.03  0.04757    2.12  0.04768    1.81  0.96010   -0.98
10.750000  0.95970   -1.01  0.04758    1.88  0.04750    2.14  0.95955   -0.97
10.800000  0.96006   -1.03  0.04761    2.02  0.04767    1.82  0.95976   -0.99
10.850000  0.95945   -0.96  0.04764    2.03  0.04763    1.77  0.95934   -0.99
10.900000  0.95994   -0.94  0.04762    1.88  0.04759    1.95  0.95974   -1.00
10.950000  0.95970   -1.04  0.04754    2.09  0.04758    1.86  0.95953   -1.01
11.000000  0.95949   -1.00  0.04761    1.88  0.04759    2.15  0.95915   -1.02
11.050000  0.95932   -1.04  0.04765    2.06  0.04767    1.86  0.95965   -1.05
11.100000  0.95984   -1.01  0.04758    2.09  0.04763    2.08  0.95990   -1.02
11.150000  0.95941   -1.03  0.04763    1.87  0.04760    2.15  0.96016   -1.03
11.200000  0.95945   -1.05  0.04761    1.91  0.04760    1.93  0.95947   -1.03
11.250000  0.95955   -1.05  0.04766    2.04  0.04762    1.89  0.95952   -1.07
11.300000  0.95976   -1.02  0.04765    2.01  0.04771    1.90  0.96040   -1.05
11.350000  0.95911   -1.03  0.04763    1.90  0.04758    2.15  0.95967   -1.07
11.400000  0.95966   -1.04  0.04768    2.05  0.04763    1.89  0.95980   -1.04
11.450000  0.95989   -1.05  0.04765    2.07  0.04767    1.86  0.95982   -1.04
11.500000  0.95989   -1.03  0.04761    2.15  0.04768    2.07  0.95960   -1.07
11.550000  0.95960   -1.07  0.04764    1.90  0.04765    1.93  0.95962   -1.06
11.600000  0.95953   -1.04  0.04766    2.00  0.04762    1.85  0.95975   -1.05
11.650000  0.95905   -1.07  0.04756    2.00  0.04769    1.79  0.95967   -1.07
11.700000  0.95973   -1.06  0.04760    2.00  0.04767    2.00  0.95950   -1.13
11.750000  0.95983   -1.06  0.04771    1.76  0.04759    2.07  0.95924   -1.08
11.800000  0.96009   -1.13  0.04761    2.04  0.04772    1.71  0.96039   -1.07
11.850000  0.95990   -1.11  0.04763    1.85  0.04760    1.88  0.95992   -1.12
11.900000  0.95957   -1.08  0.04768    1.90  0.04769    1.76  0.95988   -1.11
11.950000  0.95928   -1.04  0.04760    2.07  0.04769    1.74  0.95984   -1.05
12.000000  0.95951   -1.09  0.04757    2.08  0.04771    1.71  0.96014   -1.11
12.050000  0.95976   -1.10  0.04771    1.80  0.04763    1.92  0.95966   -1.11
12.100000  0.96003   -1.16  0.04764    2.03  0.04772    1.82  0.95985   -1.12
12.150000  0.95956   -1.09  0.04757    2.04  0.04760    2.01  0.96005   -1.13
12.200000  0.95928   -1.08  0.04762    1.86  0.04758    2.06  0.95953   -1.04
12.250000  0.96005   -1.11  0.04775    1.73  0.04761    2.01  0.96013   -1.11
12.300000  0.95981   -1.11  0.04775    1.90  0.04772    1.76  0.95975   -1.12
12.350000  0.95977   -1.09  0.04762    2.02  0.04774    1.68  0.95981   -1.12
12.400000  0.95994   -1.15  0.04765    1.83  0.04761    2.00  0.96007   -1.18
12.450000  0.95977   -1.13  0.04762    1.96  0.04764    1.90  0.95940   -1.16
12.500000  0.95993   -1.13  0.04774    1.68  0.04767    2.00  0.96034   -1.13
12.550000  0.96025   -1.18  0.04762    1.98  0.04769    1.70  0.95995   -1.15
12.600000  0.95926   -1.13  0.04764    1.75  0.04760    2.01  0.95925   -1.14
12.650000  0.95954   -1.19  0.04763    2.01  0.04766    1.84  0.95987   -1.14
12.700000  0.96005   -1.14  0.04776    1.73  0.04768    2.06  0.95931   -1.16
12.750000  0.95981   -1.17  0.04768    1.74  0.04774    1.68  0.95974   -1.17
12.800000  0.95995   -1.16  0.04776    1.70  0.04769    1.81  0.95999   -1.20
12.850000  0.95873   -1.12  0.04767    1.77  0.04763    1.98  0.95913   -1.18
