# HZ S RI R 50
50000 0.9630526793223891 -0.0021886753023099776
109900 0.9615726596777421 -0.00813977394224191
169800 0.960670178531005 -0.011004671176754225
229700 0.9604857551380824 -0.015348790287888056
289600 0.9607782129520215 -0.017008202520767447
349500 0.9574137835377703 -0.02206510902178987
409400 0.958551788718987 -0.025314314406888788
469300 0.9590659242173475 -0.028932746833558155
529200 0.9593262595854734 -0.032154980724069776
589100 0.9590716613931252 -0.03663719974818869
649000 0.9602026686911829 -0.039893065003102815
708900 0.9595737446504021 -0.04295150328153155
768800 0.9589409393479484 -0.047684904897583744
828700 0.9587860656721816 -0.050314572057196284
888600 0.9594388924603904 -0.05464524892177796
948500 0.9581738930683803 -0.057756029262712935
1008400 0.9578941755650286 -0.061589367437636225
1068300 0.958244328424513 -0.06518101282877382
1128200 0.9571270512690614 -0.06889739507712488
1188100 0.9571267909103588 -0.07239604142881544
1248000 0.957460188464306 -0.0767498492856756
1307900 0.9566055480365654 -0.08023664397167664
1367800 0.9564310499542676 -0.08331546265796272
1427700 0.9558889513772595 -0.08725706670445994
1487600 0.956069284945516 -0.09144300523246839
1547500 0.9558070046166582 -0.09497331565912367
1607400 0.9550087585912858 -0.09844224499165662
1667300 0.9546162324484379 -0.10206639655863448
1727200 0.9542471370324442 -0.10595935178229904
1787100 0.9540819075617947 -0.10992429666559357
1847000 0.9533792298862697 -0.11346303866870582
1906900 0.9531142316516756 -0.11716185990563084
1966800 0.9524678662148621 -0.12053279241868825
2026700 0.9525975451210394 -0.1246431208219928
2086600 0.9519055158013654 -0.1282964181677912
2146500 0.9510148306589832 -0.13140126245473358
2206400 0.950517866312167 -0.13484977404791565
2266300 0.9501070790716654 -0.13890534887703013
2326200 0.9498363600624168 -0.1425480528634765
2386100 0.948813986141646 -0.14601220260087885
2446000 0.9476908107614134 -0.14953823891451087
2505900 0.9473727309486916 -0.15348555708648545
2565800 0.9463800293655076 -0.15702986644266384
2625700 0.9465544396472515 -0.1606695327898142
2685600 0.9457083865967505 -0.16434234395316702
2745500 0.9450964786740906 -0.1680643419846356
2805400 0.9445964160022202 -0.17152408049458187
2865300 0.9439563986385315 -0.17568588353013131
2925200 0.9426154424956609 -0.1789201167980419
2985100 0.9424409893652557 -0.18288529268326886
3045000 0.9413799901954375 -0.18601764250666192
3104900 0.9406351184837048 -0.19013434712435137
3164800 0.9409297952424047 -0.1936064400441493
3224700 0.9397450580778848 -0.19717693528881436
3284600 0.9385598946554757 -0.19973817394696256
3344500 0.9378295824069051 -0.2042465800529558
3404400 0.9377130996097087 -0.20832237632630296
3464300 0.9364081291421755 -0.2120980309028816
3524200 0.9353512814571466 -0.21414897717198222
3584100 0.9344573975406405 -0.21783095663479005
3644000 0.934015085295575 -0.22150650433628397
3703900 0.932765634226136 -0.22627343515652504
3763800 0.9315253472046241 -0.2294639500145773
3823700 0.9308309725847668 -0.232211016343566
3883600 0.9301643230782332 -0.23674322660876898
3943500 0.9291288595948722 -0.2399931782036378
4003400 0.9286194196257151 -0.2436010146285522
4063300 0.9274141376523879 -0.2469096351851825
4123200 0.9261547141731339 -0.25000673433213505
4183100 0.9258608078935737 -0.2541646416512106
4243000 0.9240665326427567 -0.2574104193545382
4302900 0.923080333419606 -0.261445516795858
4362800 0.92245576886617 -0.26411043900421655
4422700 0.9209818935499385 -0.2678259889227522
4482600 0.9195415279093031 -0.2714633047241151
4542500 0.9193965161931612 -0.275234075224115
4602400 0.9183246551598617 -0.2789474563316438
4662300 0.9171208786766707 -0.28232001487287917
4722200 0.9156362160247142 -0.28523811144618494
4782100 0.9140879127568774 -0.28913316390690574
4842000 0.9132675579995818 -0.29290923827319704
4901900 0.9123640746929186 -0.29710371782546463
4961800 0.9112189643804266 -0.29999282240409647
5021700 0.9102865632209091 -0.30422251306962184
5081600 0.9092612431915938 -0.30719115110537665
5141500 0.9082118947230332 -0.3102293030368612
5201400 0.907251852115204 -0.31435748595625196
5261300 0.9055477740475463 -0.31674151087986613
5321200 0.9041001880911363 -0.32121696720635023
5381100 0.9030026860979601 -0.3246036044430417
5441000 0.9019819474589978 -0.32750522035908036
5500900 0.9003783319513009 -0.3320062746099714
5560800 0.8994248178053394 -0.3345914589007928
5620700 0.8978429994803756 -0.3373240412501619
5680600 0.8962873398038066 -0.34192518786492826
5740500 0.895487510076186 -0.3450414116844029
5800400 0.8935945769096718 -0.34884064559734534
5860300 0.893309694684311 -0.3516576920313343
5920200 0.8919228667888727 -0.3548394104195921
5980100 0.8897728744978638 -0.3587071985477441
6040000 0.8884175249288243 -0.3622720947963073
6099900 0.8863928057712134 -0.36599911647603184
6159800 0.885155809871172 -0.3691010601140752
6219700 0.8843511637966116 -0.3718888358456236
6279600 0.8826024954513919 -0.374488143876311
6339500 0.8812529896425657 -0.3785486600940138
6399400 0.8790978661905129 -0.38223798733790004
6459300 0.878424067066962 -0.3853317390908727
6519200 0.8772856076994752 -0.38921018049596784
6579100 0.8749656834426218 -0.3922425948208997
6639000 0.8728702470883986 -0.3960958548093428
6698900 0.8719420100481172 -0.3984135750262374
6758800 0.8702535601354475 -0.40169493456990846
6818700 0.8693667586589416 -0.4064336828580485
6878600 0.8682202701958601 -0.40918758304745334
6938500 0.8662057757434237 -0.4121945506730872
6998400 0.863884674049949 -0.41569922625450756
7058300 0.8622677107368427 -0.4192225961203553
7118200 0.8613360927534716 -0.42177561553493326
7178100 0.8594801095539438 -0.4243276169851679
7238000 0.8575085112804485 -0.4281841832808027
7297900 0.8556962255550106 -0.4312721387892135
7357800 0.8541641183660357 -0.43504552945478236
7417700 0.853778463497725 -0.43813200315574813
7477600 0.8520691380895181 -0.44143839193316114
7537500 0.8494667324440828 -0.44472315751361746
7597400 0.8480048136773396 -0.4485398892772091
7657300 0.8460411226608286 -0.45028507871727225
7717200 0.8440881179784171 -0.45436500363575943
7777100 0.8432129502732555 -0.4576222499847888
7837000 0.8417062955077153 -0.4611916331219561
7896900 0.8395647221979226 -0.46451042236068774
7956800 0.8370348880242792 -0.46639126118651725
8016700 0.835868464265828 -0.4707466279944074
8076600 0.8341349377322183 -0.4742728631088776
8136500 0.8320449937730644 -0.477474437200103
8196400 0.829382997197763 -0.4807007990205181
8256300 0.8278500373587794 -0.4838922875677815
8316200 0.8262231135141617 -0.4869382853957584
8376100 0.8242609870217867 -0.4889215200288818
8436000 0.8223985203479669 -0.49314578881769294
8495900 0.8200833257581928 -0.49619461608037385
8555800 0.8191381454100298 -0.4994278044513593
8615700 0.8164930295675604 -0.5027361169583882
8675600 0.8151868474451491 -0.5056986515035878
8735500 0.8129648635859584 -0.5087550948013512
8795400 0.810929376192511 -0.5123132415638173
8855300 0.8086571993556831 -0.5154139951425644
8915200 0.8074362176366003 -0.5176595600135764
8975100 0.8055569240743288 -0.5207812897785673
9035000 0.8024853570112773 -0.5241816550453465
9094900 0.8008031760498218 -0.5269542664275622
9154800 0.7984941448116772 -0.5300717901267701
9214700 0.7968564533048735 -0.5328741202456999
9274600 0.7945732171308941 -0.5360247487554326
9334500 0.7927083740667943 -0.5387514376098483
9394400 0.7895144176588157 -0.5416475192143383
9454300 0.7888097578337656 -0.5454738551253007
9514200 0.7859295309559325 -0.5485816901717391
9574100 0.7842969071899367 -0.5511724662167135
9634000 0.7822429824849042 -0.5541120579596116
9693900 0.7796236652056295 -0.557081075678222
9753800 0.777826066373057 -0.5599606709165841
9813700 0.7749284955904245 -0.563539097484623
9873600 0.7732493022269448 -0.566611762683428
9933500 0.7702565255719049 -0.5692918265861295
9993400 0.7681988599420465 -0.5723157045329882
10053300 0.7664960983400991 -0.5752001596606182
10113200 0.7639190966742893 -0.5774750202964692
10173100 0.761804381877392 -0.5804130534376614
10233000 0.7598103497686732 -0.5836935156877097
10292900 0.7577637086384769 -0.5866921265384543
10352800 0.7542350260028265 -0.5893132230142316
10412700 0.752753063894455 -0.5929784522101124
10472600 0.7505987090204659 -0.595960171035822
10532500 0.7484711132587429 -0.5991486929777864
10592400 0.7461040976752183 -0.601818272354136
10652300 0.7435088315897447 -0.6035665925997106
10712200 0.7403259992544509 -0.6067473121906461
10772100 0.7380787366891121 -0.6095333439378181
10832000 0.7366491220680229 -0.6126805594156368
10891900 0.7344164893320421 -0.6151349370927133
10951800 0.7316484960739623 -0.6176394903031406
11011700 0.7293796804778228 -0.6210568887045465
11071600 0.7273031300835873 -0.6234851023404616
11131500 0.7250325112088386 -0.6256812103817173
11191400 0.7226316508533978 -0.6290742766936634
11251300 0.7199670315281778 -0.6313046932832073
11311200 0.7172186922675224 -0.6344485395879487
11371100 0.7150762397641397 -0.6371655102987327
11431000 0.7127398197925913 -0.6398969504356529
11490900 0.7102878515006883 -0.6425673992700944
11550800 0.7070448413526644 -0.6452350735018332
11610700 0.704788237404312 -0.6482934682827325
11670600 0.7021687411154621 -0.6506135638614081
11730500 0.6994086599451607 -0.6538117710657685
11790400 0.697021921333932 -0.6562114840914043
11850300 0.6941776229827802 -0.6579965589352509
11910200 0.6926363895118104 -0.6611767747503229
11970100 0.6904879386382787 -0.6632853712170422
12030000 0.6877926055602315 -0.6662975057417801
12089900 0.6856300051348958 -0.669210993549204
12149800 0.6830632141680113 -0.6722907475980355
12209700 0.6805780821858761 -0.6749159548529668
12269600 0.6775123032690727 -0.6766395830237247
12329500 0.6756576904802128 -0.6803501396357191
12389400 0.6728017680416373 -0.6829019530578783
12449300 0.6698734302804276 -0.684933140177289
12509200 0.6670003246861306 -0.687856775125048
12569100 0.664604110420712 -0.690606550329012
12629000 0.6619667952961997 -0.6922748687028561
12688900 0.6586773997344595 -0.6950742232329514
12748800 0.6558886817746407 -0.6978203962929502
12808700 0.653857223709204 -0.7004902325782085
12868600 0.6503724008647672 -0.701799752315042
12928500 0.6477560821566996 -0.7054124164681325
12988400 0.6449618201654569 -0.707782002124468
13048300 0.6425058448328849 -0.7094595357697624
13108200 0.6396207545919115 -0.7134985706039808
13168100 0.6367575490091353 -0.7150424578862582
13228000 0.6337817814918718 -0.7172450359129552
13287900 0.6312743674697097 -0.719329064879365
13347800 0.6283108699417727 -0.7221692964151089
13407700 0.625035577462103 -0.7241919541204052
13467600 0.6223633434775337 -0.7254961875433648
13527500 0.6201393119274562 -0.728426140682656
13587400 0.617183500817171 -0.7309205633557616
13647300 0.6144852805957822 -0.7333219665524984
13707200 0.6109490123141219 -0.7359448016404745
13767100 0.6086322481483992 -0.738315938230682
13827000 0.6058040386390607 -0.7407752445112287
13886900 0.602703329750395 -0.7426167628049813
13946800 0.6006967884344231 -0.7452173910201239
14006700 0.5970270642974883 -0.7478737634390329
14066600 0.5941190819857078 -0.7500734045623899
14126500 0.591148157461239 -0.7522909186984909
14186400 0.588356301414538 -0.7546091503231389
14246300 0.5860858075419887 -0.7573397334259501
14306200 0.5831267897750649 -0.7587583879500562
14366100 0.5798935055576734 -0.7615570508771548
14426000 0.5771718412166597 -0.7637555807356611
14485900 0.5744116631958474 -0.7655964374500472
14545800 0.5707892610928998 -0.7682363232209489
14605700 0.5687305153259168 -0.7700394175036626
14665600 0.5655110879648406 -0.7732327788439832
14725500 0.5626231068798184 -0.7751042683292005
14785400 0.5590300272811644 -0.7773303493177708
14845300 0.5560591047215441 -0.7785301426489127
14905200 0.5536919217633455 -0.7804829298172693
14965100 0.5502785611351516 -0.7825716988722765
15025000 0.546858025824506 -0.7847950416257373
15084900 0.5442436095705647 -0.7867131144244797
15144800 0.541374940365772 -0.7892746036328548
15204700 0.5379532331356185 -0.7914075277298083
15264600 0.5351291815709507 -0.792570905950605
15324500 0.5322228294319552 -0.7959625921986028
15384400 0.5286607096663487 -0.7978403888771001
15444300 0.5260574918093031 -0.7991126449818704
15504200 0.5223078026550535 -0.7999652368899967
15564100 0.5191606101600318 -0.8034950195527534
15624000 0.5158720648516584 -0.804548438065323
15683900 0.5134582291356754 -0.8062722779578728
15743800 0.5102549248555273 -0.8081975176837296
15803700 0.5069334246597524 -0.8109413642640564
15863600 0.504222509998826 -0.8128323729801589
15923500 0.5014892296400517 -0.8144767344968508
15983400 0.4983756278521907 -0.8152864597431364
16043300 0.49549623643107826 -0.8192838399025084
16103200 0.49125135811701837 -0.8204682368593743
16163100 0.48807907058251787 -0.8220853204969046
16223000 0.4852558230871964 -0.8248927634608642
16282900 0.48231991232637905 -0.826402356520806
16342800 0.47919525127644114 -0.8286428296701366
16402700 0.47667051398814275 -0.8289125284455896
16462600 0.4726448683437024 -0.8317152166199453
16522500 0.4703037314169179 -0.8323640871662076
16582400 0.46676238420555854 -0.833866920096805
16642300 0.4632383734281496 -0.8364047096975442
16702200 0.45928023893200864 -0.8373940933411692
16762100 0.4558736391642277 -0.8399848130870008
16822000 0.45239275339347346 -0.8414537791458904
16881900 0.4498467539615578 -0.8441598358009585
16941800 0.44658859321504857 -0.8461407468552237
17001700 0.4437777098795034 -0.8463073986525723
17061600 0.43924422945018526 -0.8487649468273527
17121500 0.4362041907281955 -0.8500874670449046
17181400 0.43385051473913316 -0.8511650402095408
17241300 0.43026250992780085 -0.8530374752265247
17301200 0.4265946131639445 -0.8560022473861959
17361100 0.4232723546461807 -0.8570844077662071
17421000 0.42076356795341086 -0.8575762733274396
17480900 0.4171659179323578 -0.8595674639800671
17540800 0.414322126106056 -0.8618264090858176
17600700 0.41158691075226866 -0.862549452026946
17660600 0.4073306427895762 -0.8647429805844956
17720500 0.4039217639050288 -0.8661550891771932
17780400 0.4010832210065448 -0.8678530933668158
17840300 0.3982567920494515 -0.8700281707906373
17900200 0.3947477127891571 -0.8698570022579115
17960100 0.3904938903049313 -0.8722618314859769
18020000 0.3864636933376926 -0.8739544644685816
18079900 0.3841456703546549 -0.8747036637912659
18139800 0.38019512163119684 -0.8766807315401562
18199700 0.3773343141050689 -0.8767808170616083
18259600 0.3739266946923402 -0.8783732346409829
18319500 0.37072235400492776 -0.8803564017528035
18379400 0.3673683712413852 -0.8807171412156609
18439300 0.3632878034219687 -0.8825722823703676
18499200 0.3595303401684553 -0.8852683569385281
18559100 0.35611607699404013 -0.885676131398591
18619000 0.35330448087304844 -0.8871652444915296
18678900 0.34957945420846076 -0.8890530886881143
18738800 0.3460445518706053 -0.8902934374704714
18798700 0.3419033232664777 -0.8909688865568709
18858600 0.3392522803894894 -0.8920624279507693
18918500 0.3357700633029531 -0.8943795762582208
18978400 0.33226862062011514 -0.8946571404258068
19038300 0.32845671209702815 -0.8957032604943036
19098200 0.3248858044838577 -0.897424167764931
19158100 0.321566322434375 -0.8988983880863913
19218000 0.31902919023917964 -0.8999001160857351
19277900 0.31598568335017807 -0.9010879553110053
19337800 0.3114007559157066 -0.9027999395045309
19397700 0.3089005911645878 -0.902269308729957
19457600 0.30477586428938697 -0.9048331258895858
19517500 0.3013372969447635 -0.9060206671376505
19577400 0.29777905919402886 -0.9071983370395456
19637300 0.29379662570717313 -0.9087646174763749
19697200 0.2908436464677588 -0.9094573452414647
19757100 0.28693231275009184 -0.9105098002209374
19817000 0.2839008029668229 -0.9120197813001664
19876900 0.28086887725050474 -0.9126377066443766
19936800 0.27675400609595757 -0.91385825598748
19996700 0.27273490239247333 -0.9151015837086177
20056600 0.2684698739626915 -0.9155634740170349
20116500 0.26525446750021453 -0.9166978249602539
20176400 0.2624813267915542 -0.9172870954171869
20236300 0.25912272487643784 -0.917996717609613
20296200 0.2554980278652933 -0.9196859719732808
20356100 0.25217641894766923 -0.9212614467476578
20416000 0.2491284083231457 -0.9212688707067616
20475900 0.2450002084643262 -0.9225352983607188
20535800 0.24097071568040565 -0.9233019104702401
20595700 0.23735766589033228 -0.923779559097994
20655600 0.23306934716050248 -0.9243606546927153
20715500 0.23016898672053968 -0.9253594688431585
20775400 0.22709847851588905 -0.9254874539113476
20835300 0.22300847364479418 -0.9270571649742577
20895200 0.21946276265968262 -0.9280564035156708
20955100 0.21595169052984722 -0.9286207500398042
21015000 0.21274425383731208 -0.9303187520998862
21074900 0.20784770933858907 -0.9298492967925126
21134800 0.20439596894994988 -0.9310412944428011
21194700 0.20102842578491853 -0.931852397293069
21254600 0.19754607059600096 -0.9316193859487795
21314500 0.1949337931720983 -0.9315454518526173
21374400 0.19123291159282388 -0.933409802232639
21434300 0.18773971473898088 -0.9344228414753415
21494200 0.18417852591135364 -0.9346856437642524
21554100 0.18116756870271084 -0.9350838960768482
21614000 0.17741369821389175 -0.9366827584687142
21673900 0.17317966858568484 -0.9378631113360962
21733800 0.17098294723418322 -0.9367556748794902
21793700 0.1658576220058522 -0.9386637450411704
21853600 0.16167226391445258 -0.9389600295881592
21913500 0.15812210608839627 -0.9397263573016232
21973400 0.1549801080616117 -0.939840547868376
22033300 0.152047060235927 -0.9396475678690768
22093200 0.14789358515521225 -0.9411723559912324
22153100 0.14464412998301476 -0.9418519874878959
22213000 0.14111823849714825 -0.9415829128431549
22272900 0.1371197964496332 -0.9425209007669925
22332800 0.134608268878172 -0.9425431662733493
22392700 0.1304220405145427 -0.943209233411583
22452600 0.12650126687085753 -0.9437039601553789
22512500 0.12296375759420725 -0.9446068761532125
22572400 0.11945803920078105 -0.9458242919195257
22632300 0.1163577640946963 -0.9458625712828791
22692200 0.11221139861217881 -0.9463089296321561
22752100 0.10895190642009604 -0.9470686167313465
22812000 0.10629205688960504 -0.9472549830674373
22871900 0.10128386573330696 -0.9472267414025471
22931800 0.09784520882143848 -0.9469488429133199
22991700 0.09362719462652515 -0.9479744391225788
23051600 0.08920473866321278 -0.9483177135173976
23111500 0.0863430050703178 -0.9485125004205281
23171400 0.08210886441836156 -0.948110141751687
23231300 0.07965683895871689 -0.9486642776661984
23291200 0.07398288026104897 -0.9490152069452917
23351100 0.07147972786796322 -0.9489098149314897
23411000 0.06632516775503484 -0.9498195816015568
23470900 0.06522618389263231 -0.9495095588770508
23530800 0.0607737661469307 -0.9499606105063426
23590700 0.05677666437350793 -0.9496357888216544
23650600 0.05407976808821664 -0.9502280767501761
23710500 0.05135689632679348 -0.9499589951159878
23770400 0.04640123821795263 -0.9506198367965941
23830300 0.043493546145518015 -0.9504466151789485
23890200 0.03912180097110438 -0.9509909534836116
23950100 0.03619491755662288 -0.9498049081513184
24010000 0.030545678530431025 -0.9509486156347026
24069900 0.027703299755650824 -0.9504468934674932
24129800 0.022841554250481694 -0.9514532372065361
24189700 0.02065378128149485 -0.9510453453911484
24249600 0.016193784361164563 -0.9511957509401712
24309500 0.0115431980551467 -0.9511573802197044
24369400 0.008019356389997671 -0.95138440329183
24429300 0.005390853397589022 -0.9503754531351739
24489200 0.0023440383549519395 -0.9503969220659465
