# HZ S RI R 50
50000 0.9629369395362798 -0.004112582531264815 0.03923842260924496 0.0014899214621488415 0 0 0 0
109900 0.9645403579730456 -0.0011513511627159138 0.03926587287014253 0.0022583471116648006 0 0 0 0
169800 0.963131926153781 -0.001145467750253183 0.03910205706910185 0.0022730526042584187 0 0 0 0
229700 0.9615247028676144 -0.0010014191719117486 0.038782323518041034 0.0022226377931660003 0 0 0 0
289600 0.9597268518567081 -0.0008680277670227804 0.038677772974711894 0.0021650620848324056 0 0 0 0
349500 0.960071660172003 -0.0014612563875060806 0.0385480142269493 0.002011741703673581 0 0 0 0
409400 0.9605676895758789 -0.0010615749239865353 0.03862999022757549 0.0021272600385116485 0 0 0 0
469300 0.9600692664083387 -0.0011200572163708098 0.025353559632111774 -0.01522717573334458 0 0 0 0
529200 0.9607438579843862 -0.0010398676918046779 0.03881662794302051 0.002987050264116704 0 0 0 0
589100 0.9622111820025085 -0.0007628210165332099 0.03886159343906031 0.003094911785591946 0 0 0 0
649000 0.9615974053555773 -0.0014112450901318943 0.038954085397346065 0.003154980577748466 0 0 0 0
708900 0.9613794554006322 -0.0014422800718504748 0.03897047313985507 0.0032601255262147424 0 0 0 0
768800 0.9604660157640592 -0.0016160387796436044 0.038930613054919544 0.0034416508219692614 0 0 0 0
828700 0.9618083620844753 -0.001687187320195481 0.0389570876543331 0.0036324036997765715 0 0 0 0
888600 0.9595280720875696 -0.0018862476747911622 0.03892671289148361 0.003697731793276277 0 0 0 0
948500 0.9612786430863228 -0.002113227128297945 0.03889786853729358 0.0037542621690216066 0 0 0 0
1008400 0.9609320142767278 -0.0019104690337911755 0.03891993463167081 0.003894497228571516 0 0 0 0
1068300 0.9610022822507164 -0.0022865806605260573 0.038833677448595 0.003998836729765667 0 0 0 0
1128200 0.9610845236274285 -0.0019682833049143663 0.03884235937453309 0.0040393405345071605 0 0 0 0
1188100 0.9614489699564253 -0.0024577697345773528 0.03890262306158379 0.004145408766987742 0 0 0 0
1248000 0.9610636895730725 -0.0025911470610914394 0.038845884450195635 0.004202607487252167 0 0 0 0
1307900 0.9611711366049238 -0.0022403801073510314 0.03885339352587709 0.004259117027392611 0 0 0 0
1367800 0.9610195364520843 -0.0027605035550159235 0.03882366138166115 0.004359733584388654 0 0 0 0
1427700 0.961235468148649 -0.0030860890462444898 0.03881650569057865 0.004401802093820203 0 0 0 0
1487600 0.9620446824003099 -0.0031721859414958367 0.038826773595933194 0.004492005479869038 0 0 0 0
1547500 0.9613544128257309 -0.0032952413651396255 0.038758519671426704 0.0045739798753481106 0 0 0 0
1607400 0.9614226983605297 -0.003930498085395527 0.03875846054085776 0.004655365274981965 0 0 0 0
1667300 0.9615714551729058 -0.0037247925993222956 0.03882841720384991 0.0047727334131055016 0 0 0 0
1727200 0.9610638544265805 -0.0038329292982226307 0.038832494962935594 0.004790968636921297 0 0 0 0
1787100 0.9615974127372291 -0.0040239173514764 0.03884208018194817 0.004910358881694182 0 0 0 0
1847000 0.9612672954498069 -0.004076916283573981 0.0387949771277726 0.004936875208838421 0 0 0 0
1906900 0.9608972333491663 -0.0046408319745114635 0.03874461477108893 0.005067533176487083 0 0 0 0
1966800 0.9614055622344156 -0.00430505262036169 0.038840974050500125 0.005127894373433261 0 0 0 0
2026700 0.9618117573378239 -0.004477888041394316 0.038767088783339024 0.005251111142085432 0 0 0 0
2086600 0.9614291972592258 -0.005488795171977316 0.03876040542313921 0.005261390270101236 0 0 0 0
2146500 0.9607881929639834 -0.004986515104414627 0.038728939711649625 0.005406691739050314 0 0 0 0
2206400 0.9616178543916695 -0.004838914105178097 0.03874866380478761 0.005444873281413772 0 0 0 0
2266300 0.9606911084163205 -0.004554650371794388 0.03872699875991065 0.005512385020354722 0 0 0 0
2326200 0.9610009650156207 -0.005087541518355389 0.038744757031594725 0.005561016147695028 0 0 0 0
2386100 0.9610799250024331 -0.0053398839028541345 0.0387680490617283 0.005676414521101273 0 0 0 0
2446000 0.9606384894134433 -0.005813118828873194 0.03868474027288036 0.005755576661668499 0 0 0 0
2505900 0.9605181642577635 -0.005296072777102069 0.0387464159634689 0.005778347214127576 0 0 0 0
2565800 0.9612986061014421 -0.00546699180227982 0.03870965518510445 0.005836677899920205 0 0 0 0
2625700 0.9613314520665461 -0.006118259318439554 0.038738957512046784 0.005903066776858905 0 0 0 0
2685600 0.9611179725992061 -0.005992589394376488 0.03872492029498377 0.005973482744160576 0 0 0 0
2745500 0.9609620559101496 -0.006573236045180202 0.038682524035126904 0.006107075908860893 0 0 0 0
2805400 0.9609083966780109 -0.006541415611065592 0.03870478385243255 0.0061478833768198685 0 0 0 0
2865300 0.9613680754154655 -0.007008568868490676 0.0387474953685724 0.00617733933228834 0 0 0 0
2925200 0.9610252027361532 -0.007062090837755581 0.03865253630463117 0.006308069876955534 0 0 0 0
2985100 0.9614901894366024 -0.006756924803721879 0.03868362687436939 0.0063935073981262105 0 0 0 0
3045000 0.9609396421945288 -0.006746706948441608 0.03866327899253184 0.006365240913583857 0 0 0 0
3104900 0.961056533125072 -0.007120612606757907 0.03859461898061476 0.006493093292659581 0 0 0 0
3164800 0.9609704738829636 -0.007130854522316977 0.03861718626324805 0.006571175259112142 0 0 0 0
3224700 0.961104168056399 -0.00696538750194492 0.03861343098832443 0.006637820875638944 0 0 0 0
3284600 0.9613889086618672 -0.007477862480990196 0.038601362969685776 0.006715622657556849 0 0 0 0
3344500 0.9606763558198881 -0.008248346316552302 0.03860071078765633 0.006747119110914775 0 0 0 0
3404400 0.9605985706991362 -0.007701659253022513 0.038509981927148135 0.00687400162927542 0 0 0 0
3464300 0.960709169668782 -0.008002017072609365 0.03851021793819703 0.006992948000322887 0 0 0 0
3524200 0.9611900833948418 -0.008287312224559125 0.03853695616863264 0.007049154380246914 0 0 0 0
3584100 0.9607508653450505 -0.008335393460802486 0.038576355149660846 0.007159638065199631 0 0 0 0
3644000 0.9606043112173878 -0.008678080294126794 0.03851013458072169 0.00720819776873937 0 0 0 0
3703900 0.9610364232163872 -0.008754280468792328 0.0384027700564434 0.00739496837977574 0 0 0 0
3763800 0.9609181753263223 -0.008773341186208651 0.0385277519995447 0.007398323953697065 0 0 0 0
3823700 0.96078469843095 -0.008698971732058499 0.03858618679642633 0.0074094027102918495 0 0 0 0
3883600 0.9605054108414828 -0.008708388236106047 0.038481153385034175 0.007542012115980877 0 0 0 0
3943500 0.961371193498536 -0.009401224376440928 0.038496297408185 0.007600006887546575 0 0 0 0
4003400 0.9608651521777888 -0.009090219806465153 0.038452664786920616 0.007651234453790952 0 0 0 0
4063300 0.9611696098552852 -0.009594483919632711 0.038399546853727505 0.007789377851355892 0 0 0 0
4123200 0.960828941314942 -0.009168312282726123 0.03843090437466034 0.007817640062973663 0 0 0 0
4183100 0.9612018548382419 -0.009713487289136676 0.038412969352065444 0.007859655090850008 0 0 0 0
4243000 0.9607925078825591 -0.010072376249019886 0.038444826336903715 0.007969645913110392 0 0 0 0
4302900 0.961257990095069 -0.009682345120753775 0.03842923471221718 0.008041338969550362 0 0 0 0
4362800 0.9609210991502766 -0.00997999833549758 0.03836624114455047 0.008109624669526428 0 0 0 0
4422700 0.9607658147117786 -0.010251480987284659 0.03839803236960898 0.008167362282114819 0 0 0 0
4482600 0.9605805028217569 -0.009603951580114565 0.038378814990138885 0.008231143707452149 0 0 0 0
4542500 0.9599584420658017 -0.010513230041771912 0.03830974005642587 0.008321624880700042 0 0 0 0
4602400 0.9604417331882735 -0.010401719726455648 0.03836564738420309 0.008327075574662595 0 0 0 0
4662300 0.9603976602205874 -0.010707009586840403 0.038282570732166045 0.00844694566875834 0 0 0 0
4722200 0.9609417403874573 -0.010795462925964538 0.03832138192839256 0.008532400483759566 0 0 0 0
4782100 0.9606951305636068 -0.01108085926964775 0.03831663025739461 0.008544062386732484 0 0 0 0
4842000 0.9610496483223963 -0.011490990784652171 0.03828524921932485 0.008623460234224823 0 0 0 0
4901900 0.961143832727555 -0.011316270702220034 0.03828782885413393 0.008648485918524879 0 0 0 0
4961800 0.9617320440307308 -0.011694763172251293 0.03831148698012839 0.00876978794729355 0 0 0 0
5021700 0.9614932883590656 -0.011659064814129594 0.03830278332645095 0.008926817851487306 0 0 0 0
5081600 0.9611658400366305 -0.012593180172874198 0.03822091711099281 0.008929696698387942 0 0 0 0
5141500 0.9617207929228877 -0.012016265812263392 0.0382422163944322 0.009042501110809885 0 0 0 0
5201400 0.9617319721236142 -0.012102815285031857 0.03818600175412087 0.00908843419273344 0 0 0 0
5261300 0.9616367410534327 -0.012460634116859113 0.038119034652875326 0.00921334232360357 0 0 0 0
5321200 0.9609000781483715 -0.013071385797810173 0.03807632154753586 0.009283962439660716 0 0 0 0
5381100 0.9611373264540423 -0.012471583714725088 0.03802337166046886 0.009354021668406477 0 0 0 0
5441000 0.96109620304688 -0.012948584870963818 0.03808449677768401 0.00934951762014383 0 0 0 0
5500900 0.9610486067936967 -0.012745284725304392 0.0381115347687344 0.009477232473493791 0 0 0 0
5560800 0.9608402912089812 -0.013077771889186986 0.03799014426464322 0.009624842318962986 0 0 0 0
5620700 0.9608951161059989 -0.013042553258217782 0.038029107532158664 0.009665945298078236 0 0 0 0
5680600 0.9608253072640229 -0.012850731818806032 0.0379777151748278 0.009752128104097686 0 0 0 0
5740500 0.9611114079590225 -0.013370173161116352 0.0380416776640573 0.009809395983452244 0 0 0 0
5800400 0.9608452392180304 -0.013489101030596862 0.037955811006090426 0.009947515600940059 0 0 0 0
5860300 0.960474475173368 -0.013856723316048487 0.037963251825068454 0.010018723989786218 0 0 0 0
5920200 0.9608063521587542 -0.013410021388192367 0.03795441822403061 0.009991406275457797 0 0 0 0
5980100 0.9611899538393106 -0.01433785581762404 0.037927977921941886 0.010081019386732597 0 0 0 0
6040000 0.9611850854471761 -0.013940813179655908 0.037932774190391316 0.010148646270640996 0 0 0 0
6099900 0.9611275970787702 -0.01388063181626476 0.03791429968132338 0.01028247631210057 0 0 0 0
6159800 0.961054495591815 -0.01446140441279582 0.03792575422946702 0.010301469662993317 0 0 0 0
6219700 0.9615829851224709 -0.01428580389853216 0.03793989708166323 0.010428623930269398 0 0 0 0
6279600 0.9607063046775275 -0.014154566729790955 0.03787602124292552 0.010452450846083828 0 0 0 0
6339500 0.960955987844595 -0.014534591950515268 0.03793145877644689 0.010546934519538686 0 0 0 0
6399400 0.9605363807593217 -0.015197090722336291 0.03786182177247569 0.01060552615934138 0 0 0 0
6459300 0.9608068226177178 -0.015051954259544002 0.03779958287800424 0.010683398777597504 0 0 0 0
6519200 0.9605759153875415 -0.015260442377991585 0.03778537000237033 0.010699618431338744 0 0 0 0
6579100 0.9605929138655843 -0.015093770671754327 0.03782671044547865 0.01079612676771531 0 0 0 0
6639000 0.9602433673096206 -0.015422586103769082 0.03770373578799491 0.010822514206097126 0 0 0 0
6698900 0.9603843735783907 -0.016010465793659962 0.037702913613683726 0.010933972982919158 0 0 0 0
6758800 0.9605685499165015 -0.016399737857896092 0.0377566563909743 0.010947811764663952 0 0 0 0
6818700 0.9607533264936758 -0.015199087801496924 0.037678305952351304 0.011124733659945901 0 0 0 0
6878600 0.9606974991097689 -0.015888429851518063 0.037666683841459984 0.01120485846718998 0 0 0 0
6938500 0.9613007841405726 -0.01633844292853865 0.03766680462588958 0.011312504229067976 0 0 0 0
6998400 0.9608543119078734 -0.01569756001781916 0.03760822749680826 0.011326764321140203 0 0 0 0
7058300 0.960822582516414 -0.01655118210672587 0.03761728156971383 0.011414151541573072 0 0 0 0
7118200 0.9606673686001816 -0.016387245762860592 0.037673739895127414 0.011341515735187423 0 0 0 0
7178100 0.960187478416207 -0.01643557269031267 0.037520856474364706 0.011466907105242645 0 0 0 0
7238000 0.960455847430286 -0.0167144893161638 0.037566269876629976 0.0115706038471741 0 0 0 0
7297900 0.9600762394053445 -0.016454359365271242 0.03760806518753105 0.011578736791192847 0 0 0 0
7357800 0.9604737947356489 -0.016013114858436994 0.03757315972607977 0.011739595436195157 0 0 0 0
7417700 0.9603627110502819 -0.016995112801846953 0.03753094863566371 0.011801227005278225 0 0 0 0
7477600 0.9606466356679141 -0.016866548314738036 0.0374745534925055 0.011876113567388373 0 0 0 0
7537500 0.9605710451563301 -0.016824986579186407 0.03746501132985667 0.012022856516940588 0 0 0 0
7597400 0.9609368975906813 -0.016745174258951986 0.03740953656528235 0.012051543977827048 0 0 0 0
7657300 0.9604890221931984 -0.017377378342397037 0.03743231227164425 0.012176222010004938 0 0 0 0
7717200 0.9612220162029836 -0.017255854680164964 0.037346302063795085 0.01216067755442784 0 0 0 0
7777100 0.9604412254124151 -0.017577800051824737 0.03738755187854932 0.012262536663877565 0 0 0 0
7837000 0.9610519324381289 -0.017678219491230725 0.037317113971547446 0.012308535091229015 0 0 0 0
7896900 0.9610219937158572 -0.018294846547324377 0.03727686469618482 0.012487337959631641 0 0 0 0
7956800 0.9608662160548637 -0.01898309435042075 0.037315698755901586 0.012461595189512027 0 0 0 0
8016700 0.9608803851405229 -0.018609085491219795 0.03735210214391381 0.012543633590932015 0 0 0 0
8076600 0.9605471901367945 -0.01869686548918869 0.03731086722215981 0.012645381722558115 0 0 0 0
8136500 0.9606146732602833 -0.01846720458017171 0.03724634091111749 0.01272784909843544 0 0 0 0
8196400 0.9602471398760808 -0.018979276216124025 0.03717800639446186 0.012796518359645386 0 0 0 0
8256300 0.9609397336674619 -0.01880132985890071 0.03724474359793174 0.01282064102707098 0 0 0 0
8316200 0.9606816403403736 -0.01938530667014049 0.03717204094020654 0.012952954229676213 0 0 0 0
8376100 0.9609399422002484 -0.019241243474420598 0.0372079546689799 0.013011127233428432 0 0 0 0
8436000 0.9605861423911928 -0.02007217025228664 0.03710453132746095 0.013052465200841912 0 0 0 0
8495900 0.9610448782352534 -0.01947797486463682 0.03712644636154291 0.013127199837622151 0 0 0 0
8555800 0.9609174689037417 -0.01993816040713842 0.037014150598559586 0.013243501081133572 0 0 0 0
8615700 0.9602871981178649 -0.020183916725158905 0.03709942619552236 0.013217549185787617 0 0 0 0
8675600 0.9609755929416944 -0.01990493728420855 0.03711012378638877 0.013300509442277394 0 0 0 0
8735500 0.9602115111366958 -0.019866433713103492 0.036984364015457835 0.013387127013110133 0 0 0 0
8795400 0.9613401915926096 -0.01988467942646711 0.0370803534855872 0.013402451734875347 0 0 0 0
8855300 0.9603013702089225 -0.020463041449917525 0.037000252805239574 0.013531942921379218 0 0 0 0
8915200 0.961070799588365 -0.0208214205092465 0.03696006922284838 0.013592598731743625 0 0 0 0
8975100 0.9608996123899783 -0.020855997651773962 0.036970571481607296 0.013691782600498926 0 0 0 0
9035000 0.9609185560682098 -0.020720304740339132 0.0369159793838542 0.013730676242945158 0 0 0 0
9094900 0.9608674187368222 -0.020961329053312307 0.036926861586645654 0.01376619332803806 0 0 0 0
9154800 0.9610443833456813 -0.020708239698945367 0.03692428318350779 0.013887118903032462 0 0 0 0
9214700 0.9606967307475471 -0.02087703426919037 0.036834230925709914 0.013932089726862933 0 0 0 0
9274600 0.9609110559471924 -0.02157191913944928 0.03685309751696052 0.014076034311827156 0 0 0 0
9334500 0.9601311131301863 -0.021759053922663894 0.036709014651722306 0.014045248960555598 0 0 0 0
9394400 0.9610419438553192 -0.02149353166401662 0.036770130837616946 0.014091955446856649 0 0 0 0
9454300 0.9606283813846497 -0.022797975785708528 0.036720339302934654 0.014228466201827765 0 0 0 0
9514200 0.9606586333483217 -0.02127464910140965 0.036680937103716914 0.0143874657169957 0 0 0 0
9574100 0.9605686316406612 -0.022855635087223183 0.03672465565888512 0.014340889616994444 0 0 0 0
9634000 0.9599459914132616 -0.021901270618779712 0.03665941557104078 0.014472153498252238 0 0 0 0
9693900 0.9602870278504912 -0.022140470927795468 0.036658428728904104 0.014584749426281966 0 0 0 0
9753800 0.9607547827996767 -0.022007930300961952 0.03664748602418691 0.014579588384694439 0 0 0 0
9813700 0.9600579660321132 -0.02254665493065589 0.03662884837963533 0.014608460042511175 0 0 0 0
9873600 0.9604030108924493 -0.023459795057647396 0.03652086723837885 0.014788746460407374 0 0 0 0
9933500 0.9604649414673004 -0.023423748829768328 0.03655893423476505 0.014763728512278989 0 0 0 0
9993400 0.960436965928467 -0.02347658347675928 0.0365203740391296 0.01489073194266819 0 0 0 0
10053300 0.96056240475416 -0.023570332017507797 0.03649384479579041 0.01491954622627939 0 0 0 0
10113200 0.9607586977124242 -0.023178321168641935 0.036415837499449495 0.014945995917774372 0 0 0 0
10173100 0.9607706555183105 -0.023255387448691888 0.03636384058544101 0.01512815452194944 0 0 0 0
10233000 0.9609900077618138 -0.023569176798294893 0.0363170207550397 0.015184321178809537 0 0 0 0
10292900 0.9612249829774812 -0.023252993553191836 0.03637999554937375 0.015153087542862067 0 0 0 0
10352800 0.9607584476787702 -0.02382277379729355 0.03633016526038133 0.015327775595868983 0 0 0 0
10412700 0.9607668415108481 -0.024703664373741486 0.03624682774658315 0.015399333441521137 0 0 0 0
10472600 0.9602499483328282 -0.024360409797839537 0.036271235829339055 0.01545188446929728 0 0 0 0
10532500 0.9606779788494846 -0.02535838631558142 0.03630666867328176 0.015483613762775265 0 0 0 0
10592400 0.960959183892557 -0.024648342238847144 0.03629097079642888 0.01560262270581948 0 0 0 0
10652300 0.9603572823577925 -0.02473773381432688 0.03623310499307462 0.015601829031937388 0 0 0 0
10712200 0.9603461399355836 -0.024194329618658823 0.03619577112090128 0.015759622046797612 0 0 0 0
10772100 0.9605820684441161 -0.02568313947392586 0.03615372855140596 0.0157685527573644 0 0 0 0
10832000 0.9605720291810971 -0.02520181673024017 0.036119091739499724 0.015810439540839542 0 0 0 0
10891900 0.9607156601967364 -0.026021759683531293 0.03605106897072694 0.01583492597029534 0 0 0 0
10951800 0.9602785154511816 -0.025635436292496226 0.03607699153461946 0.015928596610348636 0 0 0 0
11011700 0.9609689996177316 -0.025477597364671676 0.03601704810793072 0.016074980495647165 0 0 0 0
11071600 0.9605085301612118 -0.02560236128990786 0.0359918115478495 0.016066690763312807 0 0 0 0
11131500 0.9612101403149312 -0.025528350308832777 0.03593428293382848 0.016175315475786683 0 0 0 0
11191400 0.9606997116258125 -0.026502863009839363 0.035910367809419606 0.016330933771150156 0 0 0 0
11251300 0.960646881522641 -0.025626367954305503 0.03582008584973629 0.01640988263933147 0 0 0 0
11311200 0.9605991036139029 -0.02712704901038436 0.035886664154945 0.01633818156370672 0 0 0 0
11371100 0.9606198944207834 -0.026143026217578854 0.03588636824408275 0.016504291472514768 0 0 0 0
11431000 0.9599115259451516 -0.026324516371862654 0.03586243613129671 0.01656157543662086 0 0 0 0
11490900 0.9603830884525094 -0.02707749895370013 0.03581121040715147 0.016605318755670076 0 0 0 0
11550800 0.9608929783649959 -0.027550491832741466 0.035716647070135055 0.016656795693478773 0 0 0 0
11610700 0.9605921816276859 -0.02665771435484047 0.0357143156214454 0.01680316067712537 0 0 0 0
11670600 0.9599405713783092 -0.02725062142699038 0.0357268060867247 0.0167622920343412 0 0 0 0
11730500 0.9606708890982959 -0.027527038351473174 0.035678376854981375 0.016848693132312714 0 0 0 0
11790400 0.9605817287876608 -0.028152340367753433 0.035558432379973866 0.016951801520566575 0 0 0 0
11850300 0.9607216515368496 -0.027474475334538822 0.0356501059780763 0.016981245434423795 0 0 0 0
11910200 0.960250063456799 -0.028014721670796473 0.035569877802182605 0.017100031547875358 0 0 0 0
11970100 0.9601607801864064 -0.02796147314673062 0.035512051784437546 0.017097728630245244 0 0 0 0
12030000 0.9603815550668114 -0.027826377724939667 0.035478801397465856 0.017252660354959364 0 0 0 0
12089900 0.9604196669742407 -0.027694047446995936 0.035526562350719666 0.01733375343677745 0 0 0 0
