# HZ S RI R 50
50000 -0.9684460863470794 0.17018991636480618
109900 -0.8697326621822963 0.3433504458294639
169800 -0.7398015605976954 0.4449603515336759
229700 -0.6081462568996946 0.4913743307704889
289600 -0.4980635261791872 0.5036716847525432
349500 -0.40500205380604576 0.49163201606842144
409400 -0.3293688120579333 0.4704535912538989
469300 -0.2703209319106527 0.44495265317663907
529200 -0.2264401871899329 0.4206621835263328
589100 -0.189614313083454 0.39361377814737597
649000 -0.15997731859871853 0.36828648853496937
708900 -0.1373749128119318 0.3442902770059017
768800 -0.11818324632872057 0.3225666252162498
828700 -0.10345347190619293 0.3019792217982061
888600 -0.09185308761012885 0.2833134185270563
948500 -0.08205695573021697 0.2657263974975998
1008400 -0.07461289149285738 0.25033806851911417
1068300 -0.06806985393891796 0.23569720460377663
1128200 -0.06310666420080627 0.2227950832924286
1188100 -0.060337994341471586 0.21038100827333336
1248000 -0.05580264047739801 0.20083100743038523
1307900 -0.05506277699695182 0.19046893893877964
1367800 -0.051361632298846945 0.18292473868170922
1427700 -0.04977491903670149 0.1751718198319994
1487600 -0.049794967432855074 0.16724896952651297
1547500 -0.04765645309136997 0.16192520637403549
1607400 -0.047282795335740806 0.1557921195601507
1667300 -0.0460528837377454 0.15019963277340523
1727200 -0.045574222157921306 0.1454180593827716
1787100 -0.045218177024305896 0.1410414211732591
1847000 -0.04435654025322809 0.137282700216365
1906900 -0.0435010096110702 0.13340235683362933
1966800 -0.04410337191705072 0.1292603820755661
2026700 -0.043342159207887185 0.12593996616426745
2086600 -0.04233333065657491 0.1227382375910112
2146500 -0.04214183157778419 0.11978258377872342
2206400 -0.04154943994090652 0.11714170580105103
2266300 -0.04140425709326943 0.1146179840443801
2326200 -0.04119979955807069 0.11255422613813158
2386100 -0.04138744652018671 0.11036103869263225
2446000 -0.040521396547400106 0.10780302149208
2505900 -0.0404710848091804 0.10597782753286056
2565800 -0.03956657301984354 0.10362246663269467
2625700 -0.039368875210564105 0.10178999078941041
2685600 -0.039726106947755066 0.10021592711326768
2745500 -0.03925401084746924 0.0988561872921358
2805400 -0.03912574788149485 0.09764117613298284
2865300 -0.03847294375339688 0.0953620448261114
2925200 -0.03858905892696679 0.09453575907994537
2985100 -0.03818136851314458 0.09332898399754037
3045000 -0.03775574860131044 0.0924084383690274
3104900 -0.0376470551112176 0.09030780894309852
3164800 -0.0372442417294317 0.08897174274014456
3224700 -0.037140123323889974 0.08754732487528262
3284600 -0.03671610488455465 0.08655133195332597
3344500 -0.03655708641114673 0.08558170313872629
3404400 -0.03619563656069651 0.0849999250734645
3464300 -0.0356389786663292 0.08317288985430986
3524200 -0.03532765647202406 0.08206526519252316
3584100 -0.03494267858374323 0.08148807808249685
3644000 -0.03496302062088161 0.08062531969027475
3703900 -0.0347105735250577 0.07960306074460992
3763800 -0.03478267700382959 0.07970838010962483
3823700 -0.034465735439358706 0.07862528792139295
3883600 -0.03379688614922634 0.0774542636594355
3943500 -0.033733209525813226 0.07682774527591996
4003400 -0.03358727414984385 0.07619533956609433
4063300 -0.033441879877486286 0.07532990103341158
4123200 -0.03322092898537208 0.074406953856598
4183100 -0.03329639696926663 0.07393501484234237
4243000 -0.032877781514453315 0.07349171244609216
4302900 -0.032973435807099834 0.0730262045190249
4362800 -0.03260424021478593 0.0724602509016018
4422700 -0.032602567933195735 0.07173929307706853
4482600 -0.03238585779056874 0.07151101362503734
4542500 -0.032264740117542275 0.07087723168925937
4602400 -0.03217160628496227 0.07008078350660436
4662300 -0.03179586227996215 0.06975649568152843
4722200 -0.03141076608976738 0.06941030443383647
4782100 -0.03142866457490627 0.06882055903013355
4842000 -0.03125398861876206 0.06831114188374435
4901900 -0.031128942137065307 0.06773616919261573
4961800 -0.031026238505509424 0.06737119087362776
5021700 -0.03095351801493053 0.06706519693381054
5081600 -0.03067888557251737 0.06643832186794354
5141500 -0.03044860079227812 0.06591537375960649
5201400 -0.030290976757886005 0.06562114618251291
5261300 -0.029905376325596037 0.065623408951617
5321200 -0.03004104067809121 0.06511198370969334
5381100 -0.02984741170305713 0.06440907918495198
5441000 -0.029591838623579746 0.06443796352426483
5500900 -0.029649895967608347 0.06366833522346714
5560800 -0.029257802669928234 0.06346323742888728
5620700 -0.029297150654305 0.06330386589651933
5680600 -0.02898470725620841 0.06300995888305196
5740500 -0.029135502095429273 0.06287938223820527
5800400 -0.029291563282046205 0.062493018129276864
5860300 -0.02888969575699953 0.06190669645922771
5920200 -0.02867470657032513 0.061676923368290705
5980100 -0.028940267439891903 0.0610721002407466
6040000 -0.02872414592307728 0.061032737722265216
6099900 -0.028369608752969108 0.06052884931243339
6159800 -0.028315453916145858 0.06056880940833124
6219700 -0.02821445304441155 0.06027928833866171
6279600 -0.028176355178746372 0.0601385349824768
6339500 -0.028182053179218104 0.059732255596006416
6399400 -0.028158155476111373 0.05950879985890396
6459300 -0.02796221514329098 0.059087114541301354
6519200 -0.02804757762101119 0.05919257548797411
6579100 -0.02782047809213961 0.05862240480569008
6639000 -0.027645118600853717 0.05844804001295172
6698900 -0.027855070867454316 0.05855088281181535
6758800 -0.027853216734121004 0.05824102668249285
6818700 -0.027670383762565687 0.05775845087551965
6878600 -0.027817928913920813 0.05760014728056542
6938500 -0.027660852081146513 0.05744139753000941
6998400 -0.027468920108316166 0.05712435201195671
7058300 -0.02716163096273678 0.05687617911752129
7118200 -0.027439388953630933 0.05676422800289939
7178100 -0.027484656603800468 0.05663274924016949
7238000 -0.02735212461027198 0.05647338217358347
7297900 -0.027191373734543067 0.05612831683100264
7357800 -0.027406013935197215 0.055875058634052184
7417700 -0.027370706579749885 0.05559549188428951
7477600 -0.027285317619727648 0.055311374000132876
7537500 -0.027302957993107307 0.05512291438594139
7597400 -0.027033574463422146 0.05504027483967336
7657300 -0.02712696994336086 0.05515844021540476
7717200 -0.027305590998880132 0.05474024100573382
7777100 -0.02716152542759793 0.05443610066240948
7837000 -0.027282332698156945 0.05409075558373289
7896900 -0.02703597704881981 0.054243610517458046
7956800 -0.027076459795635836 0.054083635448785077
8016700 -0.027070419077610503 0.05376251214508391
8076600 -0.027192136668884714 0.053713012272636716
8136500 -0.026749408942787604 0.05382524589624903
8196400 -0.027083337376869958 0.0536963074450471
8256300 -0.02721715418813977 0.05341080199661365
8316200 -0.027064995207953448 0.053087740156747554
8376100 -0.027129747587553675 0.05285509313315551
8436000 -0.02724293197420945 0.052863939617812446
8495900 -0.02715637991685546 0.05263603449787057
8555800 -0.027195631168219436 0.052634550351907484
8615700 -0.026547500736795814 0.052364127114664996
8675600 -0.02689583729457409 0.052340160014835
8735500 -0.026564576952979813 0.052203974529241456
8795400 -0.027007954747834954 0.05195122258211031
8855300 -0.026999275926159017 0.051720659879947416
8915200 -0.027069998128701412 0.05166126831955818
8975100 -0.027333879641586626 0.05159327140582071
9035000 -0.027377019942835593 0.05132185728502456
9094900 -0.027318704406238587 0.05117667746174356
9154800 -0.027029045214571223 0.05184617067363594
9214700 -0.027496359669042025 0.05169640387526458
9274600 -0.02714083345293607 0.051517722509472855
9334500 -0.02731822543735309 0.051354307335339584
9394400 -0.02728715435712239 0.05137505615217178
9454300 -0.02736437649710798 0.0510948639195937
9514200 -0.027552509130683224 0.050981813884327244
9574100 -0.02757029646876676 0.050790867389672215
9634000 -0.02777254406875169 0.050569179530986136
9693900 -0.027999522047964156 0.050335384723354505
9753800 -0.02789627839840222 0.050474049460838305
9813700 -0.027826143081218523 0.050431023853266775
9873600 -0.028038099215156976 0.050635673927743874
9933500 -0.028401631469122692 0.0501801658506542
9993400 -0.0280740641221782 0.04995940710042324
10053300 -0.02819398106120099 0.05005497322319177
10113200 -0.028572654091546825 0.05002162397800069
10173100 -0.027951008265266118 0.05002662596527507
10233000 -0.028183872084293536 0.05009071799416248
10292900 -0.028206416452577196 0.04974124638676293
10352800 -0.02850841638570044 0.04950483802366018
10412700 -0.02859882695720908 0.04984416844244958
10472600 -0.028808618766518315 0.04933535888090782
10532500 -0.02858774716413013 0.04938697596730101
10592400 -0.028710054462101533 0.04937331362936582
10652300 -0.02858877320109783 0.04971097050400062
10712200 -0.02857418855439001 0.04976753852496452
10772100 -0.028650310108243603 0.049561869525063695
10832000 -0.028993485009670594 0.050020563028180844
10891900 -0.0288969762060055 0.04945593295772642
10951800 -0.028815906130014866 0.04928775100888209
11011700 -0.029168495513026332 0.049347658374035624
11071600 -0.02937883032445496 0.04925045260484262
11131500 -0.029176660726803083 0.04891352535203328
11191400 -0.02928190427978917 0.04910162360761297
11251300 -0.02944704968848973 0.049049784627924205
11311200 -0.029621591588185062 0.04939179192399477
11371100 -0.029920882138621544 0.04908682671040292
11431000 -0.02973153274370862 0.0491997601282739
11490900 -0.029668356466565255 0.04902665850452788
11550800 -0.030197310977466762 0.04958663719678682
11610700 -0.030089194199781594 0.04900684046386738
11670600 -0.030151278048470932 0.04934993820858033
11730500 -0.030111016078651482 0.04915868298273517
11790400 -0.03067115360337833 0.04918182928944914
11850300 -0.030815676946370975 0.048935241865557165
11910200 -0.030679212993174398 0.048541410341349296
11970100 -0.031173503700729636 0.048834015246681406
12030000 -0.03112004285711218 0.048583534591408836
12089900 -0.031177344790866056 0.048648750699078466
12149800 -0.03097382146576218 0.048785936658436085
12209700 -0.031171295491458834 0.048773841299923335
12269600 -0.03112446333916143 0.048612234441214555
12329500 -0.031555965969828785 0.04872898401082363
12389400 -0.031119232941933785 0.04868774189187395
12449300 -0.031823910052914614 0.04855971620066409
12509200 -0.03198268550862288 0.04861180720103676
12569100 -0.032276356320552264 0.048483545235474004
12629000 -0.03197394706964116 0.04883914244705659
12688900 -0.03222760836913313 0.04871028633815377
12748800 -0.032737112685989715 0.04874451379514143
12808700 -0.03248843270533174 0.04895743416616432
12868600 -0.032590946391126564 0.04906525441575201
12928500 -0.03294827854968679 0.04885807713834268
12988400 -0.03288520290124224 0.04881508570384513
13048300 -0.033067359699703494 0.048879625170127214
13108200 -0.03338013834540468 0.048491026029124404
13168100 -0.03353205015335446 0.04876665044884388
13228000 -0.03391265595035984 0.04869644191139172
13287900 -0.033765493110475144 0.04865852786630655
13347800 -0.03367687943036519 0.049090132171145474
13407700 -0.034205207458331416 0.04912777814430722
13467600 -0.03403859465275829 0.04952081055627177
13527500 -0.03418128946496578 0.04926096923863897
13587400 -0.03416289857005569 0.04937761589718701
13647300 -0.03462387301413072 0.04941627810786353
13707200 -0.035156409336887975 0.04926970161328735
13767100 -0.03464575693344153 0.049427390552576854
13827000 -0.03480559809771223 0.04986826547937668
13886900 -0.03501641789443272 0.04948523586495857
13946800 -0.03573136175550813 0.049181429440203754
14006700 -0.03530085038188454 0.04911535830468455
14066600 -0.035511209901321464 0.04931989936210431
14126500 -0.03608772779900667 0.049095123277949904
14186400 -0.035730563729792435 0.04937353109050662
14246300 -0.035713195597220714 0.04970322892181323
14306200 -0.0362040339486947 0.04960303371875306
14366100 -0.03639194240524254 0.04973573941537902
14426000 -0.03631241571484365 0.05001730514426897
14485900 -0.03648816127486018 0.05019841705378391
14545800 -0.03687867398219575 0.05000030372947883
14605700 -0.037060989729458815 0.04986274707631874
14665600 -0.03686362674464222 0.050072622919212315
14725500 -0.037417568713075645 0.04970802611925339
14785400 -0.03731855883442962 0.05018545959526225
14845300 -0.037518053322263524 0.05014398154198113
14905200 -0.03811687320221827 0.050037102782876805
14965100 -0.03788802595684057 0.0501713680158227
15025000 -0.03826397144667289 0.050532060260051935
15084900 -0.03834795404980323 0.05033751074663656
15144800 -0.03823258301639108 0.05062856532257009
15204700 -0.03849939871422588 0.05091387840134653
15264600 -0.03903288673660018 0.05095648570006653
15324500 -0.03938387966087846 0.05094500583171458
15384400 -0.03925935771102549 0.051047108940447894
15444300 -0.039725555423075314 0.05117511527014031
15504200 -0.03992798306154765 0.05102516724708055
15564100 -0.039426603719065964 0.05144835283136945
15624000 -0.0398298944621216 0.05139099800597089
15683900 -0.03987622507418506 0.05173262975293103
15743800 -0.04034811265741346 0.05168478761665683
15803700 -0.04025405914522647 0.05156349185555681
15863600 -0.04055025684789034 0.05182489537560038
15923500 -0.04092485312431783 0.051920792834568845
15983400 -0.04104219794338074 0.05203285350395405
16043300 -0.041122383479313206 0.05245564664820871
16103200 -0.04145564734655352 0.05242525066512505
16163100 -0.04169407183688511 0.052583893835440994
16223000 -0.04178928264874998 0.05214768477467642
16282900 -0.04234066236805769 0.05233888984864785
16342800 -0.0424333542121653 0.05282553519342707
16402700 -0.04262706800703725 0.05266418590918686
16462600 -0.042490212775662776 0.052811108139025974
16522500 -0.04290802889812272 0.053133024511095396
16582400 -0.04296535755099877 0.053206028566932496
16642300 -0.04302742428371366 0.053114146784911664
16702200 -0.04337289513845009 0.05329545942363748
16762100 -0.043390407311588546 0.05339576669132885
16822000 -0.04382925269136781 0.05330486592814944
16881900 -0.04398737300891144 0.05367988728568303
16941800 -0.04386895444515726 0.053835470988369175
17001700 -0.04460914175776074 0.05395552338238601
17061600 -0.044287800074975445 0.05385673713525976
17121500 -0.04459039272083302 0.05357895178824011
17181400 -0.04483680499359663 0.05402482145774778
17241300 -0.04490161106047674 0.05410263920326621
17301200 -0.04532294925219975 0.05412787252535948
17361100 -0.04537845834135212 0.05425207907425243
17421000 -0.04567087340769364 0.05459922360154304
17480900 -0.04585574200374807 0.054494354844689334
17540800 -0.04599122471008416 0.054675882655568976
17600700 -0.04626549647058157 0.054903179792821916
17660600 -0.046377857570720465 0.0549963756256086
17720500 -0.04689797115628993 0.05546165032915574
17780400 -0.04690134862645124 0.05515475260134454
17840300 -0.0470051211977993 0.055738359453118
17900200 -0.047070777897554754 0.056340434039164694
17960100 -0.04749940738597914 0.056215543204087295
18020000 -0.047753175695807094 0.05624282047643071
18079900 -0.0479242861341766 0.05636614768691632
18139800 -0.04852880384393279 0.056739317099503535
18199700 -0.04873765090481963 0.05685311075684074
18259600 -0.04889805573930402 0.057236489156458036
18319500 -0.04891986618314802 0.05701302988911148
18379400 -0.049106452361892525 0.057096924591804946
18439300 -0.049351362777630886 0.05721015266508091
18499200 -0.049736755064064435 0.05734415694458546
18559100 -0.0497170225283542 0.057552556886950844
18619000 -0.0499386789177301 0.05797620344218821
18678900 -0.05020954922242145 0.05804390005223746
18738800 -0.050276768744808034 0.05843963519808108
18798700 -0.05099604519145147 0.05843880143142747
18858600 -0.051109355309176 0.058423328279730034
18918500 -0.051066106533011635 0.05867701194971449
18978400 -0.05139371958321108 0.05878092262079743
19038300 -0.05175858961330458 0.05862195114452141
19098200 -0.052102237249008275 0.058799606364154336
19158100 -0.05222237521779612 0.059024888793483575
19218000 -0.05212171081666818 0.05921488309196017
19277900 -0.05245456072036204 0.05942305409804251
19337800 -0.05280857660941241 0.05996622936595391
19397700 -0.053069265291648314 0.06008463991834516
19457600 -0.05304808785038107 0.060104932770584894
19517500 -0.053799050522366804 0.060333438254223874
19577400 -0.053936981253702936 0.060670618096893406
19637300 -0.053861848257468696 0.060794138655018364
19697200 -0.05382142059399636 0.060662931578541406
19757100 -0.05428456479773575 0.06076962833248548
19817000 -0.05469807245780197 0.06132653723098052
19876900 -0.05495910000513132 0.06152497343979978
19936800 -0.055250965978693424 0.061901620041961494
19996700 -0.055261036524080126 0.06223154460172951
20056600 -0.05551389577401613 0.06173477179322784
20116500 -0.05638402461374929 0.062317953875607034
20176400 -0.05632777612239542 0.06251554617926644
20236300 -0.05649074432400901 0.06248351071684146
20296200 -0.056626954585995246 0.06268177744805122
20356100 -0.056722676487713244 0.06292268135900982
20416000 -0.05728055962432857 0.0636393534227356
20475900 -0.05723625848676346 0.06343957258757006
20535800 -0.05747473629828831 0.0639468946789229
20595700 -0.05827263832825148 0.06422775887959206
20655600 -0.058209464007261326 0.0645309072418746
20715500 -0.05837387793839636 0.06423932646723395
20775400 -0.05884832341084025 0.06482181079225696
20835300 -0.05929670636545959 0.06488596413761549
20895200 -0.0592759122285418 0.06495753844319671
20955100 -0.05960764986428056 0.06551650833011673
21015000 -0.06000377982032594 0.06541390512852542
21074900 -0.05994993373806566 0.06609538674458118
21134800 -0.06002733759365048 0.06637195422380356
21194700 -0.060718585649162604 0.06659026440237728
21254600 -0.060816355793656116 0.06688083437226615
21314500 -0.06144191889605036 0.06695973123664514
21374400 -0.061689520534815516 0.06711110667233355
21434300 -0.06171723278711836 0.06724807869880085
21494200 -0.06183114238286065 0.06748785420814102
21554100 -0.061813203349872906 0.0674473537611155
21614000 -0.06240186256989249 0.06796985681929243
21673900 -0.0627528663684122 0.0679605747701526
21733800 -0.0630559381589057 0.06846971739446289
21793700 -0.06332050143764092 0.06836074688371052
21853600 -0.06352101693348707 0.06883912523563034
21913500 -0.06393206222301602 0.06910071548683258
21973400 -0.06402037702152381 0.06951919105531064
22033300 -0.06408811461045787 0.06973934327689522
22093200 -0.0639591414489968 0.07012243922409706
22153100 -0.06421653183075697 0.07029924703372356
22213000 -0.06455052957835603 0.07038340161515617
22272900 -0.06499514039015437 0.07042592753560117
22332800 -0.06497928092624378 0.07121251267356218
22392700 -0.06528043364327979 0.07092623945401336
22452600 -0.06514485118443279 0.0712137509447502
22512500 -0.0655962071589845 0.07184407552163749
22572400 -0.06601134649725929 0.07198667428027344
22632300 -0.06659501046012535 0.07227134590265687
22692200 -0.06681786238200725 0.07272531726324893
22752100 -0.06633982071465423 0.07240430261327849
22812000 -0.06677537685426951 0.07262175091740011
22871900 -0.06705950472936488 0.07306559081640512
22931800 -0.06745677628126354 0.07338234027074038
22991700 -0.06762738833927945 0.07356083262410788
23051600 -0.06869320099718121 0.07422405397874052
23111500 -0.06835972678960929 0.07428335048649043
23171400 -0.06927365337441344 0.07525214651495134
23231300 -0.06906997266939707 0.07477982804742468
23291200 -0.06921179922996026 0.07515319257040927
23351100 -0.06913398136930259 0.07559592254130923
23411000 -0.07036097081636979 0.07565500471448856
23470900 -0.07025267981133351 0.07637013350516546
23530800 -0.07061508783923302 0.07691355628530959
