# MHz S MA R 50
!   freq        S11              S21              S12              S22       
0.050000  0.98034  170.37  0.02199   84.88  0.02212   84.95  0.98024  170.22
0.100000  0.94387  161.40  0.04081   75.27  0.04065   74.22  0.94256  161.03
0.150000  0.87238  152.51  0.05945   69.31  0.05935   69.22  0.87915  153.34
0.200000  0.81772  145.35  0.07396   61.74  0.07420   61.78  0.81650  145.24
0.250000  0.74935  139.19  0.08640   56.17  0.08646   56.03  0.75017  139.20
0.300000  0.70945  133.47  0.09684   49.24  0.09498   50.71  0.66111  132.44
0.350000  0.62788  129.51  0.10422   46.05  0.10419   46.07  0.62850  129.52
0.400000  0.57520  125.78  0.11054   42.06  0.11056   42.16  0.57490  125.78
0.450000  0.52832  122.54  0.06465   25.97  0.06467   25.93  0.52851  122.60
0.500000  0.48699  120.00  0.12085   32.04  0.12089   32.10  0.48789  119.97
0.550000  0.45082  117.60  0.12448   29.35  0.12496   29.29  0.45087  117.53
0.600000  0.41894  115.20  0.12698   27.13  0.12767   26.01  0.40748  116.42
0.650000  0.38784  113.97  0.12973   24.91  0.12976   24.91  0.38801  113.88
0.700000  0.36042  112.49  0.13135   23.23  0.13152   23.20  0.36054  112.44
0.750000  0.33388  111.44  0.13208   21.59  0.13300   21.77  0.33875  111.08
0.800000  0.31441  110.25  0.13391   20.05  0.13426   20.02  0.31529  110.38
0.850000  0.29388  109.29  0.13480   18.64  0.13477   18.65  0.29399  109.23
0.900000  0.27737  108.44  0.13677   17.51  0.13607   17.43  0.27917  108.42
0.950000  0.26064  108.26  0.13651   16.31  0.13647   16.21  0.25931  108.06
1.000000  0.24400  107.82  0.13673   15.11  0.13692   15.09  0.24532  107.89
1.050000  0.23072  107.31  0.13781   14.07  0.13589   14.31  0.23089  107.52
1.100000  0.21846  107.48  0.13774   13.31  0.13770   13.25  0.21794  107.58
1.150000  0.20684  107.60  0.13804   12.51  0.13815   12.41  0.20685  107.86
1.200000  0.19653  107.35  0.13929   11.68  0.13742   11.72  0.19472  108.60
1.250000  0.18633  107.73  0.13827   11.04  0.13850   10.92  0.18606  108.07
1.300000  0.17780  108.52  0.13807   10.35  0.13855   10.30  0.17829  108.38
1.350000  0.16968  107.86  0.13892    9.67  0.13769    9.83  0.16987  108.46
1.400000  0.16295  109.49  0.13820    9.17  0.13832    9.09  0.16245  109.00
1.450000  0.15566  109.35  0.13855    8.55  0.13825    8.60  0.15569  109.83
1.500000  0.15043  110.53  0.13857    8.12  0.13765    8.09  0.14835  109.68
1.550000  0.14403  110.72  0.13858    7.64  0.13855    7.57  0.14389  110.97
1.600000  0.13889  111.37  0.13844    7.24  0.13841    7.29  0.13866  111.39
1.650000  0.13240  110.90  0.13911    6.73  0.13953    6.87  0.13517  112.28
1.700000  0.12847  112.41  0.13827    6.32  0.13836    6.36  0.12883  112.85
1.750000  0.12492  113.35  0.13841    5.96  0.13834    5.96  0.12451  113.20
1.800000  0.11949  113.60  0.13806    5.66  0.13896    5.70  0.12055  114.75
1.850000  0.11638  114.87  0.13826    5.38  0.13828    5.38  0.11644  114.85
1.900000  0.11290  115.57  0.13845    4.92  0.13837    5.00  0.11277  115.49
1.950000  0.10880  115.82  0.13776    4.72  0.13823    4.62  0.10927  115.93
2.000000  0.10611  117.07  0.13839    4.36  0.13813    4.44  0.10610  117.11
2.050000  0.10260  117.70  0.13830    4.09  0.13839    4.01  0.10287  117.87
2.100000  0.09990  118.72  0.13863    3.79  0.13855    3.83  0.10116  119.56
2.150000  0.09685  119.37  0.13834    3.45  0.13812    3.46  0.09688  119.44
2.200000  0.09496  120.45  0.13815    3.34  0.13838    3.23  0.09447  120.35
2.250000  0.09154  120.89  0.13851    2.98  0.13822    3.13  0.09142  120.76
2.300000  0.08913  121.93  0.13818    2.83  0.13836    2.78  0.08930  122.03
2.350000  0.08657  123.03  0.13813    2.51  0.13827    2.53  0.08651  122.94
2.400000  0.08408  123.45  0.13808    2.27  0.13889    2.34  0.08511  124.33
2.450000  0.08269  124.73  0.13810    2.00  0.13832    2.08  0.08235  124.68
2.500000  0.08047  125.72  0.13820    1.86  0.13818    1.80  0.08068  125.84
2.550000  0.07917  126.99  0.13837    1.65  0.13819    1.62  0.07915  127.40
2.600000  0.07704  127.97  0.13830    1.45  0.13818    1.45  0.07718  127.96
2.650000  0.07534  128.88  0.13820    1.26  0.13800    1.20  0.07540  128.81
2.700000  0.07466  130.64  0.13842    0.98  0.13832    1.02  0.07449  130.47
2.750000  0.07221  130.99  0.13832    0.74  0.13820    0.79  0.07227  130.84
2.800000  0.07105  132.14  0.13817    0.58  0.13817    0.54  0.07104  132.10
2.850000  0.07045  133.71  0.13816    0.37  0.13827    0.40  0.07026  133.49
2.900000  0.06832  134.37  0.13811    0.21  0.13805    0.19  0.06823  134.26
2.950000  0.06703  135.29  0.13797   -0.00  0.13788    0.04  0.06694  135.53
3.000000  0.06591  136.46  0.13808   -0.15  0.13817   -0.20  0.06635  136.98
3.050000  0.06487  137.58  0.13805   -0.32  0.13811   -0.28  0.06487  137.74
3.100000  0.06387  138.86  0.13817   -0.46  0.13814   -0.45  0.06391  138.91
3.150000  0.06336  140.52  0.13833   -0.66  0.13823   -0.58  0.06246  140.04
3.200000  0.06185  141.53  0.13824   -0.77  0.13809   -0.87  0.06192  141.36
3.250000  0.06105  142.72  0.13819   -1.02  0.13802   -0.92  0.06115  142.68
3.300000  0.06065  143.96  0.13785   -1.10  0.13797   -1.17  0.06069  144.23
3.350000  0.05951  145.17  0.13809   -1.25  0.13830   -1.38  0.05961  145.35
3.400000  0.05885  146.52  0.13797   -1.46  0.13805   -1.51  0.05860  146.36
3.450000  0.05758  147.80  0.13804   -1.70  0.13791   -1.67  0.05773  147.64
3.500000  0.05759  148.93  0.13805   -1.79  0.13814   -1.76  0.05755  149.01
3.550000  0.05693  150.34  0.13815   -1.96  0.13812   -1.96  0.05671  150.30
3.600000  0.05646  151.55  0.13789   -2.02  0.13800   -2.00  0.05675  151.76
3.650000  0.05596  152.99  0.13811   -2.15  0.13810   -2.16  0.05584  153.00
3.700000  0.05525  154.33  0.13796   -2.40  0.13811   -2.46  0.05540  154.22
3.750000  0.05575  156.06  0.13838   -2.55  0.13814   -2.57  0.05466  155.60
3.800000  0.05478  156.82  0.13808   -2.74  0.13799   -2.59  0.05487  156.92
3.850000  0.05448  158.30  0.13811   -2.85  0.13806   -2.80  0.05448  158.35
3.900000  0.05376  159.44  0.13802   -2.91  0.13809   -2.98  0.05393  159.52
3.950000  0.05394  160.80  0.13810   -3.16  0.13824   -3.16  0.05406  161.12
4.000000  0.05392  162.12  0.13807   -3.30  0.13802   -3.28  0.05377  162.03
4.050000  0.05393  163.74  0.13818   -3.46  0.13800   -3.46  0.05316  163.41
4.100000  0.05364  164.75  0.13803   -3.50  0.13822   -3.65  0.05363  164.97
4.150000  0.05347  165.98  0.13814   -3.79  0.13816   -3.72  0.05357  166.10
4.200000  0.05381  167.37  0.13813   -3.93  0.13806   -3.86  0.05363  167.23
4.250000  0.05332  168.61  0.13806   -4.03  0.13803   -4.04  0.05324  168.51
4.300000  0.05370  169.90  0.13817   -4.15  0.13818   -4.13  0.05359  169.87
4.350000  0.05344  170.90  0.13804   -4.21  0.13804   -4.25  0.05373  171.09
4.400000  0.05347  172.25  0.13801   -4.39  0.13797   -4.39  0.05356  172.17
4.450000  0.05389  173.50  0.13817   -4.59  0.13816   -4.60  0.05394  173.39
4.500000  0.05419  174.87  0.13822   -4.72  0.13827   -4.72  0.05427  174.76
4.550000  0.05419  175.75  0.13817   -4.80  0.13818   -4.80  0.05421  175.86
4.600000  0.05433  176.70  0.13800   -5.00  0.13793   -5.00  0.05438  176.86
4.650000  0.05448  177.83  0.13790   -5.12  0.13804   -5.09  0.05427  178.01
4.700000  0.05510  179.23  0.13815   -5.23  0.13811   -5.28  0.05508  179.18
4.750000  0.05521  179.97  0.13805   -5.40  0.13797   -5.30  0.05532  179.88
4.800000  0.05578 -178.89  0.13806   -5.34  0.13802   -5.50  0.05573 -178.83
4.850000  0.05609 -178.03  0.13795   -5.53  0.13794   -5.62  0.05603 -177.60
4.900000  0.05619 -177.17  0.13799   -5.77  0.13819   -5.83  0.05636 -176.93
4.950000  0.05656 -175.97  0.13809   -5.93  0.13796   -5.81  0.05677 -176.08
5.000000  0.05714 -175.03  0.13804   -6.02  0.13798   -6.04  0.05698 -175.01
5.050000  0.05772 -174.26  0.13791   -6.05  0.13815   -6.18  0.05773 -173.93
5.100000  0.05771 -173.35  0.13806   -6.38  0.13786   -6.22  0.05801 -173.26
5.150000  0.05840 -172.48  0.13802   -6.45  0.13794   -6.40  0.05840 -172.44
5.200000  0.05913 -171.32  0.13810   -6.59  0.13807   -6.60  0.05912 -171.31
5.250000  0.05934 -170.75  0.13806   -6.69  0.13801   -6.68  0.05928 -170.87
5.300000  0.06004 -170.12  0.13809   -6.88  0.13809   -6.88  0.06009 -170.02
5.350000  0.06052 -168.86  0.13799   -6.94  0.13800   -6.94  0.06048 -168.89
5.400000  0.06138 -168.20  0.13805   -6.94  0.13800   -6.89  0.06148 -168.29
5.450000  0.06198 -167.57  0.13813   -7.14  0.13807   -7.13  0.06209 -167.57
5.500000  0.06244 -166.91  0.13798   -7.31  0.13792   -7.28  0.06250 -166.87
5.550000  0.06291 -166.09  0.13781   -7.43  0.13774   -7.43  0.06294 -166.18
5.600000  0.06397 -165.55  0.13791   -7.41  0.13807   -7.49  0.06398 -165.47
5.650000  0.06438 -164.83  0.13781   -7.73  0.13801   -7.75  0.06434 -164.87
5.700000  0.06484 -163.85  0.13806   -7.84  0.13796   -7.75  0.06506 -164.03
5.750000  0.06564 -163.41  0.13790   -7.94  0.13785   -7.94  0.06577 -163.44
5.800000  0.06647 -163.02  0.13796   -8.02  0.13797   -8.06  0.06643 -162.94
5.850000  0.06737 -162.09  0.13794   -8.24  0.13793   -8.20  0.06723 -162.09
5.900000  0.06803 -161.90  0.13785   -8.27  0.13782   -8.25  0.06800 -161.83
5.950000  0.06858 -161.12  0.13803   -8.37  0.13780   -8.45  0.06864 -161.21
6.000000  0.06942 -160.64  0.13790   -8.62  0.13788   -8.61  0.06939 -160.75
6.050000  0.06997 -160.04  0.13789   -8.71  0.13799   -8.67  0.07006 -160.04
6.100000  0.07066 -159.59  0.13778   -8.78  0.13781   -8.83  0.07068 -159.69
6.150000  0.07195 -159.16  0.13791   -8.87  0.13797   -8.91  0.07170 -158.99
6.200000  0.07234 -158.96  0.13774   -8.95  0.13783   -8.94  0.07252 -158.87
6.250000  0.07302 -158.39  0.13778   -9.15  0.13775   -9.10  0.07312 -158.45
6.300000  0.07400 -157.80  0.13772   -9.24  0.13763   -9.27  0.07376 -157.91
6.350000  0.07492 -157.55  0.13787   -9.33  0.13795   -9.43  0.07480 -157.49
6.400000  0.07566 -157.05  0.13790   -9.61  0.13795   -9.51  0.07575 -156.86
6.450000  0.07626 -156.67  0.13793   -9.59  0.13786   -9.57  0.07643 -156.73
6.500000  0.07710 -156.51  0.13762   -9.66  0.13778   -9.80  0.07697 -156.40
6.550000  0.07797 -155.86  0.13767   -9.85  0.13784   -9.84  0.07792 -155.85
6.600000  0.07907 -155.69  0.13786   -9.98  0.13766   -9.91  0.07879 -155.67
6.650000  0.07975 -155.48  0.13768  -10.14  0.13769  -10.20  0.07976 -155.41
6.700000  0.08032 -155.04  0.13769  -10.12  0.13770  -10.23  0.08037 -155.09
6.750000  0.08161 -154.73  0.13771  -10.43  0.13773  -10.32  0.08150 -154.61
6.800000  0.08245 -154.40  0.13778  -10.54  0.13761  -10.42  0.08223 -154.42
6.850000  0.08307 -154.05  0.13760  -10.51  0.13757  -10.63  0.08303 -154.08
6.900000  0.08391 -153.84  0.13737  -10.73  0.13762  -10.66  0.08405 -153.83
6.950000  0.08485 -153.49  0.13775  -10.84  0.13752  -10.76  0.08489 -153.70
7.000000  0.08589 -153.38  0.13769  -10.98  0.13752  -10.85  0.08565 -153.41
7.050000  0.08661 -153.01  0.13735  -10.93  0.13749  -11.15  0.08658 -153.15
7.100000  0.08747 -153.00  0.13741  -11.24  0.13770  -11.25  0.08757 -152.79
7.150000  0.08843 -152.72  0.13750  -11.27  0.13755  -11.25  0.08844 -152.66
7.200000  0.08922 -152.35  0.13758  -11.40  0.13748  -11.55  0.08943 -152.52
7.250000  0.09019 -152.18  0.13757  -11.59  0.13762  -11.50  0.09013 -152.21
7.300000  0.09110 -152.05  0.13757  -11.66  0.13735  -11.63  0.09104 -152.03
7.350000  0.09206 -151.90  0.13753  -11.80  0.13729  -11.67  0.09207 -151.91
7.400000  0.09287 -151.76  0.13758  -11.88  0.13737  -11.96  0.09288 -151.82
7.450000  0.09371 -151.49  0.13736  -12.06  0.13748  -11.97  0.09376 -151.51
7.500000  0.09501 -151.37  0.13747  -12.10  0.13726  -12.02  0.09472 -151.43
7.550000  0.09553 -151.29  0.13740  -12.26  0.13733  -12.24  0.09562 -151.33
7.600000  0.09649 -151.05  0.13723  -12.39  0.13741  -12.39  0.09656 -151.04
7.650000  0.09748 -150.99  0.13729  -12.47  0.13743  -12.44  0.09764 -151.02
7.700000  0.09848 -150.84  0.13735  -12.68  0.13719  -12.53  0.09838 -150.87
7.750000  0.09935 -150.68  0.13735  -12.70  0.13714  -12.72  0.09928 -150.67
7.800000  0.10023 -150.47  0.13728  -12.89  0.13713  -12.72  0.10030 -150.48
7.850000  0.10113 -150.43  0.13720  -13.00  0.13730  -12.93  0.10126 -150.43
7.900000  0.10230 -150.34  0.13705  -13.06  0.13721  -13.13  0.10212 -150.36
7.950000  0.10322 -150.23  0.13719  -13.23  0.13708  -13.09  0.10302 -150.20
8.000000  0.10408 -150.23  0.13707  -13.29  0.13728  -13.28  0.10409 -150.10
8.050000  0.10496 -150.01  0.13706  -13.45  0.13696  -13.30  0.10516 -150.09
8.100000  0.10610 -149.83  0.13702  -13.49  0.13693  -13.53  0.10622 -149.94
8.150000  0.10708 -149.87  0.13715  -13.66  0.13718  -13.67  0.10699 -149.81
8.200000  0.10803 -149.95  0.13706  -13.82  0.13706  -13.73  0.10800 -149.80
8.250000  0.10921 -149.77  0.13707  -13.94  0.13696  -13.88  0.10903 -149.84
8.300000  0.10997 -149.59  0.13689  -13.99  0.13688  -14.02  0.11006 -149.63
8.350000  0.11124 -149.53  0.13710  -14.13  0.13709  -14.15  0.11115 -149.45
8.400000  0.11228 -149.60  0.13697  -14.31  0.13694  -14.24  0.11193 -149.65
8.450000  0.11307 -149.19  0.13681  -14.38  0.13680  -14.37  0.11321 -149.48
8.500000  0.11391 -149.22  0.13683  -14.40  0.13699  -14.49  0.11406 -149.15
8.550000  0.11481 -149.28  0.13693  -14.60  0.13679  -14.57  0.11511 -149.13
8.600000  0.11623 -149.22  0.13684  -14.72  0.13695  -14.66  0.11576 -149.16
8.650000  0.11756 -148.96  0.13662  -14.83  0.13678  -14.72  0.11714 -149.11
8.700000  0.11793 -149.02  0.13683  -14.96  0.13680  -15.02  0.11816 -148.95
8.750000  0.11878 -149.02  0.13675  -14.93  0.13652  -15.02  0.11937 -148.94
8.800000  0.12053 -148.76  0.13681  -15.24  0.13667  -15.11  0.12002 -148.99
8.850000  0.12112 -148.98  0.13664  -15.22  0.13663  -15.29  0.12097 -149.03
8.900000  0.12237 -148.90  0.13640  -15.34  0.13645  -15.35  0.12239 -148.79
8.950000  0.12315 -148.96  0.13661  -15.45  0.13664  -15.42  0.12309 -148.98
9.000000  0.12416 -148.77  0.13664  -15.67  0.13657  -15.69  0.12442 -148.91
9.050000  0.12517 -148.80  0.13641  -15.77  0.13639  -15.76  0.12533 -148.79
9.100000  0.12618 -149.11  0.13654  -15.87  0.13654  -15.87  0.12617 -149.03
9.150000  0.12700 -148.87  0.13635  -15.95  0.13639  -15.94  0.12702 -148.98
9.200000  0.12806 -148.91  0.13644  -16.07  0.13645  -16.09  0.12793 -148.91
9.250000  0.12984 -148.88  0.13640  -16.10  0.13640  -16.10  0.12981 -148.97
9.300000  0.13048 -149.13  0.13631  -16.31  0.13633  -16.30  0.12998 -149.12
9.350000  0.13116 -148.87  0.13619  -16.47  0.13623  -16.49  0.13118 -148.76
9.400000  0.13241 -148.86  0.13649  -16.64  0.13620  -16.58  0.13270 -148.85
9.450000  0.13310 -148.86  0.13621  -16.64  0.13631  -16.75  0.13355 -148.87
9.500000  0.13416 -148.95  0.13630  -16.79  0.13607  -16.78  0.13454 -148.98
9.550000  0.13542 -149.04  0.13628  -16.89  0.13615  -16.88  0.13557 -148.99
9.600000  0.13626 -149.00  0.13603  -16.97  0.13622  -17.07  0.13676 -149.05
9.650000  0.13729 -149.33  0.13617  -17.09  0.13607  -17.06  0.13759 -149.06
9.700000  0.13822 -149.03  0.13607  -17.23  0.13590  -17.23  0.13853 -149.12
9.750000  0.13976 -149.26  0.13591  -17.34  0.13607  -17.33  0.13979 -149.37
9.800000  0.14099 -149.37  0.13610  -17.48  0.13582  -17.42  0.14067 -149.23
9.850000  0.14199 -149.30  0.13577  -17.51  0.13605  -17.56  0.14213 -149.48
9.900000  0.14296 -149.53  0.13602  -17.69  0.13591  -17.73  0.14246 -149.33
9.950000  0.14355 -149.47  0.13577  -17.70  0.13583  -17.86  0.14375 -149.46
10.000000  0.14484 -149.43  0.13559  -17.90  0.13590  -17.92  0.14495 -149.53
10.050000  0.14611 -149.72  0.13585  -18.07  0.13570  -17.90  0.14583 -149.40
10.100000  0.14656 -149.60  0.13583  -18.15  0.13573  -18.07  0.14672 -149.55
10.150000  0.14781 -149.45  0.13564  -18.18  0.13571  -18.36  0.14797 -149.61
10.200000  0.14899 -149.71  0.13536  -18.34  0.13565  -18.32  0.14919 -149.83
10.250000  0.15046 -150.03  0.13574  -18.50  0.13565  -18.45  0.15002 -149.71
10.300000  0.15104 -149.82  0.13565  -18.48  0.13556  -18.67  0.15093 -149.95
10.350000  0.15213 -149.88  0.13551  -18.73  0.13562  -18.75  0.15231 -150.12
10.400000  0.15329 -150.18  0.13547  -18.74  0.13546  -18.75  0.15348 -149.91
10.450000  0.15444 -150.34  0.13551  -18.95  0.13549  -18.92  0.15433 -150.00
10.500000  0.15523 -150.19  0.13530  -19.10  0.13554  -19.01  0.15548 -150.21
10.550000  0.15628 -150.30  0.13513  -19.14  0.13540  -19.12  0.15659 -150.44
10.600000  0.15774 -150.58  0.13538  -19.25  0.13520  -19.20  0.15783 -150.30
10.650000  0.15890 -150.35  0.13532  -19.39  0.13519  -19.35  0.15862 -150.45
10.700000  0.15974 -150.58  0.13510  -19.55  0.13530  -19.50  0.15978 -150.67
10.750000  0.16073 -150.64  0.13507  -19.64  0.13513  -19.58  0.16078 -150.71
10.800000  0.16166 -150.84  0.13525  -19.78  0.13521  -19.74  0.16201 -150.64
10.850000  0.16285 -150.86  0.13524  -19.90  0.13511  -19.79  0.16314 -150.67
10.900000  0.16421 -150.72  0.13498  -19.87  0.13498  -19.94  0.16440 -150.89
10.950000  0.16507 -151.03  0.13475  -20.05  0.13502  -20.07  0.16497 -151.09
11.000000  0.16600 -151.12  0.13497  -20.18  0.13490  -20.08  0.16636 -150.97
11.050000  0.16740 -151.24  0.13505  -20.33  0.13497  -20.23  0.16717 -151.13
11.100000  0.16866 -151.22  0.13488  -20.37  0.13485  -20.45  0.16825 -151.24
11.150000  0.16967 -151.45  0.13457  -20.47  0.13487  -20.50  0.16953 -151.50
11.200000  0.17012 -151.45  0.13476  -20.59  0.13471  -20.50  0.17036 -151.36
11.250000  0.17189 -151.53  0.13474  -20.76  0.13460  -20.78  0.17140 -151.55
11.300000  0.17270 -151.80  0.13474  -20.88  0.13479  -20.90  0.17265 -151.80
11.350000  0.17332 -151.63  0.13463  -20.93  0.13466  -20.91  0.17361 -151.89
11.400000  0.17495 -152.08  0.13468  -21.17  0.13467  -21.01  0.17492 -151.74
11.450000  0.17641 -151.96  0.13457  -21.18  0.13440  -21.21  0.17615 -152.05
11.500000  0.17718 -152.10  0.13432  -21.25  0.13441  -21.28  0.17728 -152.26
11.550000  0.17772 -152.16  0.13451  -21.41  0.13435  -21.30  0.17814 -152.15
11.600000  0.17965 -152.29  0.13441  -21.66  0.13431  -21.57  0.17935 -152.26
11.650000  0.18025 -152.66  0.13423  -21.67  0.13437  -21.69  0.17999 -152.56
11.700000  0.18173 -152.62  0.13429  -21.79  0.13416  -21.75  0.18151 -152.63
11.750000  0.18245 -152.81  0.13425  -21.91  0.13425  -21.86  0.18216 -152.65
11.800000  0.18369 -152.69  0.13425  -22.01  0.13408  -22.03  0.18406 -152.82
11.850000  0.18429 -152.87  0.13415  -22.15  0.13414  -22.18  0.18423 -152.77
11.900000  0.18637 -153.02  0.13407  -22.29  0.13395  -22.25  0.18592 -153.00
11.950000  0.18690 -153.26  0.13391  -22.39  0.13393  -22.35  0.18692 -153.30
12.000000  0.18825 -153.17  0.13400  -22.48  0.13387  -22.50  0.18840 -153.24
12.050000  0.18885 -153.31  0.13401  -22.60  0.13399  -22.59  0.18892 -153.29
12.100000  0.19069 -153.55  0.13378  -22.69  0.13388  -22.70  0.19072 -153.48
12.150000  0.19149 -153.83  0.13373  -22.84  0.13377  -22.82  0.19134 -153.84
12.200000  0.19206 -153.61  0.13382  -22.96  0.13360  -22.86  0.19227 -153.66
12.250000  0.19375 -153.73  0.13366  -23.00  0.13360  -23.01  0.19412 -153.85
12.300000  0.19538 -154.04  0.13370  -23.25  0.13362  -23.07  0.19470 -153.80
12.350000  0.19605 -154.05  0.13358  -23.19  0.13353  -23.29  0.19600 -154.05
12.400000  0.19756 -154.39  0.13327  -23.38  0.13334  -23.40  0.19702 -154.47
12.450000  0.19772 -154.35  0.13346  -23.44  0.13343  -23.48  0.19809 -154.38
12.500000  0.19938 -154.39  0.13337  -23.50  0.13330  -23.57  0.19956 -154.47
12.550000  0.20097 -154.85  0.13325  -23.78  0.13332  -23.77  0.20013 -154.78
12.600000  0.20153 -154.74  0.13329  -23.83  0.13312  -23.81  0.20163 -154.95
12.650000  0.20272 -154.81  0.13325  -23.88  0.13330  -23.99  0.20225 -154.92
12.700000  0.20344 -155.17  0.13301  -24.02  0.13300  -24.06  0.20446 -155.11
12.750000  0.20525 -155.06  0.13300  -24.15  0.13311  -24.22  0.20445 -155.15
12.800000  0.20634 -155.20  0.13293  -24.17  0.13299  -24.26  0.20568 -155.18
12.850000  0.20723 -155.41  0.13301  -24.47  0.13281  -24.42  0.20733 -155.56
