# HZ S RI R 50
50000 -1.0016978999433503 0.008128407693090707
79305 -1.0101441562099398 0.017526424496743985
108610 -0.9993695933801663 0.023925868802169563
137915 -0.9687636072085052 0.02784905525884282
167220 -0.985860951004198 0.03000483488952091
196525 -0.9938107891013954 0.03844636147692665
225830 -0.9990897723339809 0.04611378946374872
255135 -0.9982912278819126 0.05678977944905977
284440 -0.9941397024100116 0.059266287540454834
313745 -0.9963339440030602 0.062098142742176655
343050 -0.9951947850154671 0.06875128697214675
372355 -0.9950466315906831 0.07416199910061357
401660 -0.9934912778217486 0.0796767922002549
430965 -0.9947764781277068 0.08633867379507174
460270 -0.9938104874727376 0.09122529148697311
489575 -0.9937229341003195 0.09646254042081093
518880 -0.9932522033397089 0.10241804061721638
548185 -0.9923378002527458 0.10890555636960826
577490 -0.9914297124066003 0.11406473903844964
606795 -0.9897955501367354 0.11945243092598476
636100 -0.9898528918498645 0.1247496055247303
665405 -0.9887280999953766 0.13087091487296618
694710 -0.9873694215346878 0.13670145050335344
724015 -0.9868772030323675 0.14402609768256316
753320 -0.9829769427100743 0.14802214451001636
782625 -0.984436226073499 0.1532854341853551
811930 -0.984325311266106 0.15874257803027816
841235 -0.982754795988445 0.16433378850681976
870540 -0.9818760287518681 0.17077184731431647
899845 -0.9728059829397516 0.1728102328472495
929150 -0.9791302493892646 0.18144333929978043
958455 -0.9790168715917644 0.18697334064191912
987760 -0.9763486207217872 0.19203813643806736
1017065 -0.9756307675482792 0.19806050362857036
1046370 -0.9739931492495115 0.20389765873557386
1075675 -0.9726440154184665 0.20909366571212434
1104980 -0.9709421122432433 0.21586324612881772
1134285 -0.9704924939678823 0.2200649064061028
1163590 -0.9693775496459726 0.2245287002195375
1192895 -0.9689645366672689 0.23019228664658425
1222200 -0.9673103347689389 0.23648178844032944
1251505 -0.9655284943821043 0.2426427342776821
1280810 -0.9636808614261719 0.2471166649812121
1310115 -0.9622422978989146 0.25287938581951175
1339420 -0.9605950162050328 0.25832968197430045
1368725 -0.9596660244447172 0.2619597126662464
1398030 -0.9577796127442819 0.2676542752172466
1427335 -0.955975538610248 0.2750504892935108
1456640 -0.954932316969938 0.28109257264263177
1485945 -0.9524658279802857 0.285313839908545
1515250 -0.9495888163009398 0.29079377344518664
1544555 -0.9493975552124035 0.29458019190197987
1573860 -0.9468372350197927 0.30120639382513525
1603165 -0.946411038676438 0.3056896627568614
1632470 -0.9445700466960156 0.3120658651174471
1661775 -0.9422481189033417 0.31783870286929516
1691080 -0.9408308883968965 0.32221738525280685
1720385 -0.9386025290190655 0.3281265273064668
1749690 -0.9349243565704223 0.3333202996140928
1778995 -0.9345010663355899 0.3365897397365969
1808300 -0.9315762448490651 0.3430116764657936
1837605 -0.9304236758509339 0.34872902248554505
1866910 -0.9288828193592348 0.3538145603236915
1896215 -0.9258688911242877 0.3593954318230553
1925520 -0.9250553642223457 0.3639129846720765
1954825 -0.922145267504759 0.3681697879844283
1984130 -0.9183587776114418 0.3732057480106448
2013435 -0.9167043113123015 0.3778316517884967
2042740 -0.9146429566016072 0.3838818691637957
2072045 -0.9135836828047642 0.39034640061011
2101350 -0.910637351003954 0.39373901519679017
2130655 -0.9079701560642371 0.39799501013966687
2159960 -0.9050580075353696 0.40294459984246545
2189265 -0.9026512999513402 0.4092859797375429
2218570 -0.9006280146766306 0.41424315862116307
2247875 -0.9002757349160759 0.4193495747504272
2277180 -0.8956620430972716 0.4227768606511165
2306485 -0.8927720656894518 0.42890648769949463
2335790 -0.89140098318728 0.43418955173204987
2365095 -0.8895704067536429 0.43861988822556625
2394400 -0.8864401234805463 0.4445343763582747
2423705 -0.8840240634785953 0.44930103130932075
2453010 -0.8812634382776621 0.45246530248960676
2482315 -0.8793650523198686 0.45684067436708803
2511620 -0.8759105562806718 0.4635230081233312
2540925 -0.874230739456451 0.4678645667273634
2570230 -0.8700508992877544 0.4728709670700928
2599535 -0.8675863010513837 0.47715363456025345
2628840 -0.8647282488728995 0.48198438234569757
2658145 -0.8625017098731984 0.4869713353091056
2687450 -0.859703778764248 0.4901962476069606
2716755 -0.8567817766948417 0.49701129557437
2746060 -0.8545847864130042 0.5001183107448602
2775365 -0.8516331324425689 0.5055211471229011
2804670 -0.847658365070565 0.5109448363161959
2833975 -0.8450922471132917 0.5140248586894619
2863280 -0.842542080872365 0.5186539379988331
2892585 -0.839238380703554 0.5234967933732936
2921890 -0.8360843672231567 0.5287107161784604
2951195 -0.8323267271324922 0.5340984600349291
2980500 -0.8306993563110983 0.5380695571886172
3009805 -0.8268414287977821 0.5422382211854545
3039110 -0.8235853555002286 0.5464299890120679
3068415 -0.8203574788319697 0.5507950551242328
3097720 -0.8173654755018465 0.554715837244404
3127025 -0.8139648194924091 0.5597307886771223
3156330 -0.8113856722853784 0.5641450944384596
3185635 -0.8093060926788009 0.5677379243712259
3214940 -0.8052383959577775 0.5719393903447166
3244245 -0.8009840894827948 0.5761194746697029
3273550 -0.7984660558425757 0.5798669451270534
3302855 -0.7944841119308191 0.5860070411311944
3332160 -0.7922048206508763 0.5898784361310617
3361465 -0.7897377024342396 0.5937414926306258
3390770 -0.7844407112066722 0.5980970126740954
3420075 -0.7818083936316996 0.6031919224972946
3449380 -0.7782274093271058 0.6064102995690417
3478685 -0.776442606147716 0.6102386009903388
3507990 -0.7730824196214396 0.6143707925012237
3537295 -0.7692738313324401 0.618196109681759
3566600 -0.7645798836304766 0.6226759622026313
3595905 -0.76157752418316 0.6260307160521585
3625210 -0.7574611345247974 0.6317559961212276
3654515 -0.7534558707697956 0.6349612775430379
3683820 -0.7511191680985806 0.6388428614818528
3713125 -0.746321703666143 0.644029425067953
3742430 -0.744168866363965 0.6467351143770913
3771735 -0.7409619672067311 0.6500263905473722
3801040 -0.7352560696477003 0.6545728685613044
3830345 -0.7325389487032984 0.6580121954212687
3859650 -0.7286596465869982 0.661584229395533
3888955 -0.7259806182785401 0.6652027599923608
3918260 -0.7209431517993177 0.6689818579912818
3947565 -0.7181913052106383 0.6736868625825466
3976870 -0.7155399088111993 0.6773477472877946
4006175 -0.7112051408093334 0.6816360590233398
4035480 -0.7068904583896409 0.6850897726284221
4064785 -0.7021661599231717 0.6892272425455724
4094090 -0.6994904336046744 0.691857453788823
4123395 -0.696219714775858 0.6962301295427151
4152700 -0.691842027843433 0.6993639399234173
4182005 -0.6883637341326294 0.7026199734575005
4211310 -0.6836256420319874 0.7062281339479893
4240615 -0.6804440649388191 0.709842596061024
4269920 -0.6756897895051378 0.7129847493884454
4299225 -0.6718481136026997 0.7161614178027633
4328530 -0.6695960293144316 0.7188124007849944
4357835 -0.6649705601320871 0.7239514806156175
4387140 -0.6602200164443669 0.7272206216158499
4416445 -0.6559679189597997 0.7311989953374439
4445750 -0.6516076672357357 0.7342974220262264
4475055 -0.6481409757571995 0.7365931309765201
4504360 -0.6451366873015976 0.7416498791810548
4533665 -0.6394559279147968 0.7452235973120842
4562970 -0.6355407173835944 0.7468119302814784
4592275 -0.6316205337955959 0.7501537755234395
4621580 -0.6274442869909063 0.7531087308999342
4650885 -0.623950809042904 0.7559960250073801
4680190 -0.6212109880567439 0.7600813495547231
4709495 -0.6155263917533665 0.7637255595568885
4738800 -0.6112549868499951 0.7655056591040972
4768105 -0.6074997108288803 0.7693414913120881
4797410 -0.6033656087974305 0.7727184741009782
4826715 -0.5986112446716246 0.7753592664885959
4856020 -0.5947775700882019 0.7786272103586162
4885325 -0.5902676593321811 0.7819562898963869
4914630 -0.5857296842103303 0.7836290770092926
4943935 -0.5832765203856369 0.785433218786489
4973240 -0.5792802031684422 0.7906980025223616
5002545 -0.5734955614983758 0.7938397954941112
5031850 -0.5703720724049633 0.7957624044078422
5061155 -0.56439067438164 0.7989764494823897
5090460 -0.5602544490863365 0.8007403261768391
5119765 -0.5560457192636068 0.8040939068806535
5149070 -0.5524164801078655 0.8074048857796604
5178375 -0.5465018417709878 0.8102216561895356
5207680 -0.5427475772536343 0.8114823767881594
5236985 -0.5386862318758538 0.8145898843339645
5266290 -0.5341688482308247 0.8162755345698892
5295595 -0.5290416035370731 0.8187106517682408
5324900 -0.5245941793791519 0.8224405339830687
5354205 -0.5205482285733417 0.8254572243693472
5383510 -0.5165554361438282 0.8285244236508852
5412815 -0.511521996871414 0.8306015297678335
5442120 -0.5067679506564212 0.8312609043446298
5471425 -0.5021629805843634 0.8340881242618658
5500730 -0.4978459183330777 0.8363644725403158
5530035 -0.4935450522793748 0.838688691768788
5559340 -0.48844144826010216 0.8421652627144327
5588645 -0.48362428068001645 0.8450124633688267
5617950 -0.47896835592642995 0.8466739602956483
5647255 -0.474735758120547 0.8482557676294713
5676560 -0.47048582222229496 0.8500722799897543
5705865 -0.4669019913848275 0.8527725386189999
5735170 -0.46141992550036204 0.8558419429063101
5764475 -0.45588569561279124 0.8580341327280483
5793780 -0.45079661800428733 0.858589877639197
5823085 -0.4481665076812664 0.8606502792260914
5852390 -0.4421538590302129 0.8637565541750281
5881695 -0.43772394380217317 0.8649068184334332
5911000 -0.4324937188348198 0.8678184405162808
5940305 -0.4287889594861441 0.86806826246752
5969610 -0.4229257519988593 0.870229438187949
5998915 -0.4177792187013329 0.8726116748137124
6028220 -0.4124215683996838 0.8755717500464429
6057525 -0.4081485358013044 0.8770650500342521
6086830 -0.4041491753254885 0.8783418141385497
6116135 -0.39834513650900805 0.8790369174292668
6145440 -0.3948763713213195 0.8804469189533999
6174745 -0.39008923637762644 0.8815355979366707
6204050 -0.3862141441768364 0.8843789148810562
6233355 -0.3805212210683166 0.8867771762662957
6262660 -0.3752137064093474 0.8872003053799586
6291965 -0.3693838447200801 0.8892507395457747
6321270 -0.3657996565438873 0.890464298296825
6350575 -0.35964395644614144 0.8920517132645632
6379880 -0.3557712013833722 0.8927792230244588
6409185 -0.35144803455178564 0.8939849987711336
6438490 -0.34591644595541055 0.8948219487898285
6467795 -0.34042476128952426 0.8967889128385451
6497100 -0.33607401170521856 0.8983651850053538
6526405 -0.3312320363338599 0.8976381120879083
6555710 -0.3272226891487056 0.8992753275137412
6585015 -0.32174352352945423 0.9000212693340287
6614320 -0.31660355407283036 0.9019035634305271
6643625 -0.3117004710456723 0.9032176911348481
6672930 -0.30707433826089414 0.9033732571775337
6702235 -0.3024807420895341 0.9047207921521355
6731540 -0.29805669064501844 0.9054557266975817
6760845 -0.29236626041692254 0.9066421917879521
6790150 -0.28672490985387705 0.9066502972191225
6819455 -0.2831947354599748 0.9072336377598363
6848760 -0.27982387304720163 0.908191481850683
6878065 -0.27333539619909053 0.908963865051086
6907370 -0.26885984723536366 0.9096233183246868
6936675 -0.2642502002926689 0.9105497005714173
6965980 -0.25874941992535533 0.909687843658792
6995285 -0.2533217711809777 0.9101581217336224
7024590 -0.24959506776765825 0.9100404789125518
7053895 -0.2449118501544106 0.9106935983207589
7083200 -0.24031246272909182 0.910399875215919
7112505 -0.23576307114934733 0.9123614510909829
7141810 -0.23061321885097266 0.9131513146343144
7171115 -0.22584867320023824 0.9114855763759134
7200420 -0.2208843972029591 0.9115992857885575
7229725 -0.21639287782003658 0.9119979905014242
7259030 -0.21137272623681608 0.9117978768290873
7288335 -0.20729767529720056 0.9114505522595758
7317640 -0.20148081833368564 0.9122713637817128
7346945 -0.19787575309683675 0.9115525325326146
7376250 -0.19445877708065135 0.9130308052345836
7405555 -0.18865924738744808 0.9120509445732397
7434860 -0.18482716542894276 0.9116020797419423
7464165 -0.17934122043373885 0.9108587978881872
7493470 -0.1746339598299978 0.9115777451834812
7522775 -0.170377847396247 0.9111354248310238
7552080 -0.16629082284482605 0.9105927209550797
7581385 -0.16249537014268306 0.9102828077989188
7610690 -0.15744675721772955 0.9107216634046558
7639995 -0.15372007504964708 0.9096286752673683
7669300 -0.14942045243133742 0.9100847944057388
7698605 -0.1453557137531526 0.909197627724073
7727910 -0.1407352503468213 0.9078535219788475
7757215 -0.13599334518551998 0.9080609288188904
7786520 -0.1308851102790892 0.908738586269495
7815825 -0.127563147993212 0.9069228967765138
7845130 -0.1238042296507315 0.9072908223564529
7874435 -0.11930239151032274 0.9073159094780733
7903740 -0.11476991310680797 0.9051799485324984
7933045 -0.11031464765131091 0.9039377258429726
7962350 -0.10652143219039935 0.903918226664439
7991655 -0.10194041487925691 0.9040131394014139
8020960 -0.09805647423415809 0.9030020768064734
8050265 -0.09405684696653133 0.9028050476528365
8079570 -0.09004544074800377 0.9013419237574944
8108875 -0.08646657262171398 0.9006669099657485
8138180 -0.0819350911581919 0.899679249952411
8167485 -0.07830415059387345 0.8998007216704227
8196790 -0.07459154416348998 0.8990006518016107
8226095 -0.07130838308544836 0.8969485289484415
8255400 -0.06581212084322066 0.8956432027356522
8284705 -0.06318761564218492 0.8954322921355978
8314010 -0.05712962874097077 0.8939868005766219
8343315 -0.05388375385174714 0.8930927357065117
8372620 -0.05172531562447338 0.891859759529696
8401925 -0.04670628512173511 0.8905584533358503
8431230 -0.043052877034935814 0.8904353384556966
8460535 -0.03877891410177297 0.889201715080713
8489840 -0.03600102026706871 0.8868406800043158
8519145 -0.03313387727906284 0.8864998776158001
8548450 -0.02865190673549132 0.8861205056663939
8577755 -0.024038018210616734 0.8847840417504154
8607060 -0.02113455250094069 0.8831160731004047
8636365 -0.017532964763923794 0.8826437957334424
8665670 -0.013829465572807275 0.8815264105066211
8694975 -0.01074731110068424 0.8792073497209283
8724280 -0.007714167293838928 0.8788344817540056
8753585 -0.003911755153488478 0.8771128996291447
8782890 -0.00043412946444398946 0.8766816737948192
8812195 0.0025958450966163857 0.8755132663922202
8841500 0.007286004192399344 0.8746934685708044
8870805 0.00953754902174968 0.8738843356875167
8900110 0.01235172376191643 0.8721109975321272
8929415 0.015997074419028076 0.8695068046564506
8958720 0.01962208690366908 0.8681148590459257
8988025 0.02343228901305951 0.8671584563402268
9017330 0.026426177599244982 0.8663567686932748
9046635 0.030026040165120258 0.8642679509543336
9075940 0.03337021973990045 0.8630168528894323
9105245 0.03482825407088972 0.8615567233744419
9134550 0.03901489618262803 0.8607266706587781
9163855 0.04256544407379291 0.8592661379800077
9193160 0.04611047108298533 0.8576201540340119
9222465 0.04935587885699402 0.8559922238647473
9251770 0.05149839552226693 0.8547001893595798
9281075 0.05418459804600484 0.8520776440337894
9310380 0.05750534720208344 0.8516650318763406
9339685 0.059749416967286265 0.851616781831202
9368990 0.06415615677106183 0.8488310693271985
9398295 0.06690402161523723 0.8480188466710381
9427600 0.06801466547338314 0.8451928428484495
9456905 0.07328014081748534 0.8446459988161756
9486210 0.07541412841715439 0.8444842353361105
9515515 0.07858282028107945 0.8428031978956613
9544820 0.08076855263687169 0.8409639561222096
9574125 0.08343905036781334 0.8386676081270937
9603430 0.08640163674047863 0.8371367784154117
9632735 0.08863190489398932 0.8350867025788147
9662040 0.09159426343927468 0.8342463234717129
9691345 0.09550990537731294 0.8333548772455648
9720650 0.09741149710641624 0.8305016074252687
9749955 0.09915200421391757 0.8297940392056677
9779260 0.10089669681419879 0.8283161273885179
9808565 0.10439302169196087 0.8263252906235521
9837870 0.10936829388511714 0.8250227146488008
9867175 0.11082077861053158 0.8227503680716471
9896480 0.11241748337648164 0.8198527595903657
9925785 0.11491946828261053 0.8204894425033802
9955090 0.11740882908122884 0.8185060043880523
9984395 0.12080555024331653 0.8178673047905884
10013700 0.12212978468598222 0.8148661980577321
10043005 0.124750997275719 0.8125018615884899
10072310 0.12807653845761252 0.8123211574022048
10101615 0.1305803077276125 0.8113175635074533
10130920 0.13269001467646804 0.8105280353165314
10160225 0.13514998237046744 0.8072096585298192
10189530 0.13598940381289812 0.8054157083632506
10218835 0.13868844765184227 0.8025976071126629
10248140 0.1411109200730947 0.8012948759717661
10277445 0.14404314217364653 0.8005330081996533
10306750 0.14681805402500678 0.7986452118255463
10336055 0.14859910438570081 0.7977147363451561
10365360 0.14952305860584636 0.7963614807319209
10394665 0.15268118263746988 0.7943895468826673
10423970 0.1547772041485527 0.7936538402825927
10453275 0.15775996467184006 0.7916870817298154
10482580 0.15976709933896055 0.7890411636665942
10511885 0.16163769516230028 0.7880919136676099
10541190 0.16347228544967118 0.7846726174695552
10570495 0.1653181415341942 0.7829903580984502
10599800 0.1667901495737823 0.7823491599194377
10629105 0.16960925014279649 0.7819166062757639
10658410 0.17137239555451247 0.7810610542403925
10687715 0.1745223630643684 0.7783662465855543
10717020 0.1748782217035033 0.7753602661456258
10746325 0.1773494810056022 0.7737861238885578
10775630 0.17877779219253467 0.7726615280621145
10804935 0.18229228163778685 0.7732484092983285
10834240 0.1830206823293914 0.7695218472512415
10863545 0.18461915303994542 0.7687474402705003
10892850 0.18694876499557156 0.7664526177333084
10922155 0.18937099088484324 0.7652863775071528
10951460 0.19045560721977975 0.7624441151528919
10980765 0.1918644094934165 0.7619077373990809
11010070 0.19302495807167794 0.7605828767771401
11039375 0.1957186512142956 0.7587513483436333
11068680 0.1976336405399964 0.7570641832899984
11097985 0.19906909252291238 0.7547348712257219
11127290 0.2004413540897836 0.7527958548873448
11156595 0.20203871703305717 0.7514802417538379
11185900 0.20408052461775225 0.7497641980127443
11215205 0.206154175805535 0.7497553158186276
11244510 0.20826456904224455 0.7471650867816237
11273815 0.20854237924771962 0.7460486479907155
11303120 0.21192667573375573 0.7438282949035391
11332425 0.21211477148467958 0.7433175403026471
11361730 0.21461840554575476 0.7409376108308061
11391035 0.21528506955617194 0.7404055238090175
11420340 0.21656917908388354 0.7380958174649324
11449645 0.2176348859313072 0.7363798241427059
11478950 0.21932069381579553 0.7350632818073825
11508255 0.22164955961069036 0.7333299713576796
11537560 0.22273034994826857 0.7311937254906686
11566865 0.22436232035763248 0.7308315775257144
11596170 0.22638603300055163 0.7282527939432598
11625475 0.22675735017504692 0.7271232568988493
11654780 0.2294445954177007 0.7265082551435765
11684085 0.22987093755332239 0.72441607312168
11713390 0.2316812226637206 0.7234238262188895
11742695 0.232740026036882 0.7210946418062508
11772000 0.2344378990520976 0.7200430799497676
11801305 0.2360959634565383 0.7199794215980627
11830610 0.236625671452892 0.7172849015111017
11859915 0.23830100553701483 0.715189976197408
11889220 0.23977566620490717 0.7136622057166311
11918525 0.24092597494401682 0.712325619639213
11947830 0.24278723777237482 0.7108389262510368
11977135 0.24317946255392286 0.7091375283068327
12006440 0.2451998440645246 0.7085848056189614
12035745 0.24607055827637236 0.7064211892694754
12065050 0.2479747307725622 0.7052864498235349
12094355 0.247509939141543 0.7034907225340384
12123660 0.24825884306899915 0.7027869553290071
12152965 0.2511468789502561 0.7012523327557094
12182270 0.25271183068979336 0.698516586024176
12211575 0.252755481946908 0.6978790456253307
12240880 0.25556679507733004 0.6960241119879863
12270185 0.2547180648584771 0.6957893452191184
12299490 0.2569663090838395 0.6941718050674707
12328795 0.2571601060395041 0.6929175315770324
12358100 0.259117768572875 0.6914047255934348
12387405 0.25999980546749885 0.6891239528976008
12416710 0.2602733152955173 0.6890721370980352
