# HZ S RI R 50
50000 -1.0007361033037838 0.0017391332700096573
79305 -0.9958668226393212 0.0002785960860569169
108610 -0.999552008994182 0.003218803462205502
137915 -0.9573279517724907 -0.009255548550615254
167220 -1.0110253818766755 0.0008690085766715386
196525 -1.000358685611386 0.0018695351150567457
225830 -0.9994002748062714 0.0033029356539959367
255135 -0.9897834366821042 0.002640448609609232
284440 -0.9961379951007739 0.0072055711202523584
313745 -0.9979936754995323 0.0045986312625559325
343050 -0.9972137492623195 0.004942819851581133
372355 -0.9984906702040557 0.004674989088019557
401660 -0.998250042044676 0.005256997468456613
430965 -0.9987433203395957 0.007317552790936188
460270 -0.9976044773637193 0.006036682486355831
489575 -0.9987590766406588 0.006125506603130454
518880 -0.9986257269781775 0.006627367524088908
548185 -0.9986183700277447 0.007872588767890492
577490 -0.9979246188053303 0.007818721877553371
606795 -0.9978681364090893 0.008430928005017822
636100 -0.9979408141634267 0.007968625142333331
665405 -0.9978718278545812 0.009247962126150961
694710 -0.9983083373362696 0.00926957302983175
724015 -0.997984235702417 0.009453792160734551
753320 -0.9981730297739142 0.009722674852147097
782625 -0.997505681673133 0.010430063070597228
811930 -0.9963780603372561 0.010059759104882453
841235 -0.997912960446704 0.01019503942544295
870540 -0.9974224675967092 0.010943908623787073
899845 -0.994670260445638 0.012844408666649263
929150 -0.9972514085333252 0.011289018954710666
958455 -0.997856441542729 0.012975626841446736
987760 -0.9974220801521776 0.011108658428944023
1017065 -0.9979028252457203 0.011798592320744141
1046370 -0.9979745167947007 0.01318603630056386
1075675 -0.9975819120226233 0.012372027855828832
1104980 -0.9961528154962674 0.014230608039755573
1134285 -0.9971623170456583 0.01311842824091385
1163590 -0.9970646190716597 0.014341796180124669
1192895 -0.9971379445607124 0.01407786484439256
1222200 -0.9978175793971333 0.013828087858189585
1251505 -0.997845964969148 0.015883899689937364
1280810 -0.9965573696050849 0.015228182706507084
1310115 -0.9967836682293769 0.015164412147170027
1339420 -0.9978486349757516 0.015335519076830843
1368725 -0.9970912748520908 0.016167788802716614
1398030 -0.997632467711115 0.015536118979310204
1427335 -0.9968869553373182 0.016464639547696888
1456640 -0.9973720492380647 0.016615433505927042
1485945 -0.9964306077244568 0.018672325615793902
1515250 -0.9963270079300002 0.017888684139924196
1544555 -0.9962884059797357 0.017762516629367557
1573860 -0.9965164918723645 0.01810545551979268
1603165 -0.9968606103349257 0.018213977292783037
1632470 -0.9964892007641248 0.019855325769427775
1661775 -0.9968325271254773 0.01999043196198182
1691080 -0.9967646927561736 0.01969162056554604
1720385 -0.9963543617849208 0.019858659156283424
1749690 -0.9967216184407623 0.021004780156464183
1778995 -0.996675086027663 0.021232790127672648
1808300 -0.9956980628507165 0.02063855803686591
1837605 -0.9968887041062598 0.02143385094856161
1866910 -0.9970790097591412 0.021658561623257258
1896215 -0.9969267184534562 0.022413641204856546
1925520 -0.9964268516462702 0.02259564720834413
1954825 -0.9969489002948605 0.022902729157145175
1984130 -0.9957896998698922 0.022908518543645045
2013435 -0.9959247455862472 0.022881869376574302
2042740 -0.9964785511067543 0.02491152569376865
2072045 -0.9968666937610655 0.024002854182946124
2101350 -0.996904843687321 0.02333131235715087
2130655 -0.9968390681174355 0.024710845415474723
2159960 -0.9955395853634526 0.02455528326569627
2189265 -0.9967427570602203 0.025138003459577993
2218570 -0.9959017523447391 0.025906720004169822
2247875 -0.9970430365793738 0.02636707189603267
2277180 -0.9957121179194293 0.02612086552069512
2306485 -0.9957028022483141 0.026761217419751314
2335790 -0.9955644446385711 0.026814604112185083
2365095 -0.9952252181619464 0.026752234567185736
2394400 -0.9961256299930801 0.0270993290099044
2423705 -0.99560200829376 0.02726999137154987
2453010 -0.9951991092667154 0.027751136614646527
2482315 -0.9962826221170619 0.027495567369932007
2511620 -0.9953740427684676 0.028335689216269732
2540925 -0.9953315024912643 0.02840714809516807
2570230 -0.995520607605857 0.029973720521005158
2599535 -0.9951784019771516 0.029624209879471983
2628840 -0.9950291963268797 0.029789767804167568
2658145 -0.9954928219487669 0.0299529845848718
2687450 -0.995653630802018 0.03015266811096777
2716755 -0.995218494239547 0.02994381631816902
2746060 -0.9956872992851525 0.029747100554096902
2775365 -0.9957922863658512 0.031086260523709268
2804670 -0.9960724031390281 0.03133980497559584
2833975 -0.9950438244819645 0.031906744336749386
2863280 -0.9953989002545991 0.03196527850901642
2892585 -0.9963349477249035 0.03329799817203227
2921890 -0.9955255454664982 0.0336705352361399
2951195 -0.9949191369511329 0.03499082787564329
2980500 -0.9956657605101943 0.0334611501538812
3009805 -0.9958048014365661 0.03391448662693192
3039110 -0.9950469803174334 0.03484750494547985
3068415 -0.9949422164611914 0.033945344802748245
3097720 -0.9946371026027754 0.03445696084914557
3127025 -0.9948782341169996 0.03648974352794131
3156330 -0.9951355990303853 0.03511643733386345
3185635 -0.9950868665617828 0.03539967910365355
3214940 -0.994953394727552 0.0362895929338716
3244245 -0.9941498508497585 0.03672462681100405
3273550 -0.9944743206994732 0.03641271337946581
3302855 -0.9945795096705994 0.03692994044332723
3332160 -0.995442775562849 0.03712300690493384
3361465 -0.9951340251909474 0.037381204679631685
3390770 -0.9943229796881069 0.03838321634750192
3420075 -0.994609873665448 0.03925024652840289
3449380 -0.9939252831128851 0.039622061076878955
3478685 -0.9948245553586368 0.03814791401566402
3507990 -0.994942958950558 0.038709040049910506
3537295 -0.9946233246906898 0.04011261558289552
3566600 -0.9944259348582171 0.04102993315918343
3595905 -0.9936888400957175 0.0395592641365591
3625210 -0.9946774140110131 0.040963218491617014
3654515 -0.9948918161444242 0.04197273057103573
3683820 -0.9946720330294047 0.04079469583048927
3713125 -0.9938356100675464 0.042131420783079646
3742430 -0.9946482401880756 0.04047442001252791
3771735 -0.9942612467378391 0.04140153748273631
3801040 -0.9946641257727256 0.04244749374514504
3830345 -0.9939731850533522 0.043006652564236955
3859650 -0.9944411043835504 0.043503796665505384
3888955 -0.9937545894107723 0.0416665666683661
3918260 -0.9948946343956024 0.04474246868120475
3947565 -0.9938625545427642 0.04392676663852944
3976870 -0.9951631392035959 0.043185062125033404
4006175 -0.9940514488913325 0.04477283150598621
4035480 -0.9939037834062299 0.045469033222587656
4064785 -0.9941425977662656 0.04630918545667657
4094090 -0.9947987442434101 0.04403251714515335
4123395 -0.9940875984859086 0.045417245635502555
4152700 -0.9934397342792806 0.04730364225870663
4182005 -0.9937071394346139 0.04646130708669676
4211310 -0.9937532267797301 0.04635758840396771
4240615 -0.9944450952929155 0.047285029270134914
4269920 -0.9950042986495069 0.04831878998098447
4299225 -0.9937037153999355 0.04728595694946008
4328530 -0.9933526327697269 0.046663782620396124
4357835 -0.9938492034700792 0.04856714610779143
4387140 -0.9936917430191503 0.04847039437487958
4416445 -0.9937082828905258 0.049249294007251344
4445750 -0.9928095969600541 0.04960036260462924
4475055 -0.9931368365403126 0.04946118160289381
4504360 -0.9942126195310345 0.05011646454176193
4533665 -0.9941681806563453 0.0517928213218203
4562970 -0.992916098533613 0.05156666616178511
4592275 -0.9929385059933459 0.051280481674983246
4621580 -0.993362680924758 0.050557322778545105
4650885 -0.9935908924094231 0.05092049473714171
4680190 -0.9931956880716175 0.051661548204953965
4709495 -0.9939602596549127 0.0523709160271306
4738800 -0.9925064431420324 0.051756428515442765
4768105 -0.9933067182566183 0.05348823571712913
4797410 -0.9931746291987514 0.052547012039711426
4826715 -0.9934467547787725 0.05347699931618431
4856020 -0.9934318781926771 0.05316021183896796
4885325 -0.993403918442122 0.05292100095166609
4914630 -0.9933155067359088 0.05411051685674249
4943935 -0.9930894580217825 0.05406377658119063
4973240 -0.9931998196851499 0.05445685343824045
5002545 -0.9936759807945785 0.0546054694016559
5031850 -0.9924594776167682 0.054388255954152795
5061155 -0.9927869007381255 0.05568823792251162
5090460 -0.9926846010186052 0.05598460265219974
5119765 -0.993313191887328 0.0561665960363595
5149070 -0.9930498804999895 0.0569418651666319
5178375 -0.9927430318341149 0.05745760125440023
5207680 -0.9918241880105686 0.056875722740675545
5236985 -0.9921189420170369 0.05687281293828685
5266290 -0.9928303806297283 0.05690474829963833
5295595 -0.9923467541728523 0.057683333049638935
5324900 -0.9922329445778768 0.0581246149460765
5354205 -0.9926317584136949 0.05841283645043279
5383510 -0.9929578589670092 0.05829829641804118
5412815 -0.9923567632044992 0.058765119586622123
5442120 -0.993350822725206 0.060387534495216624
5471425 -0.9937217334405278 0.06136261619223135
5500730 -0.994225694107849 0.06147287930555469
5530035 -0.9917200773342942 0.06054954517283094
5559340 -0.9923985500882097 0.06135351060176155
5588645 -0.9932238556972749 0.060736366170963105
5617950 -0.9927067707008769 0.06127982137036905
5647255 -0.9924530565479294 0.06195378167585081
5676560 -0.9916718845231637 0.06195888705033802
5705865 -0.9927627921938902 0.06107901226881998
5735170 -0.9931025101732089 0.06259189072046709
5764475 -0.9927466977873552 0.06302540253539335
5793780 -0.9914332312680769 0.06300586933677742
5823085 -0.9915486461212235 0.06270482523169976
5852390 -0.9923489651263218 0.06352459598002728
5881695 -0.9926927874395512 0.06415760307106487
5911000 -0.9924840858056035 0.06528099552310566
5940305 -0.9915984730330473 0.0644917044281649
5969610 -0.9922360972505433 0.06628328989446848
5998915 -0.9921579852454333 0.06578877073539718
6028220 -0.9918239892149663 0.06568122700585863
6057525 -0.9919376910241343 0.06545951580518554
6086830 -0.9917135429733855 0.06695525798808291
6116135 -0.9908690645378327 0.06669706120897746
6145440 -0.9910470573826192 0.06652827677135144
6174745 -0.9920493051366366 0.06847327325963852
6204050 -0.9919555665891371 0.06693496761207522
6233355 -0.9918425921520052 0.06728746762119658
6262660 -0.9920168155873772 0.06818404418942296
6291965 -0.9920624168550496 0.06884033616764171
6321270 -0.9918272098895723 0.06836897801167051
6350575 -0.991934576870822 0.0702116443999947
6379880 -0.9910225712543302 0.06845078775646089
6409185 -0.991484166289503 0.07001712830743881
6438490 -0.991615540356073 0.06994719877650671
6467795 -0.9911757899543765 0.07098412368870458
6497100 -0.9910927505851801 0.07045733909972907
6526405 -0.9910809099502093 0.07068665437500339
6555710 -0.9915660211256005 0.07146513171207135
6585015 -0.9910969438624083 0.07174937856012756
6614320 -0.9914580840367533 0.07161207527937409
6643625 -0.9911171928413072 0.07232324462591881
6672930 -0.9905552803395277 0.0726604439875757
6702235 -0.9908507566672229 0.07304537821941164
6731540 -0.9912524470230157 0.07297449221004008
6760845 -0.9918743989612062 0.07358860927965909
6790150 -0.991032612489225 0.07327150619364547
6819455 -0.9906602215987966 0.0738910374006813
6848760 -0.9901216679407789 0.07290550130478478
6878065 -0.9916078325241124 0.0744140354910086
6907370 -0.9912603817669838 0.07478538859284097
6936675 -0.9908166781033125 0.0750301342349199
6965980 -0.9896242097054124 0.07532393227441622
6995285 -0.9894418950444862 0.07616244508731643
7024590 -0.9902977315993278 0.07648954833225811
7053895 -0.9906744723575371 0.07660949542315709
7083200 -0.9902157790305802 0.07593003996079525
7112505 -0.9903422295502045 0.07697706796218187
7141810 -0.9904007037131107 0.0754609930467622
7171115 -0.9906019600447313 0.07712902678271162
7200420 -0.9902283326242054 0.07862659313599134
7229725 -0.9907709640528761 0.07861822792507298
7259030 -0.9902791195976256 0.07898147816750448
7288335 -0.9902809062723971 0.08064713651288057
7317640 -0.9909108820743702 0.07939203466023564
7346945 -0.9899689876904326 0.07847646026393958
7376250 -0.9907880042164119 0.07971327774942853
7405555 -0.9906687546617792 0.07976128254928337
7434860 -0.9903146341711205 0.08027844761045694
7464165 -0.9904259298692331 0.08194177524067364
7493470 -0.9906278344155535 0.08105815484934085
7522775 -0.9898418406575411 0.082317166218865
7552080 -0.9894618732344787 0.08114777332148071
7581385 -0.9897372970185773 0.08089539096933297
7610690 -0.9892147272944336 0.08076016543384079
7639995 -0.9888110962898202 0.08175462984975976
7669300 -0.9900383080714579 0.08178867616587361
7698605 -0.9899844958718195 0.08408274497275099
7727910 -0.9895125410489634 0.08354268181961153
7757215 -0.9899956371776918 0.0835148494897047
7786520 -0.9894208924261034 0.08499929563057582
7815825 -0.9894009038498673 0.08522487435666028
7845130 -0.9898089438367945 0.0850634635887898
7874435 -0.9892985538631033 0.08480333437015164
7903740 -0.9885356549545531 0.08467467295340554
7933045 -0.98868168516601 0.08497758324459329
7962350 -0.9881494903072228 0.08573850195590053
7991655 -0.9901321312811773 0.0873943112659212
8020960 -0.9902812659631697 0.08659219061976182
8050265 -0.989724725257278 0.08638997905388734
8079570 -0.9891635043934421 0.08597240529355528
8108875 -0.9897621181438091 0.08719064895149364
8138180 -0.9900554846754542 0.08746775470712505
8167485 -0.9895475763412189 0.08821829864921284
8196790 -0.9894069436042624 0.08732893640967516
8226095 -0.98754755407534 0.08737676568009199
8255400 -0.9900100291335487 0.0898357961338415
8284705 -0.9888272344228266 0.08862344910820655
8314010 -0.9895623335031125 0.09031002657079422
8343315 -0.98856439183412 0.08958692675731465
8372620 -0.9883490505462014 0.08931015065951771
8401925 -0.9886644129647607 0.09135900803881221
8431230 -0.9893299838393461 0.09054094562635431
8460535 -0.9893215424549952 0.09187562444952295
8489840 -0.9876751387382383 0.09048361592175437
8519145 -0.988874883003206 0.09010549237525256
8548450 -0.9884133505670056 0.09149875978502872
8577755 -0.9884586542656125 0.09202232945223993
8607060 -0.9885148074625667 0.09281387497124434
8636365 -0.9886779890662787 0.09355828153793684
8665670 -0.9885333100326038 0.09343155869952001
8694975 -0.9885201002224766 0.09417196296186084
8724280 -0.9881793116416239 0.09274868521087441
8753585 -0.9888482113490145 0.09435483339755579
8782890 -0.9880261568303621 0.09376896873731361
8812195 -0.9874852477576164 0.09450435892511207
8841500 -0.988442238666621 0.09562812832386121
8870805 -0.9877705144295426 0.09399655951000938
8900110 -0.9879599375082163 0.09390435722470743
8929415 -0.9878510296997018 0.09678727504562465
8958720 -0.9889123269280399 0.09807472679307525
8988025 -0.9886409267994626 0.096882228580304
9017330 -0.9877113715718769 0.09607006907300444
9046635 -0.9881681589931745 0.09760367330286657
9075940 -0.9874912703464005 0.09800642273453748
9105245 -0.9872225958231385 0.0957280970700341
9134550 -0.988007649761123 0.09746000660047387
9163855 -0.9892481837685407 0.09963689789893543
9193160 -0.9881550732701161 0.09882855146481628
9222465 -0.9884395829618418 0.09903730051414289
9251770 -0.9884692127610716 0.1012577274995545
9281075 -0.9873777808502414 0.10003620354691063
9310380 -0.987456946675597 0.09880490159809649
9339685 -0.9878387720621103 0.09824252453516892
9368990 -0.9869228235629681 0.10037661960053126
9398295 -0.987165945591644 0.09986609479887851
9427600 -0.9877789714242274 0.10230680013267282
9456905 -0.9870161378775343 0.10111980349710986
9486210 -0.9878568742369964 0.10226981748058717
9515515 -0.9869889588769003 0.10199759844327341
9544820 -0.9868640485164333 0.1005852755253023
9574125 -0.9877854488391031 0.10307197998426126
9603430 -0.9874648965619922 0.10405003713306919
9632735 -0.9860147127195582 0.10312011211840509
9662040 -0.9876010492910042 0.10395723272678196
9691345 -0.9875602804863785 0.10377987856334953
9720650 -0.9879342804022214 0.10394397016748604
9749955 -0.9856527782329527 0.10316599239007047
9779260 -0.986164423344011 0.10380648262857757
9808565 -0.9871102859009581 0.10518006131114577
9837870 -0.9883050326464655 0.10715138526797681
9867175 -0.9869648840546894 0.10576704376511145
9896480 -0.986829041504692 0.10688338986272056
9925785 -0.985761822790171 0.10518721952570634
9955090 -0.9864923206703234 0.10548421139087381
9984395 -0.9864108079973922 0.10668121561994487
10013700 -0.9859211468622765 0.10580165257956207
10043005 -0.9870001550186082 0.10711509331547624
10072310 -0.9873723209452075 0.10977336815458992
10101615 -0.9876775550407757 0.10706057736328788
10130920 -0.98586616094204 0.10623021489184345
10160225 -0.9859322519252706 0.10850768083643733
10189530 -0.9855686163044427 0.10807542560792095
10218835 -0.9861288315469416 0.10902967359639966
10248140 -0.9861814678739846 0.10900027017884324
10277445 -0.9866088542573337 0.1109612619180434
10306750 -0.9865714322754999 0.11086399899550935
10336055 -0.9851897555999032 0.10921619980085832
10365360 -0.985100581935719 0.1090301794493911
10394665 -0.985900711225069 0.11077287788893404
10423970 -0.9862508411740052 0.11184885463271425
10453275 -0.9861349560864154 0.11164461027822302
10482580 -0.9861298231820121 0.11188096479422918
10511885 -0.9859396392967276 0.1132528201196117
10541190 -0.9860338800492621 0.11463622566972775
10570495 -0.9862020802851245 0.114767724993833
10599800 -0.9845522782534123 0.11319744364459292
10629105 -0.9855327540631135 0.11267968112517032
10658410 -0.9854382274211021 0.11334878301352382
10687715 -0.9853003958760871 0.113422936219294
10717020 -0.9852784350232829 0.11377580860192062
10746325 -0.9857636733892834 0.1156122256457993
10775630 -0.984569625095288 0.11535478710935929
10804935 -0.985035675419942 0.11539781990611256
10834240 -0.9849601256278281 0.11544331549139723
10863545 -0.9845152169256028 0.11516612312408676
10892850 -0.9853999460868597 0.11667807630192951
10922155 -0.9842682216658217 0.11680636595337074
10951460 -0.9845114651781915 0.11673200415945724
10980765 -0.9843137824407836 0.11688525093059685
11010070 -0.9845610218049455 0.11503888595432506
11039375 -0.9849920234250574 0.11663781697841341
11068680 -0.9841054117415515 0.1185920799973164
11097985 -0.9852512913041924 0.11926959930987012
11127290 -0.9851523160265092 0.12048261163341493
11156595 -0.9859706385389716 0.11972657509417971
11185900 -0.9853704771541222 0.1193510649447333
11215205 -0.9840761440442884 0.11887917232994272
11244510 -0.9846672585803544 0.11899212430444478
11273815 -0.9847029744594578 0.12132541248538212
11303120 -0.9856290740366475 0.12150366498758082
11332425 -0.9860975902402757 0.12173564633735798
11361730 -0.9863481973259786 0.12274995790191837
11391035 -0.9843548787122408 0.1224276929799003
11420340 -0.9835199696090142 0.120579409334313
11449645 -0.9844128359424946 0.12175636544420025
11478950 -0.9840258770684767 0.12159120036206658
11508255 -0.9838955152401279 0.12121941295552677
11537560 -0.9842260166545665 0.12212615653700504
11566865 -0.9839805577843407 0.12191745446736674
11596170 -0.9841837453298169 0.12398085867636553
11625475 -0.9842684860653642 0.1239770727495373
11654780 -0.9837990695372565 0.12408849616326216
11684085 -0.9839532477537972 0.12319237978637466
11713390 -0.9839010736072084 0.12337294741418948
11742695 -0.9838887739209791 0.1255605317829203
11772000 -0.982920749503699 0.1242816604990983
11801305 -0.9835971302375448 0.12367701534389228
11830610 -0.9816447489688624 0.1238025810896866
11859915 -0.9837681094666775 0.12524823950603972
11889220 -0.983513696690442 0.12559110552947458
11918525 -0.9851027543672806 0.1282000917494871
11947830 -0.9843302564418874 0.12796306655627565
11977135 -0.9832712004592798 0.12843600799008367
12006440 -0.9837758627504153 0.12778268763319509
12035745 -0.9836026745854256 0.12936411957708716
12065050 -0.9847345629937877 0.12918499377226098
12094355 -0.9833962396762501 0.12790471966656622
12123660 -0.982439925320849 0.12735035841713063
12152965 -0.9837862688117279 0.1283292000440004
12182270 -0.9832726325548575 0.13076331659354629
