# HZ S RI R 50
30000000 0.18211125427522054 0.69169161834604
30949119 0.20031944303102905 0.6841716275082522
31898238 0.21703176017601444 0.6766886633909275
32847357 0.23409096429122012 0.6691149835733624
33796476 0.24908985955677312 0.6603114724095702
34745595 0.26637041190245114 0.6546324745427466
35694714 0.2802960299298234 0.644523894524356
36643833 0.2923335966984532 0.6395043687727763
37592952 0.3064213069794126 0.6314376256296416
38542071 0.31673686670614576 0.6236391155828811
39491190 0.3289850255529929 0.6157729058468117
40440309 0.34025583561112227 0.6084914039558206
41389428 0.3506575844510898 0.601331365367562
42338547 0.35994125143835165 0.5940627252040331
43287666 0.37000978658944533 0.5861937817535929
44236785 0.37889494377147875 0.5798242990943804
45185904 0.38861814966493713 0.5727332984754888
46135023 0.3979737383691368 0.5653756193051606
47084142 0.4047579319607288 0.5584370097361195
48033261 0.4142856963979803 0.5521716158219211
48982380 0.419894653489212 0.5464955309368235
49931499 0.42609176791576775 0.5391203836325419
50880618 0.43467867068448884 0.5325995144774113
51829737 0.44163233797327667 0.5274480684555584
52778856 0.44763214634734166 0.521441921140451
53727975 0.4538525815642736 0.5145099009119402
54677094 0.4589964928716324 0.5089249108750548
55626213 0.46551082382608683 0.5034199853729612
56575332 0.4721107475345685 0.4984841262401248
57524451 0.47638722497989155 0.4935801527628671
58473570 0.4810929926356234 0.48786860664950404
59422689 0.4877855286788185 0.4823637169939138
60371808 0.4917909737180545 0.47716657494711373
61320927 0.4955622093812612 0.4719548328265628
62270046 0.49967096082549123 0.46788149548993885
63219165 0.5048623224061322 0.4621836036867455
64168284 0.509359862273442 0.4580333574635928
65117403 0.5115734156636358 0.45314406776890126
66066522 0.5167018321941842 0.4479395191698968
67015641 0.5210514528011272 0.4439302625248064
67964760 0.5249275769010678 0.438789857347602
68913879 0.5281135694830859 0.4355825540707468
69862998 0.531624682791298 0.43114699031685116
70812117 0.5342951972761818 0.42669666052861016
71761236 0.5388898576206055 0.42306969967915004
72710355 0.5404531017270777 0.41789697377236473
73659474 0.5448305808709032 0.41456933670657187
74608593 0.5465049186212932 0.4106783024618013
75557712 0.5508582397623102 0.40707338004097027
76506831 0.5535024301878092 0.40224004846623795
77455950 0.5548866636610722 0.39773469647558213
78405069 0.558837100693573 0.3957019291162905
79354188 0.5620359063076164 0.39149199991596967
80303307 0.5625680772388617 0.3878004125691683
81252426 0.5645859983319003 0.3844495240050468
82201545 0.5683651499551899 0.380533449328622
83150664 0.5684745789560648 0.37623351079366046
84099783 0.5729469156543275 0.37370292918688947
85048902 0.5748598062055709 0.3704822321524165
85998021 0.5773916215438893 0.3668552188246741
86947140 0.580220318635284 0.3641844154658279
87896259 0.5803406750831509 0.36109262035248946
88845378 0.5827515614603309 0.35863188636388676
89794497 0.5840867803742404 0.3544491774907685
90743616 0.5874437597062483 0.35138076544312524
91692735 0.5895701404397632 0.34927126027775723
92641854 0.5907006658996077 0.3462199202181207
93590973 0.5928102813227384 0.3427134573309227
94540092 0.5934311676171283 0.34058168033545383
95489211 0.5938396088738577 0.33769192513644636
96438330 0.5967485920602069 0.33652981689197836
97387449 0.5986409489912551 0.33163371328770086
98336568 0.598595083024662 0.329716834650552
99285687 0.6000524954125082 0.3282749887777004
100234806 0.6012892017903224 0.32595664697227084
101183925 0.6045943670746755 0.3221373170904439
102133044 0.6044897141726991 0.3213194555216104
103082163 0.6073340810929628 0.31921377101601006
104031282 0.6072262585725646 0.3170227550946263
104980401 0.6093880935430069 0.3142830789202687
105929520 0.6113504833275267 0.3123828029533965
106878639 0.6126636969619682 0.30997845509271094
107827758 0.6141369517704806 0.3078936925378994
108776877 0.6151996444390536 0.3061581829684155
109725996 0.6162941385894642 0.3030329551744374
110675115 0.6171730378316301 0.3006757811184894
111624234 0.6187398714855721 0.29983583440614653
112573353 0.6207344039995728 0.29709041569464817
113522472 0.6208166882601572 0.29574868332487353
114471591 0.6226781016407826 0.2926417591177712
115420710 0.6225933502980266 0.29060336668061576
116369829 0.6221034967347959 0.2899948586360855
117318948 0.6260664665935431 0.2870386350941805
118268067 0.624422165713285 0.28605259811781897
119217186 0.6262200025393768 0.28289541796413686
120166305 0.6284300986915681 0.2800886012850112
121115424 0.6292565151944824 0.27874341297744315
122064543 0.6300065525517584 0.27776203250670223
123013662 0.6290039153720182 0.27558906611798933
123962781 0.6319236061582603 0.273774162750024
124911900 0.6304270605356064 0.2710977139483319
125861019 0.6312238303767332 0.2692429346796986
126810138 0.6333626245792432 0.2676649395878071
127759257 0.6337277881907266 0.26605357042641686
128708376 0.6324123635879803 0.26412822482194737
129657495 0.634451502105359 0.2617599284199897
130606614 0.6347484534302469 0.2603794199414821
131555733 0.6355303939772934 0.258305770978303
132504852 0.6345330508420801 0.2559393214338292
133453971 0.633523825746741 0.25462194549216793
134403090 0.6341632144268341 0.2542780880575721
135352209 0.6351610788830402 0.2513778362556306
136301328 0.6333394339270845 0.24861747417927565
137250447 0.6338687922797558 0.24771513375551624
138199566 0.634165832529054 0.24575425527188294
139148685 0.6323736453577047 0.24575098892355723
140097804 0.6320221557233928 0.24422753460174892
141046923 0.6306143430563687 0.2426875561841801
141996042 0.6296901042407577 0.2432404743983243
142945161 0.6305751525302542 0.24231099189413183
143894280 0.6283135138697038 0.24459811957096975
144843399 0.6295132814718294 0.2433774910970442
145792518 0.628811819833241 0.2449409806665322
146741637 0.6305415625704429 0.24490721001150442
147690756 0.6318226545106065 0.24453161802318454
148639875 0.6324709462922397 0.2441518563527777
149588994 0.6344122912110466 0.24323570020518584
150538113 0.6353670239818019 0.24194149034695553
151487232 0.6358766080296056 0.241459696088029
152436351 0.6372404621031111 0.24080452874687516
153385470 0.6352938804221767 0.2418717018110758
154334589 0.6379549903811522 0.2401341662403949
155283708 0.6395746095778555 0.23939240079176002
156232827 0.638661778429572 0.23988352534430768
157181946 0.6402784221430486 0.23947121139844457
158131065 0.6411381716680553 0.2395930305753418
159080184 0.6440692709487967 0.23703475807926752
160029303 0.6449287327478367 0.23764547108826028
160978422 0.6450018116523336 0.2368696810693712
161927541 0.6476843079720522 0.2343385899546946
162876660 0.6480511341586201 0.233509608571166
163825779 0.6486193051054229 0.23312007116718886
164774898 0.6491901253712659 0.2311385158210427
165724017 0.6502141574370734 0.22913942794999895
166673136 0.6511526354122055 0.22910627539200884
167622255 0.6513458605968786 0.2276701074078707
168571374 0.6517981189514059 0.225905266688044
169520493 0.6529689132435302 0.22434601259045683
170469612 0.6522829408148025 0.2241724416243321
171418731 0.6519347783053627 0.22299780161994515
172367850 0.6530103208986836 0.22164691259548958
173316969 0.6532041161189621 0.2205917783727505
174266088 0.6536144799389181 0.22006872345700607
175215207 0.6534043989322804 0.22007038559250292
176164326 0.653972355955897 0.21837555840823936
177113445 0.6539485043058938 0.2180669949853323
178062564 0.6550715097994746 0.21770222982964163
179011683 0.6552657470932058 0.21818626552031956
179960802 0.6562460200680792 0.21604289384906586
180909921 0.6575927458820501 0.21575448705445366
181859040 0.6581714285557029 0.21512140952947087
182808159 0.6591965631530528 0.21394563617589246
183757278 0.6601176130166763 0.2135759616556957
184706397 0.6590996199358139 0.21351125769757603
185655516 0.6614784550858026 0.21217648505155484
186604635 0.6621163887294684 0.21103166529629797
187553754 0.6623234331099659 0.20968656607701264
188502873 0.6627306755122498 0.20940229162094084
189451992 0.662605873437786 0.20788905734176794
190401111 0.6623840378199145 0.20760938910897422
191350230 0.6632979757871661 0.20640334774632937
192299349 0.6631988673134811 0.2060992810707687
193248468 0.6642246373339699 0.20504980110620138
194197587 0.6644774098770445 0.2041213135949254
195146706 0.6643926489449565 0.2032844432725333
196095825 0.6656162323813635 0.20185587985468456
197044944 0.6660347704189158 0.20176538052749612
197994063 0.6661799548054479 0.2009250245072932
198943182 0.6660927260976625 0.19998711613135192
199892301 0.6669794143284176 0.1990930094367964
200841420 0.6679877722305355 0.1968645963417402
201790539 0.6671698614791904 0.1972011473185954
202739658 0.6690338787811442 0.1954422529891735
203688777 0.6675327045756616 0.19512036289750143
204637896 0.6672269633175409 0.19460489307943718
205587015 0.667902671235738 0.1932641114139193
206536134 0.6682831079736968 0.1928765917045642
207485253 0.6684892073028148 0.19188826107962045
208434372 0.6690325357725312 0.19092379788764863
209383491 0.6688616132465977 0.19083755159061003
210332610 0.6689211051218276 0.18985297941749738
211281729 0.669342061992949 0.19000107584042977
212230848 0.6701723080632688 0.1871071354958208
213179967 0.6695668963895441 0.18723984238566913
214129086 0.6687045740780065 0.18867390004903464
215078205 0.6695053694909806 0.18665974505275557
216027324 0.6702815418549412 0.18534322599700473
216976443 0.6696501136645141 0.18613084821452938
217925562 0.6702747111287531 0.18496714237440823
218874681 0.6705961611660319 0.1847997355648334
219823800 0.66963821516332 0.18401381042263854
220772919 0.6700834264246671 0.1840882070455713
221722038 0.6695812698674461 0.18497828601319835
222671157 0.6705047325600739 0.18310650079260155
223620276 0.6709176441746867 0.18291084839482025
224569395 0.6704561372958455 0.18247047625470403
225518514 0.6711346381650968 0.18167629407821398
226467633 0.6712583114820969 0.18143554974465378
227416752 0.6723316297162439 0.17969524511450036
228365871 0.6717948657046025 0.18060597266697634
229314990 0.6723468225386826 0.17985051169398542
230264109 0.6733788337489636 0.17945083892520555
231213228 0.6733028596227946 0.17832558511878943
232162347 0.6731357208996224 0.17807638779427568
233111466 0.6721971201577059 0.1781266609156305
234060585 0.6737473594142053 0.17724849050943395
235009704 0.6743076313016887 0.1761553408503065
235958823 0.6728581221474392 0.17593571674992875
236907942 0.6733449975929758 0.17642068298225785
237857061 0.6738535214768316 0.17432958595802756
238806180 0.6728352151983965 0.17464782378526816
239755299 0.673902133596183 0.17398882962508397
240704418 0.6737838176685291 0.17355400373875562
241653537 0.6739056675577044 0.1727730686653606
242602656 0.6737384760767442 0.17250332739799965
243551775 0.6742528950079334 0.1723599577371708
244500894 0.6744919860366096 0.1719699232905062
245450013 0.6735208604773563 0.1724523004411712
246399132 0.6753653629030943 0.17041029764838087
247348251 0.6740549273037666 0.1705904547130696
248297370 0.6745209824136356 0.17061330562622654
249246489 0.6742235070265452 0.17077122247494483
250195608 0.673978966212076 0.17086841338053282
251144727 0.6748447622194921 0.17043216286169138
252093846 0.6745463567873544 0.1688116647200142
253042965 0.6733583274065977 0.16996123013142486
253992084 0.675209993115419 0.16837565769432458
254941203 0.6750721396142968 0.167753800130451
255890322 0.6730710344243098 0.16830423970425004
256839441 0.674391594888306 0.16777161876182514
257788560 0.6739099962588144 0.1675212675487462
258737679 0.6735403969655407 0.1684340924064689
259686798 0.6749507133401458 0.1672007556450701
260635917 0.6737614829876555 0.1676295890376353
261585036 0.6737297145138166 0.16797148766906167
262534155 0.6747035138157428 0.1679250018492635
263483274 0.6751504800188504 0.1662410172839717
264432393 0.6751657813264911 0.1669562653141477
265381512 0.6747464032298438 0.16744493956336073
266330631 0.6757105592018987 0.16708951344524323
267279750 0.6762611612276193 0.16704608381784966
268228869 0.6770357640585899 0.16753990099369148
269177988 0.6778077516862232 0.1661670202367819
270127107 0.6779405455225985 0.16623464113765174
271076226 0.6765954419771562 0.16686649195351705
272025345 0.6779651375231197 0.16617155825960034
272974464 0.6790877810632008 0.1653548678683338
273923583 0.6800255129427762 0.1648762242215126
274872702 0.6797611319547937 0.16408635796218865
275821821 0.6808240422449345 0.16322538435433123
276770940 0.680920504291869 0.16288177311619403
277720059 0.6807602112930897 0.16309780869435214
278669178 0.6813835161895322 0.16206500277788502
279618297 0.6811202727340738 0.16318576652013356
280567416 0.6821642965227952 0.16129891025645873
281516535 0.6823266962243502 0.1616643931953089
282465654 0.6825460467355701 0.16094118403431867
283414773 0.6823382602374096 0.161107812783868
284363892 0.6835473872578783 0.15960083545492762
285313011 0.681474849057065 0.16082010844320016
286262130 0.6835238091174496 0.1594688001180602
287211249 0.6836838996774468 0.1592279871723444
288160368 0.6842781676869821 0.15795652802592916
289109487 0.6822746461269775 0.15852614157889078
290058606 0.6848764463802192 0.15658759525739013
291007725 0.6836458769248118 0.15601077963636262
291956844 0.6843334791950691 0.15619633352589068
292905963 0.6843389626614031 0.1552544576199946
293855082 0.6854409960364658 0.15584713351311283
294804201 0.68380516233006 0.15545154791832796
295753320 0.68428172796929 0.15456649998491426
296702439 0.6847872775700193 0.15349197966822134
297651558 0.684672255804296 0.15331476503402527
298600677 0.6846687085831725 0.15305984369232598
299549796 0.6844389920886619 0.1528729919210726
300498915 0.6851594740100401 0.15351698315895929
301448034 0.6861119002351758 0.1522956879964371
302397153 0.6846473773600324 0.15300562614330188
303346272 0.6849685033870797 0.15123077375357266
304295391 0.6857430444666534 0.15053130951523552
305244510 0.6864785434323097 0.15124236590764212
306193629 0.6855177222387328 0.1511567219320985
307142748 0.6855870428765777 0.1504903621944476
308091867 0.6865020841697632 0.14918649460683
309040986 0.6870241559655599 0.14880330677002754
309990105 0.6864522120795217 0.14951908429968255
310939224 0.6869168523567408 0.14836022113353364
311888343 0.6852139494276845 0.14953867735050722
312837462 0.6868449380908597 0.1480368139816043
313786581 0.6866407262622967 0.14823623933667074
314735700 0.6862659715561122 0.1481937877132365
315684819 0.6865310141263711 0.14689998329037426
316633938 0.6874414278528183 0.1461699945850069
317583057 0.6865773390202505 0.14663555620995553
318532176 0.6871251506805318 0.14606529454396372
319481295 0.6881707021215985 0.14530124396260805
320430414 0.6889242214253486 0.14379480119874188
321379533 0.6878479553450123 0.14461957426157215
322328652 0.6878176100420981 0.14389097868279485
323277771 0.6878884966120421 0.14446917716782304
324226890 0.6886817108526678 0.14360795588854397
325176009 0.6882854712483271 0.1431809863833924
326125128 0.6876833136028071 0.14378660326867324
327074247 0.6886926366778527 0.14218182923745068
328023366 0.6893023885314077 0.14210493054702472
328972485 0.6884807779614558 0.14117160511323915
329921604 0.6897669651016266 0.1408442970576362
330870723 0.6891313430118076 0.14012515066795125
331819842 0.6891622327866633 0.1396016963479471
332768961 0.690007235619268 0.1393286216292609
333718080 0.6893809436877669 0.13947050984532217
334667199 0.6894570696835937 0.13873538898144339
335616318 0.6890411841787744 0.1367967437269136
336565437 0.6899703811767669 0.1370609686843866
337514556 0.6893087626158605 0.1379558128206749
338463675 0.6898278556126514 0.1371300009328224
339412794 0.6898459225019759 0.13639108802491748
340361913 0.6894217776482424 0.13545202255140468
341311032 0.6900130607389785 0.1360618996019277
342260151 0.6900016311403555 0.13393815235794884
343209270 0.6898699843966226 0.13386990317911107
344158389 0.6908053774615138 0.13351570994368778
345107508 0.6894831040657863 0.133201449528624
346056627 0.6895349118928211 0.13403695983970743
347005746 0.689677719413513 0.1344231370108625
347954865 0.6894256129262601 0.13280444590089488
348903984 0.6892848430495623 0.1310728522376809
349853103 0.6893896639572311 0.13313704402886894
350802222 0.6892614844405466 0.13250463342515623
351751341 0.6888672858282707 0.13228511323586242
352700460 0.6895591085328535 0.1313909660088903
353649579 0.688787310328986 0.13158152159280653
354598698 0.6893646760440761 0.1294404721944316
355547817 0.6890209323548925 0.13070528527209702
356496936 0.6888488519334243 0.12953879846400945
357446055 0.6884332024029272 0.13051192718167168
358395174 0.6898388328901298 0.13058546873875385
359344293 0.68922594668424 0.12893544906029952
360293412 0.6889411890034827 0.12918714580149426
361242531 0.6911452593333248 0.12738782581324348
362191650 0.6885062215521156 0.12924771952109046
363140769 0.688999094069646 0.1287372493825883
364089888 0.68811457554913 0.12881170473779324
365039007 0.6902530089191059 0.12793939495977258
365988126 0.6897668853355965 0.12750023214479764
366937245 0.6903525350126671 0.12764918220755186
367886364 0.6896772231338241 0.1286680794802069
368835483 0.6902458328132778 0.12639101270249245
369784602 0.6909550757396284 0.125570951771151
370733721 0.6901444898455967 0.1262326227638322
371682840 0.6906280174271572 0.12496055959153046
372631959 0.6911937225250311 0.1255160966244078
373581078 0.6903248450928863 0.12586830899445392
374530197 0.6917649005080043 0.12420804440258049
375479316 0.6907287559974912 0.12389139501031741
376428435 0.6910030777296148 0.12317583376382021
377377554 0.6917506506491569 0.12308590863713953
378326673 0.6925562324617528 0.12263968388996437
379275792 0.6926443623030114 0.12161888925365134
380224911 0.6921109912549149 0.12058763041119286
381174030 0.6924833105430724 0.12123464749949589
382123149 0.6936557360807426 0.12134814157262833
383072268 0.6928983253638569 0.11919180806506707
384021387 0.6932421033279408 0.12025990469049473
384970506 0.6914803580425515 0.1207906062789949
385919625 0.6932908971155172 0.11782684513938094
386868744 0.6928150742911998 0.11899234141152851
387817863 0.692796493612183 0.11840604206090999
388766982 0.6919515622548033 0.11875061718801522
389716101 0.6926874147441013 0.11887090612353648
390665220 0.69259384828345 0.11751848904611228
391614339 0.6932589038796007 0.11708762924150769
392563458 0.6921401062792123 0.11548228441563793
393512577 0.6918501549324424 0.11561799970429905
394461696 0.6915069697015666 0.11562262963500519
395410815 0.6928327845936375 0.11533046224104744
396359934 0.6933170484500814 0.11337573347095427
397309053 0.6917864079435615 0.11537531591426066
398258172 0.6916420275731879 0.11394990731450232
399207291 0.6920571384033122 0.11353866154656742
400156410 0.6921384125209437 0.11334213123219955
401105529 0.6923343743804871 0.11246583599356613
402054648 0.6918269051995563 0.11142090008769046
403003767 0.6904435358683726 0.11106059061989748
403952886 0.6909614385637441 0.11066587007533614
404902005 0.691278918062503 0.11015748298601896
405851124 0.6914641173680948 0.10915517000922356
406800243 0.6911260332007134 0.10888899945465307
407749362 0.6900184225584413 0.10871641670147428
408698481 0.6909715351042892 0.10782430802635412
409647600 0.6906025310830857 0.1068466082588944
410596719 0.6895292800413831 0.10677260142196553
411545838 0.6897459805842807 0.1061387249432011
412494957 0.6894123543415138 0.10581947190541643
413444076 0.6898285892548881 0.10349630556161334
414393195 0.6886886318243977 0.1043215745620912
415342314 0.6884569766607894 0.10373837681563727
416291433 0.688998041603498 0.10108217470314357
417240552 0.6879553557091108 0.10292559434506404
418189671 0.6869342370312901 0.10221851849833742
419138790 0.6865799455629567 0.10049784705870511
420087909 0.6859776386302053 0.10097127939100639
421037028 0.6852963508986646 0.10131066596734678
