# HZ S RI R 50
50000 -0.9945133432285231 0.007360841150713997
79305 -0.9997288147426778 0.011711135007670835
108610 -1.0082710743003092 0.013820990396988624
137915 -0.9431559363199553 -0.0013965164546258313
167220 -1.0217045315930608 0.02076108572113703
196525 -0.9945237651173816 0.024994254125114978
225830 -1.0001604286180563 0.030119534698654468
255135 -0.9927723178239275 0.0394198590975606
284440 -0.9983077424152089 0.034829997538154876
313745 -0.9990974766742846 0.040086265666246665
343050 -0.9967789213997424 0.04503720209389134
372355 -0.9950843206329276 0.047517906205222435
401660 -0.9950127946184932 0.051423499455777566
430965 -0.9990923206970667 0.05502037887687762
460270 -0.9930173868831194 0.05825706809803341
489575 -0.9941084453530793 0.061399761457281446
518880 -0.9937146822158008 0.06505965861529685
548185 -0.9926182839462987 0.06912761650969003
577490 -0.9930922175639442 0.07286030693964653
606795 -0.9943816257766009 0.0759341554298803
636100 -0.9926025471666072 0.07960333864237497
665405 -0.9916019440751447 0.08350059598085069
694710 -0.9902661628041418 0.08626315507091839
724015 -0.9891974770775311 0.09012142767473445
753320 -0.9905041882074656 0.09348468875144683
782625 -0.9895699568467734 0.09760100565481424
811930 -0.9895983485823051 0.10085298448963402
841235 -0.9874143371850568 0.1027045060389334
870540 -0.986822432425105 0.10757129359926244
899845 -0.9785520927267809 0.10882275191229973
929150 -0.985461414517789 0.11423646905393407
958455 -0.9861150316874737 0.11843592089217117
987760 -0.984182593169406 0.1206227301393284
1017065 -0.9840958295299236 0.12386639032320933
1046370 -0.983467554785205 0.12719362401674097
1075675 -0.982166569956639 0.13070477907690606
1104980 -0.981569318401827 0.1346848854048214
1134285 -0.9797216721031096 0.1374211884048077
1163590 -0.9795947904850594 0.14112592039358343
1192895 -0.9771054862668865 0.1437383802360818
1222200 -0.9789109007896811 0.14957445347269957
1251505 -0.977540354898031 0.15148027691176327
1280810 -0.9754016105826676 0.15372771916445988
1310115 -0.9748479026914496 0.15709244963714775
1339420 -0.9740184155258005 0.16074797837239718
1368725 -0.9739323362407319 0.1649407199369174
1398030 -0.9732098666937427 0.16857929097036295
1427335 -0.9729551534801247 0.17167960660492257
1456640 -0.9711372934980002 0.17453830036901974
1485945 -0.9702895433450306 0.1777219715048308
1515250 -0.9690508212297543 0.1812791709429074
1544555 -0.9684333952375731 0.18351064819863355
1573860 -0.968120363051315 0.18697601808513417
1603165 -0.9665693536245639 0.191459208353285
1632470 -0.9657302840298807 0.19515855432125817
1661775 -0.9644060733995894 0.19818502706737082
1691080 -0.9625720108728181 0.2009782314886797
1720385 -0.9618244516034704 0.20267356871092962
1749690 -0.9606768771596292 0.2059635702264203
1778995 -0.9599061754164018 0.2105472587103345
1808300 -0.9589654430975758 0.21452382713881954
1837605 -0.9578588877924461 0.21599714893022082
1866910 -0.957020253816799 0.21874544680176072
1896215 -0.954694667225331 0.22362398198357863
1925520 -0.9543134886941708 0.22449238922450807
1954825 -0.9540173359353051 0.22812980399560137
1984130 -0.9520255289597039 0.2329963075245536
2013435 -0.9515645121978565 0.23461738538556612
2042740 -0.9505804054188645 0.23921131271982687
2072045 -0.9483630695648905 0.241477269969282
2101350 -0.9469009906257305 0.24379620283495895
2130655 -0.9468227623733944 0.24721494272538147
2159960 -0.9445075729945073 0.2501092249420437
2189265 -0.9446022104379522 0.2547235095450663
2218570 -0.9425689224498498 0.25637629240373777
2247875 -0.9427109146094415 0.2593848700208318
2277180 -0.939566152445193 0.2617213895787828
2306485 -0.9386474903520621 0.2656735386977778
2335790 -0.9374205480530512 0.26854842268243206
2365095 -0.9358887796721737 0.27075793536786663
2394400 -0.9335432364665719 0.27371691807961296
2423705 -0.9331933788780633 0.27846578126130717
2453010 -0.9324240179263166 0.2814392634513237
2482315 -0.9312395072742613 0.28522849066459577
2511620 -0.9292011411417348 0.2859004914669363
2540925 -0.9274547818521478 0.2893491247834064
2570230 -0.926181537343231 0.2920004614481223
2599535 -0.9255925511703922 0.29444559296034034
2628840 -0.923851398215651 0.29758684332002366
2658145 -0.9226100166341255 0.30152738697037723
2687450 -0.9213260719755444 0.3035808731166594
2716755 -0.9192715759879774 0.3080453210764815
2746060 -0.9178842835967826 0.31042154671071304
2775365 -0.9152885209193624 0.31180815405639123
2804670 -0.9151668646307574 0.31602952473408236
2833975 -0.9139220201056011 0.31782519134118165
2863280 -0.9123590766154546 0.32074095921929574
2892585 -0.9100371657281814 0.32395800421653204
2921890 -0.9084500364396959 0.3266025914794023
2951195 -0.9071471174588907 0.32894704418373927
2980500 -0.9062202971532866 0.3311171107602971
3009805 -0.9030718808531352 0.3349090536430815
3039110 -0.9024150263489222 0.3367731281194319
3068415 -0.9003048496548265 0.33975026951485565
3097720 -0.8993022925675621 0.34341918554434403
3127025 -0.8984839642535329 0.34510654579796296
3156330 -0.89557423880912 0.3477896999630936
3185635 -0.8952282157895887 0.3499180918882723
3214940 -0.8924110203185162 0.3520840326408817
3244245 -0.8918872000505548 0.3554737829355352
3273550 -0.8893490152404125 0.3584875987593899
3302855 -0.8890567334225341 0.362511692238287
3332160 -0.8858997407971374 0.36363410559576337
3361465 -0.8855474799986187 0.36709856802273105
3390770 -0.8840595414674115 0.3699814687053487
3420075 -0.882814521066179 0.3733692550132329
3449380 -0.8811314428405864 0.3758343439572283
3478685 -0.8783013464576201 0.37590181491522484
3507990 -0.8765826678552149 0.38005147874300566
3537295 -0.8751425234212572 0.38122778009797964
3566600 -0.8729183252025041 0.38352726383040897
3595905 -0.8722258811863308 0.3872257507270481
3625210 -0.8696611142733677 0.38985543145262913
3654515 -0.8682275779286408 0.39298693979727906
3683820 -0.8666647912838165 0.3955093962356149
3713125 -0.8645050694488761 0.3966988809880319
3742430 -0.8630893923898361 0.39964568167383435
3771735 -0.8612176969886288 0.40052374469708923
3801040 -0.8605818402991429 0.4040562667797885
3830345 -0.8581784525861182 0.40692529222676294
3859650 -0.8547535172799318 0.4093903692376587
3888955 -0.8538152150461986 0.41226897422130554
3918260 -0.8531513465135039 0.4149084169581883
3947565 -0.8506623038907437 0.41671933836206654
3976870 -0.8487042937948711 0.41839701297974863
4006175 -0.8473257640797985 0.4216370665736812
4035480 -0.8455332235093301 0.42406250927446804
4064785 -0.8439363480426874 0.4262983645994559
4094090 -0.8417525473421957 0.4292387398093989
4123395 -0.8406965472534172 0.4308653560056283
4152700 -0.8381282660011291 0.433179404169819
4182005 -0.8362337672029948 0.43482318679210097
4211310 -0.835788702999376 0.4370122530681895
4240615 -0.833641677757386 0.43940955567926704
4269920 -0.8307297373709024 0.44261437065059955
4299225 -0.8292813300532229 0.44404383720492535
4328530 -0.8275788213146192 0.44485821696875494
4357835 -0.8250077038495777 0.44785658902150277
4387140 -0.8240592484374534 0.45025380476429
4416445 -0.8220995855060613 0.45293457012228866
4445750 -0.8196832259694876 0.4557789558323419
4475055 -0.8182268612864592 0.4577417648098328
4504360 -0.8167821262065076 0.45887909242525543
4533665 -0.8144047937619225 0.46086747435051006
4562970 -0.8121533671497343 0.46459409356017
4592275 -0.8107965335347442 0.4662841071201227
4621580 -0.8081755093546344 0.46696941504918443
4650885 -0.8069319640847753 0.47005013797988876
4680190 -0.8056878381063147 0.47045568853277336
4709495 -0.8032467491534079 0.4740993813636854
4738800 -0.8001113249704435 0.47640960549126166
4768105 -0.7996633461791528 0.4779083177820091
4797410 -0.7973334385044867 0.4794350152712552
4826715 -0.7951701563309717 0.4825166097255566
4856020 -0.7943796867999198 0.4847741148156864
4885325 -0.7911418040972661 0.4862313006472267
4914630 -0.789898153382258 0.48896056153457385
4943935 -0.7885521527819004 0.49115341802748214
4973240 -0.7863099669603215 0.4913091461309248
5002545 -0.7853247044568031 0.4928775884561319
5031850 -0.7825388589139455 0.49508563279210294
5061155 -0.780100313042554 0.4985497110664573
5090460 -0.7782139141415927 0.49865529798523855
5119765 -0.7774010015622465 0.5016803758525404
5149070 -0.7752139412777341 0.5038175365179536
5178375 -0.7725120428012724 0.5065190928272034
5207680 -0.7711789504797459 0.5073053471979683
5236985 -0.7680869717295562 0.510583023371742
5266290 -0.7676892683176197 0.5100658783936809
5295595 -0.7650215212208568 0.5139870188753215
5324900 -0.7636891749597411 0.5151463631288471
5354205 -0.7603004365624734 0.5185529812445383
5383510 -0.759720772262277 0.5191070711901529
5412815 -0.7571860048795988 0.520828961698376
5442120 -0.7559468376685445 0.5231476849172156
5471425 -0.7540767575463928 0.5250339138453595
5500730 -0.7518813072518661 0.5269338039062799
5530035 -0.7498049095242713 0.5281618262815378
5559340 -0.7470553507939535 0.531347549919694
5588645 -0.7463511403095012 0.5313165047026284
5617950 -0.7433200315415 0.5343250184111038
5647255 -0.7419341114873871 0.5348910567046471
5676560 -0.7398490554711086 0.5367675228148993
5705865 -0.7382591366379865 0.5383511791473391
5735170 -0.7355136852910314 0.5407757712548631
5764475 -0.7335551091015997 0.5426020490620937
5793780 -0.7309451732146705 0.5433205090109267
5823085 -0.7312173943386195 0.5441522540179277
5852390 -0.7288136357630028 0.5470273416511999
5881695 -0.7257431698635834 0.5499428842722032
5911000 -0.7244126849484317 0.5509659343184252
5940305 -0.7224875110766156 0.5516415036835185
5969610 -0.7210132163689532 0.553689449348688
5998915 -0.7183610251066213 0.5562702525890711
6028220 -0.7171709252527921 0.5573331961668975
6057525 -0.715105805250781 0.5588602602549043
6086830 -0.7120081573095958 0.5603090603638451
6116135 -0.7106140712167578 0.5614818529019039
6145440 -0.7090369704223181 0.5630576216095036
6174745 -0.7064371645976055 0.5661268510047216
6204050 -0.7038939207561223 0.5668076098834807
6233355 -0.7023502832306788 0.5672108925887588
6262660 -0.7006550004099291 0.5696323160332145
6291965 -0.699257824035845 0.5707470741567716
6321270 -0.6962054115481638 0.5734773455682673
6350575 -0.6948353554603123 0.5752323966013965
6379880 -0.6916697429234466 0.5757291704498931
6409185 -0.690403740144684 0.5774699115439492
6438490 -0.6884284228302727 0.5798920045510304
6467795 -0.6866870462865406 0.5813209314093545
6497100 -0.6843420530751886 0.5825531072558258
6526405 -0.6826067645062286 0.583391650613903
6555710 -0.68132720552041 0.5848096559417595
6585015 -0.6795388260798189 0.5870006318266535
6614320 -0.6766813863536955 0.5863469105120154
6643625 -0.6751904929511374 0.5876030909687178
6672930 -0.6720815495912641 0.5897947563122713
6702235 -0.6707856789591531 0.5924789863886403
6731540 -0.6685652804072242 0.5952743737472748
6760845 -0.666444099218582 0.5943674529487221
6790150 -0.6648478685060324 0.5948498567671926
6819455 -0.6638608519856632 0.5969528848679841
6848760 -0.6614498867649963 0.5985630277468741
6878065 -0.6597027146954958 0.6001163220130286
6907370 -0.6577319699643427 0.6019509774921666
6936675 -0.6555428826842763 0.602853360622319
6965980 -0.6532297183154313 0.6042784793597968
6995285 -0.6508440131729128 0.6061218945834054
7024590 -0.6496598539641067 0.606433630396645
7053895 -0.6472372582168971 0.6085057640350173
7083200 -0.6447862433067252 0.6098012302606396
7112505 -0.6429432026555806 0.6114662057929182
7141810 -0.640659961526686 0.612481551018233
7171115 -0.6389538763338997 0.6124766550418211
7200420 -0.6379061609574267 0.6149252573341091
7229725 -0.6365484124045201 0.6163651869091833
7259030 -0.6346047524426217 0.6166875915414144
7288335 -0.6320911580655496 0.6194192892373401
7317640 -0.6290074779400617 0.62090094041909
7346945 -0.6273873631555218 0.6207457727166152
7376250 -0.6254408840318377 0.6234750227287957
7405555 -0.6237738696402775 0.6244529669194824
7434860 -0.6210587330232609 0.6262486147193697
7464165 -0.6187288008407924 0.6258636528469932
7493470 -0.6178458063833409 0.6271017414428638
7522775 -0.6165375269870018 0.6264193051492032
7552080 -0.6134128768286031 0.6289569892961144
7581385 -0.6110825220981383 0.630928197549564
7610690 -0.6104584477367707 0.632218569891528
7639995 -0.606724949815601 0.6339482223912386
7669300 -0.605711775591997 0.6338360540465398
7698605 -0.6045062481843689 0.6342923161393085
7727910 -0.6023456811866658 0.6367500519176796
7757215 -0.6000113762266058 0.6390095007138692
7786520 -0.5994774614624627 0.6383190224366444
7815825 -0.5968950886724792 0.6398411163395352
7845130 -0.5941184523358968 0.6404402180608468
7874435 -0.5923509433985429 0.641090720010397
7903740 -0.5918339847516978 0.6426092379994076
7933045 -0.5897151868355429 0.6432552012741387
7962350 -0.5869588574464315 0.6459880917739551
7991655 -0.5843638878854036 0.6476159946368272
8020960 -0.5824510845238132 0.6467976635265953
8050265 -0.5814635637521559 0.6475642234484763
8079570 -0.5798685241673696 0.6492437564491443
8108875 -0.5763572035168238 0.651678616321305
8138180 -0.5743130247452667 0.6523914895867919
8167485 -0.571926821133453 0.6538364268396006
8196790 -0.5690044391663022 0.6537898147591515
8226095 -0.5685343961438225 0.6539329066873689
8255400 -0.5668960681161975 0.6552451152839069
8284705 -0.5661274774628287 0.6568913638786765
8314010 -0.5624127162522463 0.6574024146540501
8343315 -0.5606374694569758 0.658079389681269
8372620 -0.559896467825276 0.65928782385007
8401925 -0.557101087778265 0.6611135008836323
8431230 -0.5559719275790709 0.6600522314173859
8460535 -0.5536524241730214 0.660935427197699
8489840 -0.5534771309597456 0.6629467715972724
8519145 -0.5491655438542431 0.6642571876937948
8548450 -0.5488521826256949 0.6653591950148668
8577755 -0.5464452828928951 0.6661829541293355
8607060 -0.5433197700492495 0.6683446792691261
8636365 -0.5425277273492883 0.6669509390941428
8665670 -0.5402256171660785 0.6685455044070385
8694975 -0.5383028725225956 0.669307602501846
8724280 -0.536452613962409 0.6707857331149707
8753585 -0.5344349142948193 0.671706932875685
8782890 -0.5330704052266944 0.6728240504056147
8812195 -0.5307262982532703 0.6741770274356553
8841500 -0.5287706975209074 0.6736775776272297
8870805 -0.5275706068324456 0.6750842407219647
8900110 -0.5258811849199994 0.6758326916480942
8929415 -0.5236003908371336 0.6785122433337757
8958720 -0.5223074711737815 0.6771305643147436
8988025 -0.5196216685564549 0.677523433031494
9017330 -0.5177205851228857 0.679004418626969
9046635 -0.5162314687814754 0.6793318286940975
9075940 -0.5141928747872689 0.6800691628807147
9105245 -0.5119173172321496 0.6822264654896387
9134550 -0.5091489125325007 0.682978985695838
9163855 -0.5089359302144577 0.6825066362794906
9193160 -0.5067631993583274 0.6845553304775691
9222465 -0.5047101876686836 0.6855645914023929
9251770 -0.5039203100637344 0.6848392117907531
9281075 -0.5010352156498855 0.6871682834000102
9310380 -0.49800479749669274 0.6878883443516532
9339685 -0.49635044808769946 0.6884415264557106
9368990 -0.4949479580082315 0.6892109055193517
9398295 -0.4932391185829488 0.6890185701329454
9427600 -0.4913705023483306 0.6902907195238078
9456905 -0.4899959052922275 0.6913006264511903
9486210 -0.48653360434615056 0.691822563566161
9515515 -0.48639427790384954 0.6911871700819051
9544820 -0.4836412807062852 0.6931046104379434
9574125 -0.4828274796078518 0.6935453931690155
9603430 -0.47978850873406165 0.6950578244682579
9632735 -0.4784652588975069 0.6958237181059322
9662040 -0.47700160705035677 0.6971839952017321
9691345 -0.47497868612513744 0.694922616949171
9720650 -0.4724871157801343 0.6978584179918352
9749955 -0.47065812051624645 0.6987062787989605
9779260 -0.4683859997429523 0.6999938884020398
9808565 -0.4673847060222506 0.7005470553415653
9837870 -0.46603816943786786 0.6994997742905278
9867175 -0.464825992514275 0.7001940141402092
9896480 -0.4611867482907173 0.7015133206771963
9925785 -0.4598845029394248 0.7025188368323315
9955090 -0.45795228734351445 0.7039952786070178
9984395 -0.4553300760576196 0.703627675357863
10013700 -0.45474671026753277 0.7044875412916731
10043005 -0.45312614519087413 0.7040046778902682
10072310 -0.4517486797914327 0.7053896006056035
10101615 -0.44971538517305304 0.7042527866778436
10130920 -0.44722948276374513 0.7061583774941234
10160225 -0.4442316499862923 0.7070014693793556
10189530 -0.44319923643193726 0.7073503601508082
10218835 -0.4415198423979095 0.708204584816689
10248140 -0.4393513809646716 0.7087983628288874
10277445 -0.43813045293579334 0.7106130956267411
10306750 -0.43720436058690143 0.70956369005445
10336055 -0.43545803751756446 0.7095553334001738
10365360 -0.4338694481179069 0.7109423217305014
10394665 -0.4313704399367427 0.7123730817842826
10423970 -0.42904825489265397 0.7129775594969293
10453275 -0.42751254740591293 0.712244041568121
10482580 -0.4268183504232075 0.71410528964071
10511885 -0.4238697956743164 0.7138624299902178
10541190 -0.4220797323005576 0.7143146983543666
10570495 -0.420813307421038 0.7144981481135675
10599800 -0.41870896713475736 0.7156021106821769
10629105 -0.41689569233061935 0.7175222683369955
10658410 -0.41565548783749 0.7175262646287306
10687715 -0.4127864680210774 0.7175082175514984
10717020 -0.41216767116591496 0.7166888026597523
10746325 -0.4110232126528761 0.7172913211669356
10775630 -0.4087904673201643 0.7191998397450144
10804935 -0.4068299242290708 0.7182177079488847
10834240 -0.4042786517872313 0.7196386623451398
10863545 -0.4030490173739832 0.7197099263963327
10892850 -0.400979422743615 0.7217224144744794
10922155 -0.3994474442462964 0.7207909331883887
10951460 -0.39758454626897316 0.7205527880267895
10980765 -0.39648267505832857 0.7207837661977013
11010070 -0.3940940426327189 0.7218428678686729
11039375 -0.3928424040753531 0.7231337455067115
11068680 -0.3917063996080733 0.7253301023965436
11097985 -0.3894868713176252 0.7242430355039976
11127290 -0.38803585318412376 0.7222766929187638
11156595 -0.38646110857279337 0.7229042725412684
11185900 -0.385042184189059 0.7249426816144439
11215205 -0.3820420642891002 0.7253083476102256
11244510 -0.3806726580901464 0.7261148144252072
11273815 -0.37928067701980367 0.7254509252410755
11303120 -0.37759595360982223 0.7263145559966757
11332425 -0.3767093998996907 0.7267286519382871
11361730 -0.37362930240768344 0.7283784578751987
11391035 -0.37168043571084547 0.7285999308883253
11420340 -0.3704234564631339 0.7293302789637488
11449645 -0.36865687021375526 0.7287240060093452
11478950 -0.36736507111324 0.7299855609527377
11508255 -0.3660391150355638 0.7306505111685139
11537560 -0.3626324107232101 0.7313021013931711
11566865 -0.3620830718660498 0.7323036317277122
11596170 -0.36027913672987544 0.7301607758343248
11625475 -0.359691805583736 0.7297200552407581
11654780 -0.3578646346705543 0.7297173112381893
11684085 -0.35531547081866 0.7314656562568754
11713390 -0.35356684140595523 0.7318810720414348
11742695 -0.35352285908105385 0.7298414054294721
11772000 -0.35167876544652044 0.7328909260067965
11801305 -0.3493288841370145 0.7341199473581494
11830610 -0.3458581315356537 0.7333144802601614
11859915 -0.34543802409219215 0.7340519701093714
11889220 -0.3431189667983492 0.7352103126782862
11918525 -0.3434136285635275 0.73421476273265
11947830 -0.34223389295283496 0.7344463513877824
11977135 -0.33865268879540517 0.7357353741966147
12006440 -0.3383851244064134 0.7358685064464027
12035745 -0.33486350220949823 0.7367133314694722
12065050 -0.33546443715371 0.736581853496289
12094355 -0.3332765389644396 0.7364689245286142
12123660 -0.33061770617097963 0.7366793727643494
12152965 -0.3285218336008095 0.7388739247666167
12182270 -0.32689655195949346 0.7376024451794788
12211575 -0.32540936072810545 0.7373802674351485
12240880 -0.32426993851775426 0.7368653167441733
12270185 -0.3231258385621621 0.7368772361039695
12299490 -0.3205159323403735 0.7386052265548138
12328795 -0.31856375062596426 0.7392017204045946
12358100 -0.3171940031712235 0.7393165351388636
12387405 -0.3167134918508466 0.7383716706204777
