# HZ S RI R 50
1000000 -0.02728626247751911 0.03137821161793535 0.9962172962867798 -0.028990751144441017 0 0 0 0
1977495 -0.019642793076216514 0.06046698960820314 0.9899774170776838 -0.05518814797172603 0 0 0 0
2954990 -0.01050668026657548 0.08674856387038009 0.9815019164872444 -0.0808902934486719 0 0 0 0
3932485 0.0017171714985929742 0.1123963977536373 0.9713434760786488 -0.10355802247233857 0 0 0 0
4909980 0.014444877764161299 0.13621504869097842 0.9611721938101471 -0.12553729488953255 0 0 0 0
5887475 0.02840109081636374 0.15585904303102432 0.9486888426085888 -0.14438376151193835 0 0 0 0
6864970 0.043452097609263655 0.17387971092450483 0.9347719385695855 -0.16164339460383567 0 0 0 0
7842465 0.058427638621109335 0.18958907275507528 0.9212526279728642 -0.1765818325535851 0 0 0 0
8819960 0.0740331775140053 0.20405372753104412 0.9079660877107604 -0.1917179930335182 0 0 0 0
9797455 0.08891286252924022 0.21717306581267978 0.894057709887027 -0.20367807228805357 0 0 0 0
10774950 0.10518641676599999 0.22853568315282174 0.8802502712428589 -0.21596611032945862 0 0 0 0
11752445 0.12041008771037096 0.23857062137334278 0.8666240723886708 -0.22613500920965696 0 0 0 0
12729940 0.13628090533099074 0.24768458244974723 0.853133035522715 -0.23543054449834935 0 0 0 0
13707435 0.15046929245897353 0.2548185270820155 0.8390558381317411 -0.2439258138969909 0 0 0 0
14684930 0.16633208520682882 0.26247246954270786 0.8260419540971091 -0.2517753262616673 0 0 0 0
15662425 0.17994585722888118 0.26782035880942195 0.8129266819652078 -0.25824665399402436 0 0 0 0
16639920 0.19424644350396056 0.27297469677911335 0.8014911190949107 -0.26399933927527897 0 0 0 0
17617415 0.20796112762662264 0.27723196536985006 0.7885426657188899 -0.2684115060131234 0 0 0 0
18594910 0.2208300465749204 0.2809076839747964 0.7759633323234189 -0.27270448211236353 0 0 0 0
19572405 0.23353612955435865 0.2837939144946658 0.764558945697955 -0.27686362923562696 0 0 0 0
20549900 0.24524552145863693 0.2851932788582043 0.7541593772224071 -0.2804733603164231 0 0 0 0
21527395 0.2572001116189825 0.28711821958138584 0.7426925807948647 -0.28317554287656554 0 0 0 0
22504890 0.269386743738629 0.2889082081706467 0.7325870697514741 -0.2854803759939236 0 0 0 0
23482385 0.27969194612846954 0.288954897203902 0.7212984617059156 -0.2872610929774294 0 0 0 0
24459880 0.2912428006313829 0.29013799731306916 0.7117326505686171 -0.2887673465549845 0 0 0 0
25437375 0.3012859722214764 0.2898141024591002 0.7017267156488316 -0.2902835172410883 0 0 0 0
26414870 0.311740643944086 0.2899676029747446 0.693364452080946 -0.29135421849427945 0 0 0 0
27392365 0.3208606311812372 0.2886359764549931 0.6842302152785121 -0.2919750973255382 0 0 0 0
28369860 0.33038435368546076 0.28918278260065367 0.6758811306094311 -0.29186764306166224 0 0 0 0
29347355 0.3392899063000631 0.2874365086877021 0.6671763935682091 -0.2923420570426245 0 0 0 0
30324850 0.3476018310302124 0.2868119429260192 0.659931058807131 -0.2928952506128375 0 0 0 0
31302345 0.356397692927037 0.28625056117686065 0.652993076575109 -0.29403500259391285 0 0 0 0
32279840 0.3637057376202156 0.28464727624949954 0.6450055411693599 -0.2924746369787558 0 0 0 0
33257335 0.3708115487732842 0.282498608848079 0.6376209117586211 -0.2927580429619595 0 0 0 0
34234830 0.37887706052621606 0.28150619515358133 0.63189067637427 -0.2929041709049339 0 0 0 0
35212325 0.3851067050374621 0.2799279683898554 0.62496066441075 -0.29221587379934266 0 0 0 0
36189820 0.3927240629622346 0.2779246407302473 0.6184871927944735 -0.2913098323509164 0 0 0 0
37167315 0.39882194957375994 0.2768000666568174 0.6119178136223951 -0.2912523714530089 0 0 0 0
38144810 0.4059089442458834 0.2738317050031664 0.6064968196361423 -0.2906521074032424 0 0 0 0
39122305 0.4112997222586944 0.273300552291831 0.6007439276181604 -0.2903292188236797 0 0 0 0
40099800 0.41786563288219386 0.2705539044132784 0.5950631331267255 -0.2890914599324586 0 0 0 0
41077295 0.4237077158337333 0.26827695850638084 0.5895841425180898 -0.2886059217270745 0 0 0 0
42054790 0.42875494915887713 0.2670172880401585 0.5852210829591793 -0.28781670883266647 0 0 0 0
43032285 0.4344251757671025 0.26465931967109496 0.5794027450405139 -0.2875978952332463 0 0 0 0
44009780 0.43997302252616 0.2622645697281469 0.5753758354571858 -0.286580774861839 0 0 0 0
44987275 0.4430233218239874 0.2595195938176924 0.5696147446618505 -0.28485086835751305 0 0 0 0
45964770 0.44988916587915767 0.25751674126944424 0.5652040987348342 -0.28467428945277035 0 0 0 0
46942265 0.4542269327800308 0.2555724087857728 0.5613421817926343 -0.2836174506710424 0 0 0 0
47919760 0.45843119681341166 0.2537172200138122 0.5571268758342313 -0.2827298450513953 0 0 0 0
48897255 0.462142898763645 0.25159983053668566 0.5528597171235494 -0.28168664974835056 0 0 0 0
49874750 0.4675330935987331 0.24897321449499704 0.5484605842186723 -0.2810132802402925 0 0 0 0
50852245 0.4707302567672275 0.24629625894335322 0.5445628371954574 -0.28003852521162126 0 0 0 0
51829740 0.4746316589429342 0.2443607683454642 0.5402773602883963 -0.2788230282665513 0 0 0 0
52807235 0.4779682068827291 0.24198099597417846 0.5369425539598425 -0.2781892841335698 0 0 0 0
53784730 0.4829953273969256 0.23976571020804108 0.533210533406179 -0.2779079781304084 0 0 0 0
54762225 0.4859770566899904 0.23735289246444197 0.5299324715656892 -0.27664108363553463 0 0 0 0
55739720 0.4896442796536817 0.23502770348591911 0.5256663499873074 -0.2756820031312233 0 0 0 0
56717215 0.4930359710729553 0.23341183718621514 0.5229820447894183 -0.2758335032005979 0 0 0 0
57694710 0.49615070959104224 0.23111516042935829 0.519537857816294 -0.2734607104911115 0 0 0 0
58672205 0.49884611215432895 0.22912780841151195 0.5165395228414775 -0.27333931521152477 0 0 0 0
59649700 0.5016789071889233 0.22652648099244865 0.5132953369512079 -0.2726373058704628 0 0 0 0
60627195 0.5057436065355045 0.22377791193909521 0.5099067946325315 -0.27169846980091666 0 0 0 0
61604690 0.5077361841974106 0.22210525951199028 0.5074119858810389 -0.27036588493356123 0 0 0 0
62582185 0.5117448496074313 0.21997658055216898 0.5039826190851606 -0.27047149828329686 0 0 0 0
63559680 0.513901354382468 0.2185413601678219 0.5014504280692217 -0.2686170319216484 0 0 0 0
64537175 0.5165796463607614 0.21631888882067268 0.49915115721334236 -0.2678769170814448 0 0 0 0
65514670 0.5194845770650429 0.21460074966969778 0.4967311176974166 -0.26691775727414185 0 0 0 0
66492165 0.5213025080519144 0.21211045524210995 0.49362035266667786 -0.26614388477425205 0 0 0 0
67469660 0.5242298424391202 0.2098415084461933 0.49096859591137276 -0.2655170237300995 0 0 0 0
68447155 0.5259386349881273 0.20773721157888778 0.48848154174871494 -0.2652000855394298 0 0 0 0
69424650 0.5284126366868412 0.2063147384052489 0.4864481434634393 -0.26443459121252577 0 0 0 0
70402145 0.5310861537874462 0.2037643816539157 0.4845718490714642 -0.2639749583881009 0 0 0 0
71379640 0.534069231480795 0.201817427574945 0.4821015896063792 -0.26322206259042896 0 0 0 0
72357135 0.5349689139558826 0.20036088674506639 0.47965379725853075 -0.2619717750384256 0 0 0 0
73334630 0.5370026443464014 0.19824696741923298 0.4772568926743408 -0.2604134828715952 0 0 0 0
74312125 0.5376675777749002 0.19657696040605666 0.47492862486986437 -0.2605780735832641 0 0 0 0
75289620 0.5408668330297408 0.1937842967810214 0.472398384488983 -0.25962685933931895 0 0 0 0
76267115 0.5425267997073842 0.19277027999852178 0.4713444033724711 -0.2598756002477267 0 0 0 0
77244610 0.5451926846671598 0.19099047096361854 0.46915629960844374 -0.25811025751634986 0 0 0 0
78222105 0.5454116878950572 0.18818878788766338 0.4665672237127557 -0.2576447853449046 0 0 0 0
79199600 0.5475445558487683 0.18701923734088094 0.4650674446715796 -0.2564195224014602 0 0 0 0
80177095 0.5504082390969197 0.18493872043694168 0.46316462123817975 -0.2559493675100795 0 0 0 0
81154590 0.5507671070070083 0.1834694901551059 0.4616406476275898 -0.255583874939565 0 0 0 0
82132085 0.5529899265466612 0.18038858946176348 0.45960370264374095 -0.2556380656932236 0 0 0 0
83109580 0.5534881043203284 0.1798609812441133 0.4573276969284678 -0.25432982151855377 0 0 0 0
84087075 0.5567712451495381 0.17835614213775733 0.4562543595373094 -0.2532590272807921 0 0 0 0
85064570 0.5577368323071934 0.17609884204520657 0.45399371942222666 -0.2529843100438358 0 0 0 0
86042065 0.5591717285166001 0.1748080108961288 0.45214273089089985 -0.2525166411162819 0 0 0 0
87019560 0.5597635477352261 0.17332635918641986 0.4508115891407518 -0.251522804176954 0 0 0 0
87997055 0.5609441966336295 0.17184506572096037 0.449651846540765 -0.2510911081752501 0 0 0 0
88974550 0.5623246635685659 0.17005802672222053 0.4474534973681241 -0.2504885932047474 0 0 0 0
89952045 0.5645431445743165 0.16822931550445194 0.4455833562321071 -0.2494014204031564 0 0 0 0
90929540 0.5666299933686391 0.1659043737937782 0.4438074400743659 -0.24968066025708957 0 0 0 0
91907035 0.5659177964394916 0.1654338987198251 0.4427517923155697 -0.24836519971552787 0 0 0 0
92884530 0.5670464225775396 0.1634387846250197 0.44125460150023416 -0.2474513917175379 0 0 0 0
93862025 0.5689675049070392 0.1614611987864238 0.43972921265560483 -0.2481529235761246 0 0 0 0
94839520 0.5702950891509475 0.1603632320950381 0.4376061114444243 -0.2465324196371881 0 0 0 0
95817015 0.571737970245948 0.15824432578445788 0.4368515299626298 -0.24646250472913578 0 0 0 0
96794510 0.5719712664643157 0.1569076484206939 0.4359091550658335 -0.24614699063140513 0 0 0 0
97772005 0.5726527237761688 0.15610638738239635 0.4343533795662256 -0.2457903167913344 0 0 0 0
98749500 0.5737095555658931 0.15443101679725846 0.43289224641997853 -0.24401366587132078 0 0 0 0
99726995 0.5755865411826883 0.1533295196510249 0.4311905097888828 -0.24410346723473805 0 0 0 0
100704490 0.5767503843634685 0.1517066737581008 0.43074194457683146 -0.24429242332680257 0 0 0 0
101681985 0.5768531670163485 0.1503153122217329 0.4294935419341948 -0.24350334987686312 0 0 0 0
102659480 0.578143883125285 0.148307238536397 0.42790508324089077 -0.24272074349066336 0 0 0 0
103636975 0.5779114901921109 0.14824876960466835 0.42726055099490934 -0.2423212602034334 0 0 0 0
104614470 0.5798659687249287 0.1461112936714447 0.4256150367683743 -0.24257313405787106 0 0 0 0
105591965 0.5802278815425387 0.14513162282755884 0.42418874107197024 -0.24151633479642834 0 0 0 0
106569460 0.5812690871525804 0.14348358808288245 0.4231579333694646 -0.2413606644615143 0 0 0 0
107546955 0.5816553188992697 0.14239675057908555 0.4217092316864386 -0.24059699065697518 0 0 0 0
108524450 0.5847795740387163 0.14099147033935128 0.42099530928504103 -0.24096688173356762 0 0 0 0
109501945 0.5830055947153191 0.13976767527068656 0.41982346963109796 -0.2404902923446637 0 0 0 0
110479440 0.5835104284295204 0.13968282958842804 0.4186898240950479 -0.23934928639835923 0 0 0 0
111456935 0.5867995752796563 0.13769215404009832 0.41787389322645274 -0.23950310265793284 0 0 0 0
112434430 0.5856695573989384 0.1369646639926246 0.41682556766570344 -0.23884847828224046 0 0 0 0
113411925 0.5861168336648277 0.1365293695928641 0.4163102288690923 -0.2383671806778521 0 0 0 0
114389420 0.5861415841041856 0.1349320900513757 0.41537834811321783 -0.23805056161086302 0 0 0 0
115366915 0.5883571378438598 0.13348433580079946 0.41432179494513915 -0.2382664610468251 0 0 0 0
116344410 0.5878151116430663 0.1325395290323177 0.4135612825651975 -0.23805731699151833 0 0 0 0
117321905 0.5894051653804487 0.1312279733602842 0.41162886906821394 -0.2371488313686531 0 0 0 0
118299400 0.5894498918912038 0.13059668707429145 0.41181913577407414 -0.237031128966589 0 0 0 0
119276895 0.5900870277293426 0.13034544526889844 0.4100780570461643 -0.23642415802875485 0 0 0 0
120254390 0.5904937710884638 0.12863610431855227 0.4099321734185698 -0.23676455132889015 0 0 0 0
121231885 0.5915099946831001 0.12793825923529906 0.4088146655598048 -0.23652576841691064 0 0 0 0
122209380 0.5921144680198995 0.12549161699040573 0.4088099092092237 -0.2364324074625345 0 0 0 0
123186875 0.5925488512535145 0.12509675060682574 0.4070338332527214 -0.23558035121178386 0 0 0 0
124164370 0.5929430430300601 0.1233360205391537 0.4058150852354734 -0.23609545565335716 0 0 0 0
125141865 0.5941874462304706 0.12283999208796201 0.40555962599133333 -0.2350354688426514 0 0 0 0
126119360 0.5941256669326487 0.12205540775430794 0.4044550149833134 -0.23545390636768146 0 0 0 0
127096855 0.5949336201942202 0.1204412279601794 0.40362077046056966 -0.23511265861866082 0 0 0 0
128074350 0.5942002147330152 0.11957391085970343 0.40385245725731167 -0.23501785591459548 0 0 0 0
129051845 0.5948989439514963 0.11872592897023031 0.40273286991393253 -0.23544620502674793 0 0 0 0
130029340 0.597032429879413 0.11757186768279289 0.4013317820948432 -0.23481973776452272 0 0 0 0
131006835 0.5958339573067151 0.11711334998918074 0.40097246144364335 -0.23483589004026842 0 0 0 0
131984330 0.5968169727686211 0.11650430709061235 0.40033995628391317 -0.2346483004600322 0 0 0 0
132961825 0.5964375135762634 0.11526069453859776 0.39964878131910164 -0.23520539878645824 0 0 0 0
133939320 0.5987454684454988 0.11401479045560758 0.39850273564940275 -0.2351510721384276 0 0 0 0
134916815 0.5993516763842164 0.11389918458956683 0.39856036113508136 -0.23503185911397179 0 0 0 0
135894310 0.5981503607810651 0.11274975878204964 0.39727525506876 -0.23380714965690563 0 0 0 0
136871805 0.5997038805834112 0.11197201826154173 0.39665251068406093 -0.23481270423582007 0 0 0 0
137849300 0.5989869013965863 0.11156798722391627 0.39559865576281766 -0.2340465104430104 0 0 0 0
138826795 0.5991907383799924 0.1105020723729688 0.3954581572048778 -0.2344277454413747 0 0 0 0
139804290 0.6009510335424343 0.10970432448704699 0.395220301524972 -0.23413288439693627 0 0 0 0
140781785 0.5994934932214456 0.10875048832521422 0.39401509923476014 -0.23428083236533304 0 0 0 0
141759280 0.6007390750743058 0.10867169135785133 0.393943545129788 -0.23391996826134676 0 0 0 0
142736775 0.5999361773587563 0.10780872731523078 0.3926262711492577 -0.23412699595393818 0 0 0 0
143714270 0.6013079023403084 0.10667469901669306 0.39206220515631607 -0.23417718946182142 0 0 0 0
144691765 0.600392411061965 0.10575746708732 0.3914146201606855 -0.2341762132291796 0 0 0 0
145669260 0.6002709970753897 0.1058064914394673 0.3901161737410835 -0.23356117392442424 0 0 0 0
146646755 0.601630229574303 0.10466189102201691 0.3903225799030482 -0.2340249194803295 0 0 0 0
147624250 0.6022101328078893 0.10325417928345124 0.389294243190622 -0.23439942326214427 0 0 0 0
148601745 0.6023687148439371 0.10279957256962771 0.38899742352576316 -0.2340831091928135 0 0 0 0
149579240 0.602110097768699 0.10250389661047091 0.3881787013980281 -0.23428105610212943 0 0 0 0
150556735 0.6025375984769984 0.10133322305606941 0.387300689941069 -0.2347924698395274 0 0 0 0
151534230 0.6023192867144616 0.10154124069464257 0.38682238611396924 -0.23419036837083815 0 0 0 0
152511725 0.6028771801948136 0.10052616154917016 0.38602134753329576 -0.23414826963323696 0 0 0 0
153489220 0.6027970533252986 0.09865161245171689 0.3854565898948789 -0.23448459645316577 0 0 0 0
154466715 0.6033154420955716 0.0991461630887754 0.3850018000678995 -0.23495130603591746 0 0 0 0
155444210 0.6030699877881527 0.09822859959947142 0.38485095420466175 -0.2346123985931449 0 0 0 0
156421705 0.6028980148713167 0.09829962159702148 0.3833992139769687 -0.2346899751631116 0 0 0 0
157399200 0.6043972201865508 0.09693686106152521 0.38330496345310944 -0.23495839111880862 0 0 0 0
158376695 0.6040541892894017 0.09674698318221404 0.38224155603177 -0.23493612079421433 0 0 0 0
159354190 0.6039769986665534 0.09634792151161102 0.38205187570467475 -0.23497318773492598 0 0 0 0
160331685 0.604855819140222 0.0964717169331511 0.3814878314386487 -0.2353772351055906 0 0 0 0
161309180 0.6045392279686478 0.0947502346321594 0.38094976195236613 -0.2351405088324066 0 0 0 0
162286675 0.6051749898087335 0.09444519693439077 0.3801379312788131 -0.23547137779265193 0 0 0 0
163264170 0.6052487425894013 0.09424217776771929 0.3794496223208265 -0.2356994405120477 0 0 0 0
164241665 0.6054193199902055 0.09380787285892174 0.37905170132319776 -0.23559209932225134 0 0 0 0
165219160 0.6049119845480292 0.0935763936860316 0.37872279680468607 -0.23593014643488047 0 0 0 0
166196655 0.6059165851010567 0.09288623457277188 0.37795704272359987 -0.2358836458737892 0 0 0 0
167174150 0.6063556728714915 0.09259119681656848 0.3767954421481866 -0.23600253642620775 0 0 0 0
168151645 0.6063460369017417 0.09167348411465717 0.3767324926781493 -0.23632257066307705 0 0 0 0
169129140 0.6062687966917901 0.09108133742922081 0.37611984531650033 -0.23678313966875805 0 0 0 0
170106635 0.6058288538084246 0.09121622874097185 0.37576876662591996 -0.23707322758967142 0 0 0 0
171084130 0.6068361286479349 0.09070329094041289 0.3749457857577796 -0.23700406505478258 0 0 0 0
172061625 0.6066428941735019 0.08969013750461605 0.3742951244775722 -0.23754205055961583 0 0 0 0
173039120 0.6066571403613001 0.09006104100676987 0.37353259063776173 -0.23750298065352796 0 0 0 0
174016615 0.6069730721098575 0.08904257748886636 0.3731231805081397 -0.23734690050311819 0 0 0 0
174994110 0.6077214171876728 0.08932670349507552 0.3723800397420745 -0.23797875269546315 0 0 0 0
175971605 0.6076855632275825 0.08808942483135156 0.37171577027835073 -0.23847270391807648 0 0 0 0
176949100 0.6072865040610332 0.08792227793192728 0.37086141671227385 -0.23850808173523336 0 0 0 0
177926595 0.6077783968972419 0.08762588734117689 0.3707636114747734 -0.2389163912593685 0 0 0 0
178904090 0.6078134205284086 0.08732617908952432 0.3694370333167038 -0.23899321922898653 0 0 0 0
179881585 0.6074791302367174 0.08678693853203974 0.3690869313304833 -0.23957341177866381 0 0 0 0
180859080 0.6077870906886325 0.0866205949491456 0.36743990180958286 -0.23941561073402495 0 0 0 0
181836575 0.6080689102960701 0.08666364590088105 0.3674150782421186 -0.23906273976815107 0 0 0 0
182814070 0.6076948685364812 0.0861847689572757 0.3664236808587551 -0.239555271634665 0 0 0 0
183791565 0.607795375975773 0.08576303169527887 0.365593755935112 -0.2397770291500663 0 0 0 0
184769060 0.6076397338920153 0.08668680429317054 0.36559883804184473 -0.23954215135547316 0 0 0 0
185746555 0.608895716936579 0.08682529762437158 0.3649671228586757 -0.24011573849856238 0 0 0 0
186724050 0.6086993416319728 0.08642226476738407 0.36429892362078825 -0.24030153466989823 0 0 0 0
187701545 0.6084404743374324 0.0859461886179228 0.3632848417660022 -0.24055507897248793 0 0 0 0
188679040 0.6084759042282921 0.08595469673999402 0.3635289993035425 -0.2411369729536884 0 0 0 0
189656535 0.6101565243698341 0.08518724237895076 0.3621999390502652 -0.24036538661133516 0 0 0 0
190634030 0.6094577016657006 0.08466731504962037 0.3618396537809087 -0.2413008253982976 0 0 0 0
191611525 0.6090164801897304 0.08562566849737077 0.36138866449956747 -0.2411114789817664 0 0 0 0
192589020 0.6101465489423882 0.08488413028792335 0.36110219895112367 -0.24129208555258758 0 0 0 0
193566515 0.611179122749639 0.08380709177292732 0.3601028909480271 -0.24162168402251943 0 0 0 0
194544010 0.6105878688301168 0.0841865591674977 0.35891648727951997 -0.24177102483472857 0 0 0 0
195521505 0.612146173765611 0.0836995325033412 0.3588373502656017 -0.24230518574129217 0 0 0 0
196499000 0.6107519145011038 0.0851053256962297 0.35869932238801844 -0.24212692657805762 0 0 0 0
197476495 0.6111782987565415 0.08444635119679142 0.3583816485397386 -0.2427572428278764 0 0 0 0
198453990 0.611274701652289 0.08385994955219964 0.3572569355889534 -0.24236034608966833 0 0 0 0
199431485 0.6119539620105514 0.08245149845989988 0.3568711952057054 -0.24374295513399352 0 0 0 0
200408980 0.6128654705845688 0.08252361088983236 0.35629838226011784 -0.24408441269642947 0 0 0 0
201386475 0.6132492444771284 0.0829967103725234 0.3555786579567989 -0.24359130688120526 0 0 0 0
202363970 0.6136364443582105 0.08099802305011254 0.35450209008731326 -0.24401398430443363 0 0 0 0
203341465 0.6148447997411245 0.08099383405159509 0.3541532349218058 -0.2446494965719315 0 0 0 0
