# HZ S RI R 50
3000000 0.09577269080834962 0.02212536640988809 -0.13905337243392352 -0.0008554433049314633 0 0 0 0
3026419 0.09489644765518787 0.0196310803878546 -0.13911705092238427 -0.0003804629168211645 0 0 0 0
3052838 0.0946852260123684 0.018734839944561158 -0.13902867749630324 -0.00027686560448631663 0 0 0 0
3079257 0.09478440150740844 0.017582938277935545 -0.13908066389497825 -0.00020890520215045862 0 0 0 0
3105676 0.09460665095866358 0.015798295505945765 -0.1390123528622027 0.0002409976439346505 0 0 0 0
3132095 0.09354563163476227 0.014604746920825456 -0.1390953267006655 0.0003997575733365175 0 0 0 0
3158514 0.0931730744168648 0.014294968319307658 -0.13904861621284362 0.0006527219135888085 0 0 0 0
3184933 0.09356314802768398 0.012154226007076286 -0.13897479957018766 0.0007994361836865174 0 0 0 0
3211352 0.09277643656462976 0.010892840901133752 -0.13911884060923463 0.0010287378477695569 0 0 0 0
3237771 0.09246025226609884 0.011083223257704732 -0.13907319589732153 0.0014104271439504747 0 0 0 0
3264190 0.09217948519658525 0.009419049807617347 -0.13908068515932323 0.0015314669902530052 0 0 0 0
3290609 0.09228994338362528 0.007361005336783365 -0.13916663198952192 0.0018228899549457935 0 0 0 0
3317028 0.09126208251804341 0.005920259810491622 -0.13900644477428498 0.0020527051154504705 0 0 0 0
3343447 0.09162013292515532 0.00560520417042288 -0.13875429807099834 0.0020635785613615978 0 0 0 0
3369866 0.09173320288807879 0.0033043601697067813 -0.13898170182609126 0.0023841934964858114 0 0 0 0
3396285 0.09047740895637667 0.0026983811064184545 -0.13899577056101828 0.002845071201855058 0 0 0 0
3422704 0.09041309863662246 0.002671435083173933 -0.13881253340972996 0.0028599444631998813 0 0 0 0
3449123 0.0907808684272281 2.1185232108116033e-05 -0.13882220981829071 0.003095247881771596 0 0 0 0
3475542 0.08965517278516082 -0.0006060722173622047 -0.13898698870001935 0.0034136976931955867 0 0 0 0
3501961 0.08971672975310384 -0.0011398283412737155 -0.1386648693722006 0.0035371017340523492 0 0 0 0
3528380 0.08927220577491367 -0.002306827199730593 -0.1387003043849323 0.0034782006217508226 0 0 0 0
3554799 0.0894889618152139 -0.004178547878124759 -0.13879745525300038 0.003944892253546604 0 0 0 0
3581218 0.08885740995490707 -0.004865500528550506 -0.13860354682568102 0.004102268577023136 0 0 0 0
3607637 0.08824011969860501 -0.0059001897003050025 -0.13872156170098154 0.004233992814712691 0 0 0 0
3634056 0.08809602968289598 -0.005992840843938827 -0.13879566660689474 0.004549194068410963 0 0 0 0
3660475 0.0876297922052028 -0.007219142814174716 -0.13866277188962042 0.004743336435649744 0 0 0 0
3686894 0.08812819413553566 -0.008896472645278559 -0.13858111441755466 0.004906223433350614 0 0 0 0
3713313 0.08703780932507742 -0.009833135819006505 -0.13868973594846315 0.004917931832876114 0 0 0 0
3739732 0.08736048534604697 -0.010028844610363933 -0.1387011338696539 0.005212770937325578 0 0 0 0
3766151 0.0871653674474693 -0.012009516140146111 -0.13867567777051032 0.005531643673490775 0 0 0 0
3792570 0.08720581401552265 -0.01299049662244666 -0.13875031720416892 0.005519306144111164 0 0 0 0
3818989 0.0862247257379781 -0.013858606734333142 -0.1385815372169267 0.005793891522697223 0 0 0 0
3845408 0.08614109632950576 -0.014930719901117526 -0.13849769663364112 0.006188415674515607 0 0 0 0
3871827 0.08597921796129507 -0.016404337113173746 -0.1387527296419365 0.005976587702668806 0 0 0 0
3898246 0.0852281401922411 -0.01662781817865928 -0.1384946757891491 0.006335489840064516 0 0 0 0
3924665 0.08480369587325781 -0.01782277571737673 -0.13850580445165095 0.006493070328858404 0 0 0 0
3951084 0.08497252555327382 -0.01832058908645257 -0.13858456359397514 0.006783378011889666 0 0 0 0
3977503 0.08415628482657972 -0.01959620882552849 -0.1384242754690883 0.006851048864596981 0 0 0 0
4003922 0.08431652318586275 -0.01987538650221245 -0.13865410774139683 0.00744807870346585 0 0 0 0
4030341 0.08438970911690134 -0.021742750897663834 -0.13844919828919797 0.007366243252539003 0 0 0 0
4056760 0.08345086105005231 -0.022561960677767744 -0.1384037758963041 0.00729752577074686 0 0 0 0
4083179 0.08298839585409808 -0.023496407670221542 -0.13845677145824486 0.007663186729614026 0 0 0 0
4109598 0.08283095072392369 -0.023859385554477773 -0.1382992994002835 0.008067283838186064 0 0 0 0
4136017 0.08285864406726261 -0.024736586397275676 -0.1383610653440771 0.008023783655996635 0 0 0 0
4162436 0.08269701456964301 -0.02623969674561242 -0.13832413892536255 0.00823060681726146 0 0 0 0
4188855 0.08283796459714979 -0.02720893460233514 -0.13817589736771194 0.00819148776884956 0 0 0 0
4215274 0.08153629018206841 -0.02782696157616983 -0.1382666084787105 0.008519167131889847 0 0 0 0
4241693 0.08170842807072877 -0.028242344273307917 -0.13833322068354512 0.008901797046541697 0 0 0 0
4268112 0.08152505193999036 -0.029341634341396246 -0.13823481997364975 0.00903588270668236 0 0 0 0
4294531 0.0815093455654594 -0.03063183543937732 -0.1379967014977467 0.008871226077711115 0 0 0 0
4320950 0.08066472359265946 -0.0315693252360686 -0.1383811740703491 0.009340023648845947 0 0 0 0
4347369 0.08074743428677332 -0.03177402011708891 -0.13823613575695673 0.009703659630705977 0 0 0 0
4373788 0.08075145890406606 -0.03289367830636177 -0.13801268314705398 0.009393315573419594 0 0 0 0
4400207 0.07944278546257244 -0.033538706208816806 -0.13811173381735553 0.009797909453353924 0 0 0 0
4426626 0.0800607460428832 -0.034295828705699465 -0.13809895956881907 0.010105577686187526 0 0 0 0
4453045 0.07955113605560632 -0.0359054535865072 -0.13786617460061298 0.010041788432902241 0 0 0 0
4479464 0.0784952604735703 -0.03623581416881503 -0.13796913866320215 0.010238045562667653 0 0 0 0
4505883 0.07869446895988762 -0.03630473826988155 -0.13799804088709408 0.01053407599435178 0 0 0 0
4532302 0.07842751579202376 -0.03756615956195218 -0.1380393739508357 0.010923271988087943 0 0 0 0
4558721 0.07801746455658874 -0.03863691027869589 -0.13772399374358368 0.010733841837522004 0 0 0 0
4585140 0.07741390402343763 -0.03936181190006254 -0.13810400651694923 0.011030240188482457 0 0 0 0
4611559 0.0775294191715392 -0.040049514658398844 -0.13797894137957548 0.011187719061987131 0 0 0 0
4637978 0.07775007301276875 -0.041120779606145005 -0.13781588507387219 0.011117162875825093 0 0 0 0
4664397 0.07677304220846541 -0.04168650837573687 -0.13783056766645269 0.01141220564388748 0 0 0 0
4690816 0.07655196164143811 -0.042378478155642024 -0.13774576169969205 0.01162712837350878 0 0 0 0
4717235 0.07598145686936873 -0.04338231977374166 -0.1381118540742327 0.011953139730069482 0 0 0 0
4743654 0.07558433168091958 -0.043529818486986324 -0.13786289246294953 0.012164678287132944 0 0 0 0
4770073 0.07595320087514632 -0.045257578594275816 -0.13776756752641856 0.012041722437039768 0 0 0 0
4796492 0.075983410501746 -0.046016683440849145 -0.13757057700296652 0.012262222243818793 0 0 0 0
4822911 0.07481822282421223 -0.04615574412667003 -0.137976245002317 0.012704346688416041 0 0 0 0
4849330 0.07410858190087387 -0.047081813530421804 -0.1378588811813798 0.012739094418468658 0 0 0 0
4875749 0.07406619022918527 -0.048577764928334016 -0.13768641473007018 0.012966842480686372 0 0 0 0
4902168 0.07435041530774283 -0.04858686299244988 -0.13745581095718454 0.012881499798417932 0 0 0 0
4928587 0.074080878031225 -0.049732812627278015 -0.1375405462247893 0.013076566864371579 0 0 0 0
4955006 0.07341399996096502 -0.04976656107608373 -0.13769045543688946 0.013514348318712777 0 0 0 0
4981425 0.07293646123705053 -0.050877418269753456 -0.13768611954398208 0.01368730150723259 0 0 0 0
5007844 0.07319605350473533 -0.05136950547282809 -0.13747645498015398 0.013455190866506466 0 0 0 0
5034263 0.07283286548528074 -0.05278436388511316 -0.1374547155535538 0.01370504304741295 0 0 0 0
5060682 0.07261789389202365 -0.05348949568671622 -0.13746379621833305 0.013900627581405839 0 0 0 0
5087101 0.07231800275061226 -0.053148119402145026 -0.13756202864907974 0.014273352096686955 0 0 0 0
5113520 0.07152297342200344 -0.05490109567596116 -0.13746223570434954 0.014250927470890285 0 0 0 0
5139939 0.07066248581131997 -0.05537561096883501 -0.13760401495973518 0.014808363402045437 0 0 0 0
5166358 0.0706189826754768 -0.055981305252460076 -0.13753419972571637 0.014572807422333777 0 0 0 0
5192777 0.07023131441404742 -0.056990171168807356 -0.1373774174757927 0.014756599369988299 0 0 0 0
5219196 0.07083334862507472 -0.05732839751295396 -0.1373034533527478 0.014774976150469838 0 0 0 0
5245615 0.07015021160093474 -0.058184357684522396 -0.1373447571884634 0.015040529195312777 0 0 0 0
5272034 0.06924281509323288 -0.058900837364603754 -0.13733230109285882 0.01539675341820982 0 0 0 0
5298453 0.06939052111904537 -0.059357399607757586 -0.1373325822388621 0.015361092484299515 0 0 0 0
5324872 0.06918776955080619 -0.060602497241852786 -0.13719463859946904 0.01556939644712201 0 0 0 0
5351291 0.06883042249548861 -0.061600748504849666 -0.13739267467204921 0.015797573396672933 0 0 0 0
5377710 0.06793838170401419 -0.061924694292512655 -0.1374224175864848 0.01606427406234301 0 0 0 0
5404129 0.06779005841280951 -0.06142638531812967 -0.13719199617961236 0.01584345966920277 0 0 0 0
5430548 0.06783826349904326 -0.06348293859936598 -0.13721115121891791 0.016407018676938032 0 0 0 0
5456967 0.06712805815623955 -0.06444075723737598 -0.13739371362496103 0.016608069562895737 0 0 0 0
5483386 0.06641870904590315 -0.0647596325574447 -0.13729332231823876 0.016705563745215354 0 0 0 0
5509805 0.06696734451261122 -0.06481921335340178 -0.13702170156504292 0.016581608235339083 0 0 0 0
5536224 0.06657162847753034 -0.06529088021662206 -0.1370892331212282 0.016825810028002243 0 0 0 0
5562643 0.06613594849964143 -0.0669460005459554 -0.13724968337984836 0.01711265615311167 0 0 0 0
5589062 0.06525728721932555 -0.06729009894375361 -0.13712116992522613 0.017214899352150596 0 0 0 0
5615481 0.06519175810841356 -0.06754482676935084 -0.13701654367665064 0.01718390130923049 0 0 0 0
5641900 0.06526203222895861 -0.06851850068569859 -0.13686219967641536 0.017357336796827647 0 0 0 0
5668319 0.0645890222724003 -0.06923210355637387 -0.13701973650755928 0.017737960634119435 0 0 0 0
5694738 0.06410559828887531 -0.06966853561403336 -0.13693745098543153 0.017555013906749222 0 0 0 0
5721157 0.06386930494679263 -0.06982407756776164 -0.1370738180267795 0.017804749823877666 0 0 0 0
5747576 0.06377640591650928 -0.07067226144236993 -0.13682939646733566 0.017962557132096026 0 0 0 0
5773995 0.06282125270420183 -0.07148497907206967 -0.1370640775290215 0.01859471518686295 0 0 0 0
5800414 0.06229852994466105 -0.07290179854733038 -0.13680569737494752 0.01854344141204318 0 0 0 0
5826833 0.061703484782174765 -0.07326280144289445 -0.1369551992041324 0.01844714949415921 0 0 0 0
5853252 0.06228653719453092 -0.07305314515763114 -0.13678559263687104 0.01843969063269439 0 0 0 0
5879671 0.06171033095839621 -0.07356223164693254 -0.13673716246778547 0.01869635320852133 0 0 0 0
5906090 0.061615674470382506 -0.07475052610061976 -0.13666622298033623 0.018898193150926886 0 0 0 0
5932509 0.06076253326445201 -0.07584548189897514 -0.1365848951325887 0.019377637634474587 0 0 0 0
5958928 0.060659505048212034 -0.07559619375861806 -0.13678022869030484 0.019262705444203228 0 0 0 0
5985347 0.06045993462489855 -0.07675576492276567 -0.13655072181205413 0.019555756154933494 0 0 0 0
6011766 0.06019891958755864 -0.07718689665882136 -0.13674807926533414 0.01977665591863008 0 0 0 0
6038185 0.059478435859890516 -0.07790069368206833 -0.1366739625058599 0.0198049748958953 0 0 0 0
6064604 0.05971539658893188 -0.0779730465780672 -0.13664858949251574 0.019818872245454977 0 0 0 0
6091023 0.05919862603025338 -0.07970332004947647 -0.1366009759783223 0.02030777614307916 0 0 0 0
6117442 0.057857301057545406 -0.0798618778511499 -0.1365269675501651 0.02030398198049763 0 0 0 0
6143861 0.0587634490777685 -0.07967403820873005 -0.13639757306438158 0.020264520142598413 0 0 0 0
6170280 0.05811973112413173 -0.08154677280168784 -0.13658276383778328 0.020668144042135565 0 0 0 0
6196699 0.05748665705287784 -0.08248453519124274 -0.13654063710130457 0.020816211421363136 0 0 0 0
6223118 0.056551267389000535 -0.08251509599658242 -0.13641738460963407 0.020533637723987835 0 0 0 0
6249537 0.05694272457633623 -0.08255447657364334 -0.13651001164306928 0.020985938483713436 0 0 0 0
6275956 0.056171208500680886 -0.08314878765655644 -0.13640677466360404 0.021175772711556032 0 0 0 0
6302375 0.05619796075011582 -0.08353306463521142 -0.1362877037623499 0.02099844042040954 0 0 0 0
6328794 0.0558022289169976 -0.08478119285023926 -0.13642759967487647 0.021501008652775818 0 0 0 0
6355213 0.055661705737484135 -0.08581766307371971 -0.13629975172032366 0.02154037529038853 0 0 0 0
6381632 0.05462697469172863 -0.08570530682237228 -0.13621356651460118 0.021765050658319705 0 0 0 0
6408051 0.05391946046348486 -0.08672770389558701 -0.136253116021479 0.02172313419029306 0 0 0 0
6434470 0.054505417113794884 -0.08681859183082015 -0.13616500151575672 0.021993645336426212 0 0 0 0
6460889 0.05358043407509613 -0.08823577657188483 -0.1362876061213414 0.022163238722315192 0 0 0 0
6487308 0.052704525573303 -0.0883753987575483 -0.13619365327470648 0.022375432492494046 0 0 0 0
6513727 0.05310895962181097 -0.08872876881232365 -0.13622667917911996 0.022336006575930198 0 0 0 0
6540146 0.052856276321428176 -0.08973461416140226 -0.1361416480093382 0.022782242686765302 0 0 0 0
6566565 0.05167219958188325 -0.09041566732200579 -0.13595191762806874 0.022496416312403452 0 0 0 0
6592984 0.0516393145814263 -0.09044282391681582 -0.13596890058967487 0.022908308736775292 0 0 0 0
6619403 0.051518572718866555 -0.09159321022252141 -0.13594568296236664 0.0230807486959154 0 0 0 0
6645822 0.050101554566093394 -0.09205217838635325 -0.13592984434698918 0.02302389062762391 0 0 0 0
6672241 0.05123401085392913 -0.09227330434402047 -0.13597895810944308 0.023390004451433848 0 0 0 0
6698660 0.050664636492246784 -0.09322868991944024 -0.1361407180772649 0.023793925860364353 0 0 0 0
6725079 0.049503721371188754 -0.09372075443523506 -0.1357961914121701 0.023511951616729188 0 0 0 0
6751498 0.049794495931399826 -0.09348699333781077 -0.135702573531989 0.02385766683670718 0 0 0 0
6777917 0.04952709909817483 -0.09444135438345141 -0.13585648062355754 0.024043562404216366 0 0 0 0
6804336 0.04894057248775926 -0.09502328960763386 -0.13587255974703713 0.024071661899407317 0 0 0 0
6830755 0.048266518668532765 -0.0970671685314245 -0.13564991364566495 0.024456459816688304 0 0 0 0
6857174 0.04761151844517904 -0.09665630641763256 -0.1357151837738449 0.02440009440645044 0 0 0 0
6883593 0.04759024763189059 -0.09663042166727216 -0.13566797402120276 0.024546659719849505 0 0 0 0
6910012 0.04718882938713555 -0.09815110064491987 -0.13570218413596172 0.02477714072525225 0 0 0 0
6936431 0.04602106433762649 -0.09818095257788309 -0.1356873032436836 0.0246837649168859 0 0 0 0
6962850 0.04637401154887732 -0.09850914424466564 -0.1354697133270692 0.025014624223174593 0 0 0 0
6989269 0.04623285379662901 -0.10005147277291017 -0.1356066283340837 0.02532403556565479 0 0 0 0
7015688 0.04517992093337883 -0.10009883647346818 -0.13558780005618437 0.025263324058821715 0 0 0 0
7042107 0.045328926245270997 -0.09990377707764816 -0.13547804888601583 0.025465553917317328 0 0 0 0
7068526 0.044726699333148844 -0.1012597975855045 -0.1355427639518022 0.025693588317980243 0 0 0 0
7094945 0.04357901920781089 -0.10175973679285806 -0.13561594407736338 0.025567931638342235 0 0 0 0
7121364 0.0437738243873595 -0.10203376198848775 -0.1354267261678936 0.02587711535610616 0 0 0 0
7147783 0.043499070998628125 -0.10342165956647699 -0.13527171595034293 0.025792303201912593 0 0 0 0
7174202 0.042262742525890906 -0.10349881796145527 -0.13543376906096355 0.02603889009480298 0 0 0 0
7200621 0.042490607323294884 -0.10335784406541733 -0.13538507365014874 0.02643993345744205 0 0 0 0
7227040 0.042250455754048434 -0.10415881413697707 -0.13541169986699966 0.026760389381149854 0 0 0 0
7253459 0.04181667657043816 -0.10478844496336301 -0.13533122829752645 0.026830673653118385 0 0 0 0
7279878 0.041295290683834265 -0.10643823664914487 -0.13511702270574852 0.02678845605256451 0 0 0 0
7306297 0.04028447435334006 -0.10653841634494501 -0.1351005176510432 0.026715515133955335 0 0 0 0
7332716 0.03983036101061769 -0.10651754162141111 -0.1350316582095378 0.02687581293572363 0 0 0 0
7359135 0.04017997764017374 -0.10653954137697559 -0.13513851285370654 0.027518148486250723 0 0 0 0
7385554 0.03904441992934492 -0.1087046890361082 -0.13506631009232542 0.027210998733508733 0 0 0 0
7411973 0.03874973248024948 -0.1086202785746813 -0.1350732767539092 0.027199522894140165 0 0 0 0
7438392 0.03803898174388862 -0.1087513742151432 -0.13499957729802503 0.027527088322189242 0 0 0 0
7464811 0.03858492848442859 -0.10974919581088266 -0.1349914628280304 0.027782352664622513 0 0 0 0
7491230 0.03764634819661692 -0.1106910313545196 -0.1348170289478589 0.027683272704617835 0 0 0 0
7517649 0.03678937888657955 -0.11028540820296634 -0.13488633588084348 0.027985703327865655 0 0 0 0
7544068 0.037382302023925874 -0.11084188255614996 -0.1350368950251352 0.028234657862311902 0 0 0 0
7570487 0.03605922956496257 -0.11166108118957975 -0.13493543869397515 0.02836718904974194 0 0 0 0
7596906 0.03626314840996238 -0.11125233286496676 -0.13457638183016882 0.028537807501938083 0 0 0 0
7623325 0.0360177226876005 -0.11237407207144853 -0.13483939096566036 0.028584873392549778 0 0 0 0
7649744 0.03488566201924815 -0.11395283070617007 -0.13473737804447472 0.028716050587201433 0 0 0 0
7676163 0.035365473858022314 -0.11308062502831724 -0.13474949237892578 0.02924967475631557 0 0 0 0
7702582 0.03431666798171498 -0.11493797810459373 -0.13457174801631633 0.02910518682908445 0 0 0 0
7729001 0.033273833780193524 -0.11463551086507237 -0.13453874660134196 0.029016012959898727 0 0 0 0
7755420 0.03374520045123177 -0.11432314789061392 -0.13462534755850053 0.02965889695563194 0 0 0 0
7781839 0.033261586381694776 -0.11461997096565817 -0.13453328014926427 0.02961197536759075 0 0 0 0
7808258 0.032254625752307954 -0.11658778136190259 -0.1344466808018906 0.029498534022842204 0 0 0 0
7834677 0.031077221677193498 -0.11617130583094118 -0.13451264818444852 0.029644769862904673 0 0 0 0
7861096 0.031031778629744357 -0.11687725897077268 -0.13452728534701977 0.029922752280347912 0 0 0 0
7887515 0.031652054121993026 -0.11717803385750705 -0.1345507558060549 0.030331678431715265 0 0 0 0
7913934 0.030436277609197437 -0.11912916212748874 -0.13427136363106335 0.03014537584326137 0 0 0 0
7940353 0.029980414132661705 -0.11960520671324411 -0.13423461442705018 0.03036904053498862 0 0 0 0
7966772 0.02902522596897606 -0.11865817874165731 -0.13438063227813699 0.030578701201611606 0 0 0 0
7993191 0.02958437562020576 -0.1193927069589842 -0.13440610639127928 0.03083417478330183 0 0 0 0
8019610 0.02865802404541071 -0.12050380061570078 -0.13408329431811972 0.030794420303405998 0 0 0 0
8046029 0.028213879041921335 -0.12170496844289788 -0.13408898539061903 0.030845694899327356 0 0 0 0
8072448 0.027082780876585517 -0.12081369317808681 -0.13405882396554097 0.031029846050344763 0 0 0 0
8098867 0.027624545847413095 -0.12063929494513492 -0.13410644750669853 0.031359014826948535 0 0 0 0
8125286 0.027029294636372787 -0.12275300654181279 -0.13400457454046522 0.031365656032206375 0 0 0 0
8151705 0.02561564535836293 -0.12332917345024243 -0.13400914347835774 0.03132527293946444 0 0 0 0
8178124 0.02666330981925365 -0.12274516273872381 -0.13399628568473174 0.0315200540741898 0 0 0 0
8204543 0.025663334279903895 -0.12430315827375311 -0.13391134027212104 0.031797330440174416 0 0 0 0
8230962 0.024372249880196824 -0.12481045059478886 -0.13387977922137012 0.03174554870837388 0 0 0 0
8257381 0.024689052684959068 -0.12381479707415678 -0.13397976729948313 0.032227431930563426 0 0 0 0
8283800 0.023786618070784648 -0.12569849315423617 -0.13360225538948603 0.032255423453359765 0 0 0 0
8310219 0.02268090123612193 -0.12641834101561825 -0.13378002876673512 0.03223334100907353 0 0 0 0
