# HZ S RI R 50
50000 0.9609932232733072 -0.0008983445757320593 0.03919324750003221 0.0014758596957141698 0 0 0 0
109900 0.9614610910303834 -0.0006121770814376052 0.03933799702408638 0.0019433834871412643 0 0 0 0
169800 0.9614084833756751 -0.001018630087158733 0.03907825028993398 0.0019702023432589654 0 0 0 0
229700 0.9609647033971488 -0.000684527820537657 0.038782962961154986 0.0018959074487910337 0 0 0 0
289600 0.9596217990657506 -0.000702608154017263 0.03846355818016104 0.0018448335319836528 0 0 0 0
349500 0.9599373254326095 -0.0004094415336301966 0.03847490717690545 0.0015330691527735022 0 0 0 0
409400 0.9598233167774981 -0.0007680459360337151 0.03856830096095051 0.0015268621385194257 0 0 0 0
469300 0.9603554263561864 -0.000975236223467955 0.0251201775593778 -0.01576301233577539 0 0 0 0
529200 0.9607539274005633 -0.0005200225300105452 0.03890327594272393 0.002289473387285427 0 0 0 0
589100 0.9594117030794587 -0.000883814748425706 0.0389194785174105 0.0023119925561627696 0 0 0 0
649000 0.9622408921366954 -0.0010388540073009087 0.03900694615680451 0.002298850347665724 0 0 0 0
708900 0.9615115556648125 -0.0006934140024069751 0.039039355462385766 0.002388687278107852 0 0 0 0
768800 0.9615092609840427 -0.0008949928344316459 0.03902649878540533 0.0023596476471920255 0 0 0 0
828700 0.9609179474965137 -0.0008060198718750442 0.039057247387338234 0.00247768245789178 0 0 0 0
888600 0.9622338924087658 -0.0014573824107313488 0.039010642981920356 0.002435304059465279 0 0 0 0
948500 0.9613070180848807 -0.0010478770851635978 0.039002809606286645 0.0025302370449363063 0 0 0 0
1008400 0.9612163352427797 -0.0013844729351873122 0.038988156506091186 0.002536487114771906 0 0 0 0
1068300 0.9615805562194325 -0.0017219043012215369 0.03904342749842069 0.002485732393413774 0 0 0 0
1128200 0.9607172134181713 -0.0010235431528744293 0.038957971032132686 0.0025287609680006025 0 0 0 0
1188100 0.9608364906753637 -0.001328640733634186 0.03900371523682228 0.002551760989507444 0 0 0 0
1248000 0.9607774226871922 -0.0012795090471984763 0.039029478193047945 0.002553398870017442 0 0 0 0
1307900 0.9611687340682398 -0.0014858462414113294 0.03901504868053172 0.0025346818892869687 0 0 0 0
1367800 0.9610088461182462 -0.0011916385492608615 0.03901605372952429 0.0025583015133903626 0 0 0 0
1427700 0.9611409670529881 -0.001534886062297226 0.038979916715676674 0.0025515095214345947 0 0 0 0
1487600 0.9617846887012031 -0.0016163404242001311 0.03902632921347389 0.002521111189480519 0 0 0 0
1547500 0.9614529743989721 -0.0018952784438805762 0.03897641639402413 0.002478724508901495 0 0 0 0
1607400 0.9613443855270618 -0.002557220386147688 0.039005405526229386 0.0024733321479206757 0 0 0 0
1667300 0.961788129459196 -0.0019454387750027743 0.039061246100683907 0.0025585425271780313 0 0 0 0
1727200 0.9618483701042874 -0.0023464721565515908 0.03911605846007141 0.0025672173791872924 0 0 0 0
1787100 0.9606161159625627 -0.002429450684118055 0.03906125034061786 0.0025735156637100593 0 0 0 0
1847000 0.9614006158278471 -0.002366247749453632 0.03904294311022075 0.00259534252216724 0 0 0 0
1906900 0.9610949857706411 -0.0021360127320177377 0.03902763055437007 0.002590803076692658 0 0 0 0
1966800 0.9611458405615649 -0.002477536923340809 0.03909713144280974 0.0025862805013763543 0 0 0 0
2026700 0.961035761771234 -0.0028644486981564397 0.03902662808914735 0.00253182926611363 0 0 0 0
2086600 0.9612859980771117 -0.002647106866257164 0.03901109730550156 0.002597851768011999 0 0 0 0
2146500 0.9614017198292836 -0.0025895899324233224 0.039006154278779744 0.002538313897693539 0 0 0 0
2206400 0.9612159531789373 -0.0028289590985821444 0.0390762877781946 0.002468113593821836 0 0 0 0
2266300 0.9610238756384997 -0.0024641523378559735 0.03901333164104735 0.002547045667668451 0 0 0 0
2326200 0.9603602019868359 -0.003202104822786528 0.039058328169194 0.0025389462782383163 0 0 0 0
2386100 0.9614814168922454 -0.0028203731127681058 0.0390383302267613 0.002478125538161494 0 0 0 0
2446000 0.9609394365734528 -0.002904670911168918 0.03909417842946143 0.002499890378463506 0 0 0 0
2505900 0.96104423054016 -0.003380084242538943 0.039095743960298746 0.002536704888401079 0 0 0 0
2565800 0.9609154722882097 -0.003521052830371638 0.03911301392015273 0.002423269085189794 0 0 0 0
2625700 0.9610340856587363 -0.003640478489089849 0.03907134259966196 0.002455980503470764 0 0 0 0
2685600 0.9612186312541795 -0.0036809196675869826 0.03913264190388522 0.0024563033466562002 0 0 0 0
2745500 0.961023539325226 -0.004131500143331398 0.03909562883253739 0.002474635764131779 0 0 0 0
2805400 0.960618993441973 -0.003802945895546762 0.03908858795195187 0.002524707298119949 0 0 0 0
2865300 0.9614111001198224 -0.004034827247823404 0.03912791759485651 0.002350456323973356 0 0 0 0
2925200 0.9611231904543034 -0.004171704122507454 0.03910107286878994 0.002386162687860399 0 0 0 0
2985100 0.9604872022776292 -0.004218071843757552 0.0391123473140565 0.0023400711019634845 0 0 0 0
3045000 0.9608941250778252 -0.004104511238424596 0.039080332639129314 0.0024628473388759327 0 0 0 0
3104900 0.9614767242825759 -0.004229000290047476 0.03910681313714914 0.0024354202152965044 0 0 0 0
3164800 0.961831125350686 -0.0044240952986601195 0.039165729790056704 0.002399031708236759 0 0 0 0
3224700 0.9618019747175982 -0.004484448413313256 0.03907632544559657 0.0024320781000778473 0 0 0 0
3284600 0.9608233077543554 -0.004500837730538872 0.03914829579617832 0.002460065660097915 0 0 0 0
3344500 0.9617797808070383 -0.004165943624524977 0.03913705128447342 0.0024693485661656587 0 0 0 0
3404400 0.961038529515656 -0.004967978560852186 0.03906385540065814 0.0024134279474738547 0 0 0 0
3464300 0.9616603004301018 -0.004512801464834278 0.03914227146333636 0.002442816975788382 0 0 0 0
3524200 0.9605292439712723 -0.00531142427260304 0.03905085094535345 0.0025024830798338125 0 0 0 0
3584100 0.9607247024627961 -0.005132079994698679 0.039074238609316025 0.0024444612169998037 0 0 0 0
3644000 0.9613176603891963 -0.0048994798525151175 0.0390670033159405 0.0025108611678844256 0 0 0 0
3703900 0.9609854240441061 -0.005824790769528629 0.03912302936348528 0.0024370137236405386 0 0 0 0
3763800 0.9605174901342676 -0.005355296428445515 0.03913862372874093 0.002474894147204509 0 0 0 0
3823700 0.9613834106376365 -0.005274945597715034 0.039148810785832086 0.002473960523757988 0 0 0 0
3883600 0.9613761682528359 -0.005323106184559958 0.039160467200760045 0.0024463330017143207 0 0 0 0
3943500 0.960380337701868 -0.005644065192921977 0.039116891903546315 0.002443646855914852 0 0 0 0
4003400 0.9608542485121261 -0.005485665871791911 0.03916487911550017 0.002488666840856308 0 0 0 0
4063300 0.9606871710058795 -0.005595741472044336 0.03917107369595446 0.0023303726837558044 0 0 0 0
4123200 0.9606818717646712 -0.006065182000089387 0.03915707919217526 0.0024018817641824246 0 0 0 0
4183100 0.9616187162247373 -0.005859386051776199 0.0391656808692109 0.0023202200611580825 0 0 0 0
4243000 0.9609078753778999 -0.006014859965980532 0.03914534521749975 0.002385228931050434 0 0 0 0
4302900 0.9615309263752333 -0.006202672945094285 0.03916255271621461 0.002351044890272401 0 0 0 0
4362800 0.9608105258331682 -0.005953939075946529 0.03915372717494284 0.0024050412767465334 0 0 0 0
4422700 0.9606784076285704 -0.006380207587404593 0.039146841294393546 0.002401875667831342 0 0 0 0
4482600 0.9603674978929745 -0.006397889327683879 0.03918069875788431 0.0023187445461679787 0 0 0 0
4542500 0.9605294946698036 -0.0070240428150317984 0.039163191370188005 0.0024199675656865873 0 0 0 0
4602400 0.960529326734407 -0.006293887745062573 0.03919367606297528 0.0023716932586353855 0 0 0 0
4662300 0.9608363851653957 -0.006565900633885037 0.03919695658829539 0.0023222362648650844 0 0 0 0
4722200 0.9611880031995749 -0.00621130197417676 0.03920267006034964 0.002288476972258262 0 0 0 0
4782100 0.9605528860115505 -0.006402798916840241 0.03917253098642034 0.0023345311319137576 0 0 0 0
4842000 0.9612912486920315 -0.006958374260215928 0.039181090676351976 0.0022935515792367133 0 0 0 0
4901900 0.9616801994907681 -0.006500353645672559 0.03918939510515142 0.0023670980226150663 0 0 0 0
4961800 0.9618846158763672 -0.007129677568808097 0.039242661808500404 0.002266207255958069 0 0 0 0
5021700 0.961517725590868 -0.007179391849164982 0.039208893403550334 0.0023274148866776674 0 0 0 0
5081600 0.9608231993020724 -0.007653632831114792 0.03918730494344118 0.002320362701186464 0 0 0 0
5141500 0.9618885181186461 -0.006998568911531109 0.03920171977117745 0.002341150594658661 0 0 0 0
5201400 0.9618377898983211 -0.007273809124069098 0.0392114688912263 0.002332205605494875 0 0 0 0
5261300 0.9621149043855839 -0.007100345421562079 0.039237881287356884 0.00227412432123045 0 0 0 0
5321200 0.9610233062406968 -0.007763591327646425 0.03916036950089369 0.0022730102741460685 0 0 0 0
5381100 0.9609335059903394 -0.007941715786371909 0.0392238156052854 0.0022721072434499423 0 0 0 0
5441000 0.9612187774075467 -0.007963110224847641 0.03920379103724559 0.0022578559522469393 0 0 0 0
5500900 0.9611969465112062 -0.007745857474132384 0.03914819501887815 0.0023054119693187436 0 0 0 0
5560800 0.9612418752768614 -0.008501895954289893 0.03915352099280179 0.002284415726351586 0 0 0 0
5620700 0.9617814750175643 -0.007385250326942724 0.039243932475658584 0.0023546427681553467 0 0 0 0
5680600 0.9610014791783191 -0.008401007718741044 0.039202490728182306 0.0022652123633235305 0 0 0 0
5740500 0.9609706090260342 -0.00829242535144788 0.03918609317070385 0.0024167373339399863 0 0 0 0
5800400 0.9607596629616488 -0.008137108339951052 0.03927319671365835 0.0023498576084685814 0 0 0 0
5860300 0.960659282882246 -0.008554482316332764 0.039218076435044165 0.002317358609834165 0 0 0 0
5920200 0.9611357684931835 -0.008462418948034277 0.03925482087386397 0.0022895187486327287 0 0 0 0
5980100 0.9607529500030572 -0.007847908569396855 0.039276602484065164 0.0022354360860602765 0 0 0 0
6040000 0.9610876079790859 -0.00839798981511111 0.03934076651720925 0.0022767197085971987 0 0 0 0
6099900 0.9608222956151568 -0.008626205826176033 0.039244503165514234 0.0022498085745601614 0 0 0 0
6159800 0.9611612244789282 -0.008311733909612292 0.0392893295100613 0.002252188119341214 0 0 0 0
6219700 0.9606776804532916 -0.008297067309561618 0.039321546712122915 0.0022079940054945016 0 0 0 0
6279600 0.9609475281896395 -0.008461171640590612 0.03928962205296087 0.0022486380105317667 0 0 0 0
6339500 0.9614562076210017 -0.008742892101217523 0.039356741418673465 0.0021971524698351503 0 0 0 0
6399400 0.9611080488134954 -0.008817718458252915 0.03931919858211239 0.002174468286026491 0 0 0 0
6459300 0.9607169287553976 -0.008778483142227423 0.03926664472809205 0.0022025509483272875 0 0 0 0
6519200 0.9604348872125433 -0.009201705812826194 0.03927137186773979 0.00220147621856959 0 0 0 0
6579100 0.9609817223664816 -0.009347129630271287 0.03923645148170807 0.002095677728381368 0 0 0 0
6639000 0.9607076328399146 -0.008779951030130741 0.03928712008842619 0.0021633925580445464 0 0 0 0
6698900 0.9608180771282537 -0.009440400705869205 0.039299454950733226 0.0022450508076592756 0 0 0 0
6758800 0.9608529655567465 -0.009075023309124113 0.03919524716954141 0.002202683078700617 0 0 0 0
6818700 0.9610348921549102 -0.009494299773642141 0.03923206858648668 0.002199158326429953 0 0 0 0
6878600 0.9607636954962093 -0.009272925430587517 0.03929010469369127 0.0021999948978797253 0 0 0 0
6938500 0.9610838844910032 -0.009719493645443578 0.03933419257382424 0.0022850733840995 0 0 0 0
6998400 0.9608340724700338 -0.01026403541373571 0.03928339148306869 0.0021660221562556474 0 0 0 0
7058300 0.960990884823387 -0.009262009734780507 0.03930246505626602 0.002115002901573666 0 0 0 0
7118200 0.9609498632719322 -0.00958011318723908 0.03926704180211695 0.002153990846519338 0 0 0 0
7178100 0.9602429950206492 -0.009527153488354832 0.03924045042516547 0.002159265543217393 0 0 0 0
7238000 0.9609065775431436 -0.009396082580255549 0.039261288165736576 0.002168703741427547 0 0 0 0
7297900 0.9605068665815619 -0.010208421545790448 0.039258433334228925 0.002146130078697698 0 0 0 0
7357800 0.9605898343916437 -0.010316750159901921 0.039293445615809094 0.0020798106757779 0 0 0 0
7417700 0.9610046311004211 -0.009726021733957629 0.039324082799402756 0.002103992622369582 0 0 0 0
7477600 0.961326249536414 -0.009879392613940084 0.0393085560427154 0.0021993083572679614 0 0 0 0
7537500 0.9611471137860287 -0.010353855980299713 0.039336478856280784 0.0021752098892881297 0 0 0 0
7597400 0.9609267083691064 -0.010526601543257396 0.039344123021456325 0.0021229151739868644 0 0 0 0
7657300 0.9608548482911095 -0.010457480571789066 0.03933201758575815 0.002199153734593003 0 0 0 0
7717200 0.9615640492475563 -0.009880604940006093 0.03929217186721416 0.0021895562597127223 0 0 0 0
7777100 0.9609955556249021 -0.01054308580757686 0.039259857479404164 0.002180299420714552 0 0 0 0
7837000 0.9613714220226833 -0.01033376253053448 0.039260278683427234 0.0021591658334172404 0 0 0 0
7896900 0.9611232610241743 -0.010253921979783314 0.03934815095836877 0.0021396780828373705 0 0 0 0
7956800 0.9611155277220658 -0.010705861799703637 0.03930128092154911 0.002156663087044592 0 0 0 0
8016700 0.960986920186029 -0.01092757037965851 0.039272970922966347 0.0021384366404364223 0 0 0 0
8076600 0.960705908016159 -0.01104545902454762 0.03934920552564629 0.002109848318407417 0 0 0 0
8136500 0.9609590367012659 -0.011071151576908874 0.03930844219914742 0.0021460773531578542 0 0 0 0
8196400 0.9605722120377382 -0.011370112716001286 0.03930688081855175 0.0020758189538768873 0 0 0 0
8256300 0.9614174161112642 -0.011408558882740633 0.0392540834545159 0.0021065518503968995 0 0 0 0
8316200 0.9609321556389965 -0.01160912116833579 0.03925696534720634 0.0020727624024699377 0 0 0 0
8376100 0.9611199938130766 -0.011527691966162698 0.039318275091848556 0.0020274311005980105 0 0 0 0
8436000 0.9606715616182497 -0.011868770765250461 0.03928466333571098 0.002138444819919191 0 0 0 0
8495900 0.9606935439301957 -0.011818763005065467 0.039228103275697444 0.0020745064846408854 0 0 0 0
8555800 0.9609639939146114 -0.011932026552250605 0.0392806788170868 0.0020589971221581832 0 0 0 0
8615700 0.9611017560176872 -0.01214996030600844 0.039357750421738065 0.0020100286293091444 0 0 0 0
8675600 0.9606584780276972 -0.011688267933403662 0.0393395064478451 0.0020370218095210014 0 0 0 0
8735500 0.9608908572027286 -0.012397769612319762 0.03937603907139635 0.002052100782112677 0 0 0 0
8795400 0.9614273084094369 -0.012130105212849499 0.03933044630706155 0.0019802349847714805 0 0 0 0
8855300 0.9613109591453487 -0.01280787039207683 0.039374784097920446 0.00197723146169009 0 0 0 0
8915200 0.9606501890812132 -0.012331259470460544 0.03929703578570923 0.0019882366706141367 0 0 0 0
8975100 0.9607551402009139 -0.012215254553256066 0.03930216064399862 0.0020009867979010397 0 0 0 0
9035000 0.9613433700606132 -0.01254613477206297 0.03930072954339017 0.001970657466245587 0 0 0 0
9094900 0.9614537938901865 -0.011947172120967648 0.039297005421495494 0.002004498351031803 0 0 0 0
9154800 0.9616471809016587 -0.012243164584154956 0.039367593754739534 0.002021352987264221 0 0 0 0
9214700 0.9606742335489089 -0.01285092124468527 0.03932534670041617 0.0020009371586791527 0 0 0 0
9274600 0.9614270036955633 -0.012950578512405362 0.039386569000376924 0.0019914987968998907 0 0 0 0
9334500 0.9612042395510783 -0.013055960256706384 0.039388283085035475 0.001906850897993579 0 0 0 0
9394400 0.9607463319813551 -0.01259624850337836 0.039354272993916056 0.0020213583549436925 0 0 0 0
9454300 0.9615432869776004 -0.012878544850152912 0.039400465353589195 0.0020104901884513623 0 0 0 0
9514200 0.961054024234937 -0.013311897080408308 0.03939805995553495 0.002045202574774359 0 0 0 0
9574100 0.961200475115142 -0.013273214073522211 0.03937048675252831 0.001993492588225531 0 0 0 0
9634000 0.9603079524644544 -0.01286723944582615 0.039360063788041515 0.0019582548421984538 0 0 0 0
9693900 0.9601583480552912 -0.013141228255370889 0.03932711389855807 0.001945842388761511 0 0 0 0
9753800 0.9606748066059765 -0.01286883659317084 0.03937448726698058 0.0019753744367259534 0 0 0 0
9813700 0.9609010104021093 -0.013909239814983446 0.0393862653799376 0.001940948400698486 0 0 0 0
9873600 0.9605186146758541 -0.01390549435908986 0.03932599265857497 0.001968745359286553 0 0 0 0
9933500 0.9604527941735478 -0.014184950964794513 0.03939924577046438 0.0019115859169783838 0 0 0 0
9993400 0.9602269114124894 -0.01396945848464909 0.039325193208726864 0.0018956007818473125 0 0 0 0
10053300 0.9609991032153369 -0.014017045110353087 0.03932697888554968 0.001955567148946154 0 0 0 0
10113200 0.9610787406001396 -0.014308551457881692 0.03932950208420745 0.0018248797388200101 0 0 0 0
10173100 0.9613036376557206 -0.014185325258471375 0.03933206658381102 0.0019456190092339849 0 0 0 0
10233000 0.9617814729263873 -0.013788254479421311 0.039288339479597936 0.0019076068539293724 0 0 0 0
10292900 0.9605671992713876 -0.014141756043592848 0.039326488136860495 0.001890902316154285 0 0 0 0
10352800 0.9610023996883407 -0.014619657172896296 0.03939761188372449 0.0018761356289594498 0 0 0 0
10412700 0.9612224505338021 -0.014215367429108857 0.03937009503338952 0.001963853537719813 0 0 0 0
10472600 0.9606007220083379 -0.014551502041309339 0.03941530999087946 0.0018045811361553734 0 0 0 0
10532500 0.9609351091363612 -0.014386375603476647 0.03940136990716887 0.001867709364455862 0 0 0 0
10592400 0.9606782416470465 -0.01498119827894922 0.03942821139458269 0.001780973162313633 0 0 0 0
10652300 0.9610288635042783 -0.014649450245481262 0.03941468005894705 0.0018391315421628827 0 0 0 0
10712200 0.9607744042042338 -0.015211439727013682 0.03945187166044581 0.0018352646205999962 0 0 0 0
10772100 0.9613658836870806 -0.014886017605816922 0.03949853069201641 0.0017832761510867838 0 0 0 0
10832000 0.9613181859819805 -0.015067726887086935 0.03942575086004551 0.0017785546309382972 0 0 0 0
10891900 0.960853432191683 -0.01571009805892762 0.03943668982869741 0.001839494806593297 0 0 0 0
10951800 0.9616026808504355 -0.01569012246560853 0.03945161900928308 0.0017506079903758243 0 0 0 0
11011700 0.9613246562244117 -0.016057982146875965 0.03941913210734205 0.00177882443632661 0 0 0 0
11071600 0.9611525001189154 -0.015310251596655581 0.039429529609580106 0.0018179263549869223 0 0 0 0
11131500 0.9608077014618553 -0.01542567502432368 0.039338024360358846 0.0017914113784853673 0 0 0 0
11191400 0.9608712428041858 -0.015295668863257044 0.039458400998282586 0.001828263291028976 0 0 0 0
11251300 0.9613371702398968 -0.0154598341263369 0.03942061326095976 0.0017817016368219915 0 0 0 0
11311200 0.9615208175468879 -0.01599700940935707 0.03944631776959453 0.0018313197697493225 0 0 0 0
11371100 0.9608438223125978 -0.015659468016341202 0.03934980177166783 0.0018333508418577826 0 0 0 0
11431000 0.9611292729621879 -0.016546116626096695 0.03949559704760708 0.0017227866407583487 0 0 0 0
11490900 0.9603826678981757 -0.016023623444187358 0.0395159695861568 0.001692539273490595 0 0 0 0
11550800 0.9612104544394352 -0.01591240744087037 0.03940243498896175 0.0017808612310866176 0 0 0 0
11610700 0.9611196316253144 -0.017243182952711364 0.03939603266032117 0.0017335990820347424 0 0 0 0
11670600 0.9605421529070486 -0.016628977530639858 0.0394307169253424 0.001739526576792424 0 0 0 0
11730500 0.9607375622405568 -0.016658709470411957 0.03936858748785973 0.0017672759771106407 0 0 0 0
11790400 0.9613571352003195 -0.01686544711082787 0.03937241501250428 0.0017453428739929112 0 0 0 0
11850300 0.9605316597418496 -0.01672878755794258 0.03934507540132193 0.001702113487697257 0 0 0 0
11910200 0.9612828814403379 -0.01642883441144134 0.03939042888276943 0.0017872750882023218 0 0 0 0
11970100 0.9606567214412469 -0.01685120143951527 0.039397143745893065 0.0017146887078528907 0 0 0 0
