# HZ S RI R 50
50000 -0.9647167395804773 0.16393445040943008 -0.002664993563496885 -0.023713482127760883 0 0 0 0
109900 -0.8663069804677481 0.34389986173852893 -0.014309747435333383 -0.047358912825476746 0 0 0 0
169800 -0.7370141891961053 0.44733329264462435 -0.03145679441030281 -0.06345960498886734 0 0 0 0
229700 -0.6062745580924032 0.49547806957911494 -0.049319888325591164 -0.07168859206643473 0 0 0 0
289600 -0.4917980270205398 0.5066931144500345 -0.06502711893789442 -0.0744659412582322 0 0 0 0
349500 -0.3971662094039047 0.49506200256645283 -0.07787333741165588 -0.07358140240842592 0 0 0 0
409400 -0.32004459462473017 0.4733834244002823 -0.08875892969270216 -0.07173869219256925 0 0 0 0
469300 -0.2591842662686926 0.4464808560675611 -0.0262433151302935 0.01759358005773053 0 0 0 0
529200 -0.21350384417263008 0.42140659262059255 -0.1054021365798015 -0.06123690009489897 0 0 0 0
589100 -0.17586478740810782 0.39257639198450345 -0.11059728843750598 -0.05774907357491818 0 0 0 0
649000 -0.1458794348024302 0.36533282029872893 -0.11480848240374127 -0.054504691048494175 0 0 0 0
708900 -0.12260790610319633 0.33898726964885967 -0.11840307733270114 -0.05141371779954909 0 0 0 0
768800 -0.10265648195053499 0.3145896596218862 -0.12106503842192712 -0.04825694408652814 0 0 0 0
828700 -0.08779784646029855 0.29308798612695025 -0.12324092941764547 -0.045510983084983844 0 0 0 0
888600 -0.07575026401086256 0.27174629283255824 -0.12459928699164473 -0.042803063917143454 0 0 0 0
948500 -0.06596667012740293 0.2534684523109178 -0.12603939900754704 -0.040624175399262184 0 0 0 0
1008400 -0.0577779366977333 0.236079237529244 -0.12745813909265594 -0.03828980114330594 0 0 0 0
1068300 -0.05208026885386746 0.22023627008835361 -0.1284807401755617 -0.036292116543198305 0 0 0 0
1128200 -0.047243577310789424 0.20600637104492603 -0.1291718297075714 -0.0344995517740104 0 0 0 0
1188100 -0.04356186220167569 0.19250766922066195 -0.12967893154935034 -0.03293545186331237 0 0 0 0
1248000 -0.04028803790121161 0.18076904172238317 -0.13028096496104538 -0.03124628382068818 0 0 0 0
1307900 -0.038127331873806604 0.17002959662440426 -0.13064545537639707 -0.03002321121053298 0 0 0 0
1367800 -0.03618718468983126 0.16024293836339404 -0.13096834195963647 -0.028787255749024715 0 0 0 0
1427700 -0.03503767838492973 0.151059667403684 -0.13118740725063655 -0.027691018140013183 0 0 0 0
1487600 -0.03295051120183642 0.14321820444697728 -0.13145453691719655 -0.02643046829236952 0 0 0 0
1547500 -0.03308862053370045 0.13532033713865468 -0.13164631058426168 -0.02555950079721859 0 0 0 0
1607400 -0.03236139813391174 0.12795565051370505 -0.13188580701262237 -0.024723530904781552 0 0 0 0
1667300 -0.0317871087210961 0.12144281989550379 -0.13185450804491494 -0.02392099672865475 0 0 0 0
1727200 -0.031044772360094595 0.11537592401815683 -0.13202133362068905 -0.023111148105537514 0 0 0 0
1787100 -0.03105486675893993 0.10953631173573189 -0.13198860458196382 -0.022387248742433107 0 0 0 0
1847000 -0.029724216020114713 0.10436071746435469 -0.13225389502885182 -0.021588352204664804 0 0 0 0
1906900 -0.03011317875808185 0.09891950015501329 -0.13227352715715884 -0.021106424731850544 0 0 0 0
1966800 -0.029637428087916376 0.09395852189031119 -0.13255452866773326 -0.020383860353863453 0 0 0 0
2026700 -0.029350665476573265 0.08916835457853317 -0.13259666923430283 -0.0199259812523977 0 0 0 0
2086600 -0.028876501141385222 0.08433705678608241 -0.1325761334056204 -0.019620975946986554 0 0 0 0
2146500 -0.029032488908424515 0.07976631744418282 -0.13256596286448438 -0.01899816373656646 0 0 0 0
2206400 -0.028575999056560813 0.07630870224309812 -0.1328380934249698 -0.018489884108643294 0 0 0 0
2266300 -0.029014941151962743 0.07301682056277604 -0.1329260052584586 -0.01816540001557123 0 0 0 0
2326200 -0.028285606285668907 0.06883210106579837 -0.13290901007597877 -0.01766816231676951 0 0 0 0
2386100 -0.028391621934977355 0.06544867138631358 -0.13271801818713724 -0.017204471529266258 0 0 0 0
2446000 -0.028247998372870013 0.06172717510135114 -0.13299610788792054 -0.01692104302032127 0 0 0 0
2505900 -0.028299892552363936 0.05869139017316043 -0.13302108977397817 -0.016449287389362858 0 0 0 0
2565800 -0.028228708603493455 0.05516889014940161 -0.13298893100391998 -0.01622452067608562 0 0 0 0
2625700 -0.02823508256203253 0.052246005495364393 -0.13305164212103868 -0.015876191023485114 0 0 0 0
2685600 -0.028339255420512757 0.04941161339054708 -0.13317308233582031 -0.015527984058493762 0 0 0 0
2745500 -0.02830612960562364 0.0467564396070468 -0.13317197091344413 -0.015213268253976779 0 0 0 0
2805400 -0.028422214005677026 0.04401977974255359 -0.13320369969468368 -0.014848441864495741 0 0 0 0
2865300 -0.028697647202651284 0.04138067652352326 -0.1331702544064287 -0.014696655459623438 0 0 0 0
2925200 -0.028833983677775954 0.038872201737935694 -0.13315480676657915 -0.014479845502217975 0 0 0 0
2985100 -0.0291320176114032 0.036352770967837275 -0.13323744313899585 -0.0142378391613576 0 0 0 0
3045000 -0.029114749312719877 0.03408276674715207 -0.13330049396330146 -0.013922819008405063 0 0 0 0
3104900 -0.02918275315642304 0.031645191712021126 -0.13334307397417622 -0.013715990094626845 0 0 0 0
3164800 -0.0297754057203513 0.029089949724291287 -0.13337760958731923 -0.013607839175168618 0 0 0 0
3224700 -0.029616011519492124 0.02678092840278985 -0.13339787176827508 -0.013332099236787742 0 0 0 0
3284600 -0.02959243241831335 0.024655262864540672 -0.13349717138081613 -0.01287029567785911 0 0 0 0
3344500 -0.030023710428183907 0.02193797538855282 -0.13349723657314957 -0.012829567392043799 0 0 0 0
3404400 -0.030027525478768042 0.01996960173550928 -0.13362451793046287 -0.01249080527325307 0 0 0 0
3464300 -0.030336667303040587 0.018304940327270206 -0.1337145261386864 -0.012317230415987491 0 0 0 0
3524200 -0.030314354161339888 0.016198042867064995 -0.1335161399017227 -0.012236490030593083 0 0 0 0
3584100 -0.0307966795670411 0.014399696776065247 -0.13343080856217826 -0.012021389915505753 0 0 0 0
3644000 -0.03130638209980885 0.012468102664352596 -0.1335339384304436 -0.011845215178921014 0 0 0 0
3703900 -0.03136958748346366 0.010413964065539244 -0.13359230968266667 -0.01170435692247327 0 0 0 0
3763800 -0.03157378427685269 0.00864837458997252 -0.13368341638330722 -0.01146741080878019 0 0 0 0
3823700 -0.03162961919160799 0.007089064423575819 -0.13359234402285058 -0.01128548056957858 0 0 0 0
3883600 -0.03248473268191185 0.0048945271546274646 -0.1336055844000844 -0.011082422329913891 0 0 0 0
3943500 -0.032569576705631376 0.0031573216156584078 -0.13364778001132918 -0.011043268973940869 0 0 0 0
4003400 -0.03286098913571755 0.0015306429363094141 -0.13377265282825423 -0.01063878623409624 0 0 0 0
4063300 -0.03308958753219851 -0.0001978005747697063 -0.13386223221813956 -0.010449864905536845 0 0 0 0
4123200 -0.03364178328118842 -0.0020689787283180087 -0.13386677497063582 -0.010392861931248453 0 0 0 0
4183100 -0.033869069318957945 -0.003749440352413467 -0.13383681136711764 -0.010058877039262311 0 0 0 0
4243000 -0.03433208746769569 -0.005171660039177036 -0.13388552681507504 -0.010027803453795522 0 0 0 0
4302900 -0.03434158475739816 -0.006770700694224719 -0.13393395346580284 -0.00985616489224488 0 0 0 0
4362800 -0.034706279940063686 -0.008257146930688387 -0.13397038436893546 -0.009631386594080372 0 0 0 0
4422700 -0.03514988402240152 -0.010010303256645295 -0.13400780914865126 -0.00956364865410944 0 0 0 0
4482600 -0.03571751739739455 -0.011797796950230746 -0.13395260381235563 -0.009292160195430794 0 0 0 0
4542500 -0.036416636875675715 -0.013056027383947321 -0.1339898875872687 -0.009458643308349291 0 0 0 0
4602400 -0.03661559312931038 -0.01478345795165714 -0.13401845450144065 -0.00923453824591172 0 0 0 0
4662300 -0.03696389120450102 -0.016118278307289895 -0.13398050565908656 -0.008947890061347502 0 0 0 0
4722200 -0.0373371710809198 -0.018064028644748462 -0.13398013724573243 -0.00889053718897756 0 0 0 0
4782100 -0.03802392878586969 -0.019545335674280146 -0.13392262210996575 -0.008778095885347673 0 0 0 0
4842000 -0.0382273505374227 -0.02129558156046361 -0.13390450633052736 -0.008585864917581534 0 0 0 0
4901900 -0.03866768868221839 -0.022459750345117036 -0.13404213050846941 -0.008397141461716362 0 0 0 0
4961800 -0.03917019324272875 -0.02419871236899297 -0.13407385769787397 -0.008285149007710484 0 0 0 0
5021700 -0.039718924881724404 -0.025925884582934596 -0.13410245966265474 -0.00816809009281679 0 0 0 0
5081600 -0.03949255740537102 -0.027388073042000475 -0.13429262563923222 -0.007924345488337283 0 0 0 0
5141500 -0.0402755122473041 -0.028639773904989143 -0.134195939273786 -0.007839346714318539 0 0 0 0
5201400 -0.04063603517300447 -0.030098469802653433 -0.13420135106345138 -0.007646149093516762 0 0 0 0
5261300 -0.041033942599613855 -0.03147486522047059 -0.13424535452941438 -0.0075840074689246155 0 0 0 0
5321200 -0.04190870129723223 -0.03314759576492686 -0.13421516414862258 -0.007373908909962676 0 0 0 0
5381100 -0.04251737917662489 -0.03439823038877006 -0.13426574012975923 -0.0074743285954743275 0 0 0 0
5441000 -0.04286723710054354 -0.035652445044630464 -0.13418323216823577 -0.007353947384024948 0 0 0 0
5500900 -0.043702167529395215 -0.037041923093786636 -0.13414558806454122 -0.006944687884891665 0 0 0 0
5560800 -0.044302041153600716 -0.03844912257258161 -0.13417965496592094 -0.007123009449529411 0 0 0 0
5620700 -0.0449633038250661 -0.039931048876163916 -0.13417990306363264 -0.006996822868395293 0 0 0 0
5680600 -0.04534566047018753 -0.04091870445593091 -0.13425949266006673 -0.0068340449739497594 0 0 0 0
5740500 -0.04590578269834291 -0.04215140502572482 -0.13425611770512402 -0.00660189369437938 0 0 0 0
5800400 -0.04636851480961676 -0.04350946597632173 -0.13417753480823338 -0.006538462832606986 0 0 0 0
5860300 -0.04717466827025213 -0.045251359372709354 -0.1342192871061619 -0.006339742351269089 0 0 0 0
5920200 -0.047918296448295324 -0.046323704536923686 -0.13427363768421618 -0.006157133622208789 0 0 0 0
5980100 -0.04858212182172915 -0.04776987068463799 -0.13442014823450368 -0.006058410778793652 0 0 0 0
6040000 -0.04948473991595954 -0.04921496442720884 -0.13422137581882745 -0.0060267218912761775 0 0 0 0
6099900 -0.05026362557020436 -0.050541267093720775 -0.1343054529363151 -0.005864237685827804 0 0 0 0
6159800 -0.05083168914370772 -0.051566168598664024 -0.13425913181563187 -0.005848741735738494 0 0 0 0
6219700 -0.05133238957440676 -0.05269144463818235 -0.13424137615121373 -0.005596492966595869 0 0 0 0
6279600 -0.051868465569281506 -0.05368750163213012 -0.1342724237706896 -0.0054206461805413565 0 0 0 0
6339500 -0.05259000444278769 -0.05512667674739378 -0.13445787695361414 -0.005145877908083938 0 0 0 0
6399400 -0.05328012579242868 -0.05671223243341133 -0.13427258468681577 -0.005107259495096758 0 0 0 0
6459300 -0.05410515084043753 -0.05798005858762916 -0.13426189365923258 -0.005122808175531892 0 0 0 0
6519200 -0.05513352956433898 -0.059147781810845616 -0.1342488987401438 -0.005062661383906741 0 0 0 0
6579100 -0.056138892329192336 -0.06022917702791991 -0.13431169370550058 -0.004921779031831624 0 0 0 0
6639000 -0.0567310769748176 -0.06106483257939809 -0.1343815048994681 -0.004791544054579381 0 0 0 0
6698900 -0.057735568544666376 -0.06281131609767472 -0.13446219007710788 -0.004741214061581053 0 0 0 0
6758800 -0.05826865869166458 -0.06355685658858987 -0.13432628397317065 -0.004526944198324729 0 0 0 0
6818700 -0.059218757579928644 -0.06470174207939047 -0.13437526625925447 -0.0045093410073260886 0 0 0 0
6878600 -0.06009689629503577 -0.06574435140239404 -0.13434935502611858 -0.004367936933807124 0 0 0 0
6938500 -0.06034087448323635 -0.06752013879798653 -0.13411968674052827 -0.0041803002412752555 0 0 0 0
6998400 -0.06154685119048596 -0.06883433541190047 -0.13441074176154544 -0.003941124226025372 0 0 0 0
7058300 -0.06236895760660731 -0.07008316660746074 -0.1342302789309089 -0.003972085486494534 0 0 0 0
7118200 -0.06305024822336983 -0.0714068211359446 -0.1342861935244583 -0.00380962537661235 0 0 0 0
7178100 -0.06413667039784464 -0.07324170528167831 -0.1342783970390176 -0.003979150058028779 0 0 0 0
7238000 -0.06500710271203065 -0.07365908033691095 -0.13432686682195827 -0.0037730168346965624 0 0 0 0
7297900 -0.06538506825153752 -0.07539597296801705 -0.13430999993829246 -0.0036452648478848397 0 0 0 0
7357800 -0.06627601585629735 -0.07616848276959465 -0.1343857564661419 -0.0035386065068205063 0 0 0 0
7417700 -0.06742997938966261 -0.07742774011916492 -0.13442813626459696 -0.0034413904148384586 0 0 0 0
7477600 -0.06898051499777114 -0.07824161246544929 -0.13422953944161548 -0.0034141670003668668 0 0 0 0
7537500 -0.06890646439950213 -0.0795801679150172 -0.13428275121446165 -0.003083799485028756 0 0 0 0
7597400 -0.07028100778048674 -0.08047472347710749 -0.1342036775925425 -0.0030765880203176793 0 0 0 0
7657300 -0.07104609223881604 -0.08184801551558667 -0.13422924254124602 -0.0030596054678218238 0 0 0 0
7717200 -0.0718411294166771 -0.0834240668442773 -0.13427077949375163 -0.002858382877505704 0 0 0 0
7777100 -0.07270225939203717 -0.08439257170505544 -0.13419724552213566 -0.00282396535317207 0 0 0 0
7837000 -0.07401952029749584 -0.08502610733431991 -0.1339771497681457 -0.0027114763387541384 0 0 0 0
7896900 -0.07499065728728226 -0.08616327114030423 -0.1340305934188761 -0.002676854801551629 0 0 0 0
7956800 -0.07578278570465917 -0.08720433240603395 -0.13422210586190847 -0.0025686449887890998 0 0 0 0
8016700 -0.07720517916801153 -0.08835285426329412 -0.13424912844992518 -0.002264830662797848 0 0 0 0
8076600 -0.07796258317656804 -0.08888629952294935 -0.13414128494311361 -0.0023337778231996417 0 0 0 0
8136500 -0.07911229696000555 -0.09012645776908917 -0.13416942701148404 -0.0021067957152370287 0 0 0 0
8196400 -0.08040734371493656 -0.09077386453218565 -0.134164566112038 -0.0017516765425997446 0 0 0 0
8256300 -0.08099617800056746 -0.09187243892020938 -0.13419078742370727 -0.0020287845465011486 0 0 0 0
8316200 -0.08177966584035637 -0.09314007320375374 -0.13410532054637872 -0.0017110162933852739 0 0 0 0
8376100 -0.08278984122547413 -0.09371461710263561 -0.13418281438249718 -0.001783657934012281 0 0 0 0
8436000 -0.08433735947052086 -0.0953065068824868 -0.13401904944613097 -0.0014841602653069158 0 0 0 0
8495900 -0.08550312050228683 -0.09575538795957558 -0.1339288693477549 -0.0015903193718459204 0 0 0 0
8555800 -0.08694157293427202 -0.09692101334367118 -0.13394567903843366 -0.0015327958772972028 0 0 0 0
8615700 -0.0873389972798636 -0.09739062396051497 -0.1340365667841872 -0.0014806753449203211 0 0 0 0
8675600 -0.08870747802400454 -0.09852484703673967 -0.13414779238329377 -0.0011678057921978278 0 0 0 0
8735500 -0.09000864933666308 -0.09970868579848154 -0.13405269139032647 -0.0010357551657202467 0 0 0 0
8795400 -0.09046813503199419 -0.10075773292058204 -0.13379271556346534 -0.0012403218421421342 0 0 0 0
8855300 -0.09193101645272363 -0.10226100455387607 -0.13383797695204103 -0.0012801674801549954 0 0 0 0
8915200 -0.09286250863664533 -0.10294319049863827 -0.1338736232092873 -0.0009672050189011597 0 0 0 0
8975100 -0.09402686129388796 -0.10392083957177087 -0.1338412174348937 -0.0008580798300889287 0 0 0 0
9035000 -0.09558124914438201 -0.10414660464148989 -0.1339599257717058 -0.0006764026666180778 0 0 0 0
9094900 -0.0965951349255977 -0.10478206970931844 -0.1340878320235714 -0.0003769251005886806 0 0 0 0
9154800 -0.09821214009090125 -0.10567554869385043 -0.1338122647745113 -0.0003318520813206875 0 0 0 0
9214700 -0.09912771651320618 -0.10651467874105734 -0.13383263976167944 -0.00028693600901148167 0 0 0 0
9274600 -0.10070290514158553 -0.10727874982473364 -0.13364196531006914 -0.00028030657275063503 0 0 0 0
9334500 -0.10175083821645552 -0.1080338391110514 -0.1337615284767322 -4.3517383046877064e-05 0 0 0 0
9394400 -0.10261025997766712 -0.10820336970318035 -0.13389955121685615 -3.5522445824597145e-05 0 0 0 0
9454300 -0.10376477687937544 -0.10927359286182722 -0.13376718827316178 3.0968077386805005e-05 0 0 0 0
9514200 -0.10500923676554078 -0.10983618045869568 -0.13380018297995663 0.0003802494647548783 0 0 0 0
9574100 -0.10654622123352882 -0.11069328644637876 -0.13376156574001355 0.00040813650511656134 0 0 0 0
9634000 -0.10772981387658795 -0.1115336333392214 -0.13372370484352444 0.0006423395784209255 0 0 0 0
9693900 -0.10901357910108028 -0.1126719380035933 -0.13375396032154646 0.0005806845393893987 0 0 0 0
9753800 -0.11043376594649465 -0.11290948631395235 -0.13372301472638629 0.0005730716758457946 0 0 0 0
9813700 -0.11179045492010878 -0.11435660184450898 -0.13358473946002666 0.0005308611036861826 0 0 0 0
9873600 -0.11273279685784114 -0.11538679639036975 -0.13347792071288297 0.0005801019183618232 0 0 0 0
9933500 -0.11451263277723177 -0.11576571818273886 -0.13358838022650665 0.0006726114154572693 0 0 0 0
9993400 -0.11552642709097702 -0.11650158936457196 -0.13352174606718714 0.0007695137191686976 0 0 0 0
10053300 -0.11671485415454555 -0.11673620272539983 -0.13358547127462134 0.0008330256990554544 0 0 0 0
10113200 -0.11846134581665213 -0.11748090037994338 -0.1335627564220616 0.0009850655271974322 0 0 0 0
10173100 -0.11913556246756671 -0.11800856092932499 -0.13342704023887855 0.0011224304998226744 0 0 0 0
10233000 -0.11992914563419242 -0.11905855724809714 -0.13334306396399526 0.0010301721378365041 0 0 0 0
10292900 -0.12167314328368656 -0.11920740376005781 -0.13352349326846744 0.001432378382571277 0 0 0 0
10352800 -0.12374210827373504 -0.119883990775287 -0.13334147564406287 0.0013432139970408915 0 0 0 0
10412700 -0.12424817372563109 -0.12111413162080688 -0.13328722568575518 0.0013713884787026152 0 0 0 0
10472600 -0.12621038529218756 -0.12148794056506078 -0.13337751173598195 0.0016277373131279539 0 0 0 0
10532500 -0.12716436097309738 -0.12207138540727346 -0.1332635935413871 0.0016730577549758448 0 0 0 0
10592400 -0.12826537486939502 -0.12291195528980194 -0.133096308586236 0.001626428813906137 0 0 0 0
10652300 -0.1301800294387698 -0.12288326426377698 -0.13337326160871468 0.00196372965033938 0 0 0 0
10712200 -0.13141387625323664 -0.1230063851877933 -0.13321144324045092 0.0017982775836504193 0 0 0 0
10772100 -0.13263019100482068 -0.12372130402179461 -0.13318786189521292 0.0021644939854642492 0 0 0 0
10832000 -0.1337887614989339 -0.1243328117870186 -0.1329068060746615 0.0020526100394231443 0 0 0 0
10891900 -0.13553212757293284 -0.12493181052806765 -0.13310156441313784 0.0021642015837616286 0 0 0 0
10951800 -0.13736527020787326 -0.1256038826530855 -0.13316312840551753 0.0022906864373926526 0 0 0 0
11011700 -0.13861444008560342 -0.12637747983955738 -0.13311586568854814 0.00224503398669081 0 0 0 0
11071600 -0.14034653521171706 -0.1269041152666299 -0.13313452035458168 0.0025558775362313152 0 0 0 0
11131500 -0.14037945137426905 -0.1273329497502508 -0.13297458045981306 0.0026970256535036913 0 0 0 0
11191400 -0.14302972491170513 -0.12793912758705817 -0.13290751104386056 0.002606443582157003 0 0 0 0
11251300 -0.14445802471122432 -0.12815187083252524 -0.132904227896177 0.0029267159705838514 0 0 0 0
11311200 -0.14572312044528982 -0.12846745834964352 -0.13282046337945896 0.0030321242578398525 0 0 0 0
11371100 -0.14718105405252813 -0.12904625826111019 -0.13286583401221777 0.0029537734523458477 0 0 0 0
11431000 -0.14863473322956383 -0.12949364537395128 -0.13291278907396473 0.003029954440065936 0 0 0 0
11490900 -0.14997018098915274 -0.13014292391695753 -0.13287801582183398 0.003085869046598856 0 0 0 0
11550800 -0.15026432984777507 -0.13068644483589964 -0.13248278905224214 0.003322648182067937 0 0 0 0
11610700 -0.15192490158111946 -0.1310544249217937 -0.1326271379150768 0.003404947958689308 0 0 0 0
11670600 -0.15375023319364736 -0.13138838995025814 -0.13258117202313588 0.0033325084176751103 0 0 0 0
11730500 -0.1559151991430324 -0.13189047000989415 -0.13274299047125412 0.0035542033017791626 0 0 0 0
