# HZ S RI R 50
50000 -0.9927456241243288 0.1691061896436856
349500 -0.4498510618011975 0.8733415288746098
649000 0.14531923471324926 0.9514113874858025
948500 0.4926330215946891 0.7979146978792132
1248000 0.6529614166528548 0.6261609897983852
1547500 0.7247201367074633 0.4963484171137966
1847000 0.7598437383186185 0.4047787641570712
2146500 0.7802963503846411 0.3371157313067214
2446000 0.7943551995577309 0.2844900413876004
2745500 0.8033987163219161 0.2427029327135042
3045000 0.8120173996787781 0.20740004478869858
3344500 0.8178907208018581 0.17777297217345775
3644000 0.8238317492102257 0.14995263920942906
3943500 0.8279021641144652 0.12621852050850674
4243000 0.8327850287541444 0.10407076592932081
4542500 0.8358081712865241 0.08355805781453515
4842000 0.8388920160966458 0.06412791466517291
5141500 0.8420487924769811 0.04551415545714585
5441000 0.8436078948683499 0.027729127252944925
5740500 0.8460977398452764 0.011136159435721346
6040000 0.8473978291213402 -0.004712457877596763
6339500 0.848858512250293 -0.02054161725749313
6639000 0.8491428241844932 -0.03633139096422026
6938500 0.8502696455787763 -0.051064627566129825
7238000 0.8501537635476633 -0.06526437329240853
7537500 0.8507260032297529 -0.07939107290236036
7837000 0.8503296116444145 -0.09458364695138201
8136500 0.8497723975939855 -0.10823554652601419
8436000 0.8494251535508265 -0.12132260399616572
8735500 0.8483894373379148 -0.13477848080604915
9035000 0.8467091404137168 -0.14822322713342373
9334500 0.8455580371944433 -0.16160627324190374
9634000 0.8435929354096457 -0.17502523200382203
9933500 0.8418209481903856 -0.18768046221112478
10233000 0.8393783027791529 -0.2002442976013672
10532500 0.8372191832122826 -0.21363197595742814
10832000 0.8338625483699525 -0.22554047167189994
11131500 0.8325124932664784 -0.2375507259169568
11431000 0.8289989183145446 -0.24912153294812805
11730500 0.8257670690777226 -0.2623234403330236
12030000 0.8217286025872771 -0.27189991596320984
12329500 0.8192925690703257 -0.28379462245283205
12629000 0.8153881376257098 -0.297510821508824
12928500 0.8106424070383603 -0.30787549863792185
13228000 0.8068376276963932 -0.3194899842978588
13527500 0.8021554909062557 -0.33095054317005784
13827000 0.7977888912767795 -0.3411157859039543
14126500 0.7939211024482491 -0.3542635937576658
14426000 0.7887698439245804 -0.3638217387216655
14725500 0.7846196082152977 -0.3760096217749681
15025000 0.7792822821710129 -0.38672245704206115
15324500 0.7734538709289787 -0.39734471666986504
15624000 0.7680129636301404 -0.40868469640965605
15923500 0.7624089375195654 -0.418141615966675
16223000 0.7565415355578534 -0.42996926918471773
16522500 0.750115445474763 -0.43840164309629576
16822000 0.7440421548129452 -0.4506350887890573
17121500 0.7380163402050267 -0.46144867805721035
17421000 0.7315772229960932 -0.4716139986610574
17720500 0.7248537852421297 -0.48124384010938964
18020000 0.7181315247578038 -0.4917548727112739
18319500 0.7106965376160885 -0.502285501153466
18619000 0.7033257415667054 -0.5117046542676229
18918500 0.6961857795294565 -0.5215225158010715
19218000 0.6879346801405766 -0.5307911061901441
19517500 0.6812060772367053 -0.5407721674826338
19817000 0.6733176870345013 -0.550634053485514
20116500 0.6655645677822796 -0.5600338927206163
20416000 0.6576351424630309 -0.5697223291672985
20715500 0.6476863484202704 -0.5786355721247518
21015000 0.6399660467997911 -0.5871498765454025
21314500 0.6303857571559056 -0.596986774459452
21614000 0.6223476833123649 -0.60493087286831
21913500 0.6129443686790379 -0.6142150075477169
22213000 0.6033059309469951 -0.6228684632736498
22512500 0.5947132837309373 -0.6314644063765408
22812000 0.5857265397332693 -0.641436443549992
23111500 0.5746782509965779 -0.6492301374036874
23411000 0.5643107764652641 -0.6569597969619344
23710500 0.5546456113094167 -0.6657193983220139
24010000 0.5436587676554225 -0.6738055975176529
24309500 0.5323668924946774 -0.6821302409351936
24609000 0.5219479798239007 -0.688378463882668
24908500 0.5116263511195732 -0.6971594090028259
25208000 0.5002949394428021 -0.7038610758248274
25507500 0.48977698179267226 -0.7116501389459491
25807000 0.4783998885759509 -0.7187422901793905
26106500 0.46582536185016965 -0.7261186599524089
26406000 0.45508606427949233 -0.7330631571947274
26705500 0.4421965113125016 -0.7391838339580221
27005000 0.4306816858060084 -0.7457332262772294
27304500 0.4193638358375801 -0.7530125030846833
27604000 0.40580769503130454 -0.7588422010743991
27903500 0.39343016591245317 -0.7653508406354931
28203000 0.37978452244783534 -0.7698262059486994
28502500 0.36743087405072944 -0.7772857478018192
28802000 0.3535631391903518 -0.7815089099297945
29101500 0.3397598693951366 -0.7855338088486661
29401000 0.32611624524864347 -0.7926534624949116
29700500 0.31337721543119745 -0.7980389402661702
30000000 0.2993635156500633 -0.8024925333762749
