# HZ S RI R 50
50000 -0.9687827338925408 0.17310622625302474 0.0029883684732018977 0.02369356092802054 0 0 0 0
109900 -0.8683363487584752 0.34311766836676766 0.014550125294989539 0.04716333984229497 0 0 0 0
169800 -0.7367964535244612 0.4466243385996232 0.03181584847988101 0.06337252016450182 0 0 0 0
229700 -0.6069327123336944 0.49540618489204064 0.049391286475648735 0.07144922723249707 0 0 0 0
289600 -0.49308278219278356 0.505158096857567 0.06540892237096033 0.07392568318328661 0 0 0 0
349500 -0.39918332309959453 0.49497087450340377 0.07847922397257341 0.07283468165723145 0 0 0 0
409400 -0.3222560728557362 0.47403603718707293 0.08952736072716888 0.0706801454448886 0 0 0 0
469300 -0.261834559747762 0.44774523905833846 0.025960131248512115 -0.017929662887900447 0 0 0 0
529200 -0.21657670825470074 0.4226302435988682 0.10577693808217911 0.05981386310531837 0 0 0 0
589100 -0.17878374893214197 0.3948331231030268 0.11101265258736706 0.056175866909929484 0 0 0 0
649000 -0.14980114838556763 0.3670441082605175 0.11571003779968847 0.05262182901729453 0 0 0 0
708900 -0.12524487248870503 0.3425324544579212 0.11891251629319567 0.049177328433678155 0 0 0 0
768800 -0.10702850942568454 0.31875982376039014 0.12162651143398369 0.04595884540319295 0 0 0 0
828700 -0.09121765784538366 0.2962232030044069 0.12357274797006064 0.042909695888406374 0 0 0 0
888600 -0.07910863130497177 0.27685477074000964 0.12566186905383978 0.04011700093099187 0 0 0 0
948500 -0.06922740374194156 0.2590954515728515 0.12709919186180155 0.037562424387470074 0 0 0 0
1008400 -0.0613020096082108 0.2419137518138074 0.1282177335989044 0.035090407458110026 0 0 0 0
1068300 -0.055116051427308244 0.2262835895040862 0.12921315872547418 0.03290481993710605 0 0 0 0
1128200 -0.0508622584449034 0.21185715890846 0.12968451998086236 0.03104053927330224 0 0 0 0
1188100 -0.04592418190473578 0.19969983357768317 0.13037733937720447 0.029091549318970147 0 0 0 0
1248000 -0.04411701050322213 0.1871220505049871 0.13078951872012037 0.027428876396557188 0 0 0 0
1307900 -0.04130805808294081 0.17769715921800058 0.131438574844966 0.025563004803324765 0 0 0 0
1367800 -0.03969802026984415 0.167698458394849 0.13174300385186619 0.02417871254529208 0 0 0 0
1427700 -0.03797712931473282 0.15918531639262865 0.1319364494683628 0.02286535047924242 0 0 0 0
1487600 -0.036878046051574624 0.15157770217621602 0.13198102455101088 0.02165462046581159 0 0 0 0
1547500 -0.0354502820486883 0.14454452325239353 0.13235325703015083 0.020438790788197585 0 0 0 0
1607400 -0.03531035778515718 0.1378167152128279 0.13245623654066743 0.0192109898979501 0 0 0 0
1667300 -0.034836262609131086 0.13150497550707957 0.13248497916404914 0.018350418748346982 0 0 0 0
1727200 -0.03411440620870728 0.1259922334762172 0.13256424574592887 0.017466506984831053 0 0 0 0
1787100 -0.03364048625590713 0.12090298812159925 0.13291498674129829 0.016467191933956352 0 0 0 0
1847000 -0.03292961118798217 0.11540753087448201 0.13294632615769145 0.01580611417633752 0 0 0 0
1906900 -0.032823730393699485 0.11071632945304634 0.1330438951401437 0.014794438088617683 0 0 0 0
1966800 -0.032057644294114285 0.10642671528306755 0.13300848310389896 0.014012189412184588 0 0 0 0
2026700 -0.03181482103954759 0.10221392324064014 0.13311947632061988 0.013375209468721144 0 0 0 0
2086600 -0.03154311641509558 0.09772820427243484 0.13326810049621915 0.012709922680597351 0 0 0 0
2146500 -0.03143726851142297 0.09382595967754243 0.13328471605410305 0.01198347623824924 0 0 0 0
2206400 -0.031044159132683487 0.09039411322518777 0.13331996148974504 0.011278528689499374 0 0 0 0
2266300 -0.03100699595561082 0.08732632190496266 0.1334168628953405 0.010741082918618727 0 0 0 0
2326200 -0.031074374667992812 0.084257609981418 0.13342493961701246 0.010067222262465314 0 0 0 0
2386100 -0.03094981659394217 0.0811967771385267 0.13370496581670768 0.009370088189921548 0 0 0 0
2446000 -0.030320883513092933 0.0775141283271536 0.13360414810147178 0.008927241023789773 0 0 0 0
2505900 -0.030224412644228607 0.07456964272364511 0.13356736749628811 0.008274641195114013 0 0 0 0
2565800 -0.030222745244507698 0.07176059368931263 0.13358698787601622 0.007877166833779838 0 0 0 0
2625700 -0.029909597599211853 0.06873191590305344 0.1337929946521798 0.00717144922443121 0 0 0 0
2685600 -0.03032059911550069 0.06640290761559867 0.13366115066989048 0.006816910455355329 0 0 0 0
2745500 -0.03011984308367495 0.06401618788275938 0.1337133183552601 0.006062803133399622 0 0 0 0
2805400 -0.030023427083183715 0.0619382511645857 0.1337630563737539 0.005913201034299589 0 0 0 0
2865300 -0.03020457625996811 0.05953637309951864 0.13376323642133178 0.0054183946986760025 0 0 0 0
2925200 -0.03015912433065754 0.0571075133124176 0.13382741621676023 0.004613392359300776 0 0 0 0
2985100 -0.0299169806547672 0.05512110673155488 0.13384565195635684 0.004494207065674191 0 0 0 0
3045000 -0.02985804495915415 0.05327105239180324 0.1338172758257964 0.003969713078918609 0 0 0 0
3104900 -0.029914679264943202 0.05118553384151682 0.1338024700882091 0.00333865863673778 0 0 0 0
3164800 -0.029936706281596316 0.049151087022076136 0.1338578515344064 0.0031633087865207497 0 0 0 0
3224700 -0.029940897446846852 0.04717075922159337 0.13387702344705257 0.0027007972964317073 0 0 0 0
3284600 -0.030087678580823906 0.045415943531897 0.13398675218836562 0.002131523385289049 0 0 0 0
3344500 -0.030316649736196882 0.043479090329959044 0.13399970474097433 0.0017858869913529645 0 0 0 0
3404400 -0.030453184736388084 0.04179001192242734 0.13398373813754488 0.0014541083855886868 0 0 0 0
3464300 -0.0305477389580089 0.040270328572423866 0.1339899509630292 0.0010676220985822555 0 0 0 0
3524200 -0.03026912700015958 0.0385721003625868 0.13410307262456786 0.0005620122634265727 0 0 0 0
3584100 -0.03050998009172714 0.03698829098549294 0.1339691442739787 0.00026217427264374493 0 0 0 0
3644000 -0.030593689288926324 0.035327749311765196 0.13400617123413772 -7.140446944168567e-05 0 0 0 0
3703900 -0.030414286103250053 0.03390480735912407 0.13405803457625004 -0.0003721098449833123 0 0 0 0
3763800 -0.03068140072239807 0.032297882681722866 0.13411793065373087 -0.0009009063565418886 0 0 0 0
3823700 -0.030816681964765735 0.03094594011037603 0.13398867955810218 -0.0011309355570154978 0 0 0 0
3883600 -0.03134309085001666 0.0291244891679729 0.1341139849643987 -0.001549876252032682 0 0 0 0
3943500 -0.03120519113861598 0.0274898657403594 0.13410521903597158 -0.002161285036383552 0 0 0 0
4003400 -0.03167471017446099 0.026350041948020507 0.13407499260370762 -0.0022836784574628358 0 0 0 0
4063300 -0.03184968219248172 0.02484511473520165 0.1341214481962016 -0.0025724863642997615 0 0 0 0
4123200 -0.03167780130169044 0.023404253814020965 0.134110389466578 -0.003044231427018356 0 0 0 0
4183100 -0.03226276404189551 0.021944900744684553 0.1340519336286719 -0.003407627508512691 0 0 0 0
4243000 -0.0324011873013339 0.020860432889560184 0.13419909199845254 -0.00372292727869577 0 0 0 0
4302900 -0.03230614149779838 0.01956346948764741 0.1341955724321909 -0.004180881620197292 0 0 0 0
4362800 -0.03265868386994299 0.018356735388015487 0.13420430123052185 -0.004653342882443115 0 0 0 0
4422700 -0.03295003763804825 0.017276684042805183 0.13421680503633598 -0.004919324352358922 0 0 0 0
4482600 -0.033485959984517824 0.015863708379607124 0.13424876251190102 -0.005036996764192713 0 0 0 0
4542500 -0.0334978997260224 0.014630936614723715 0.13437324192931116 -0.005714434265453789 0 0 0 0
4602400 -0.03346609372776837 0.013362056008278951 0.13408667663151363 -0.005893936903434863 0 0 0 0
4662300 -0.034004404076766484 0.012195743540083577 0.1340916108984197 -0.006164147061281848 0 0 0 0
4722200 -0.03417918820989315 0.011058649298505164 0.13423297169513643 -0.006751232530849415 0 0 0 0
4782100 -0.03462507974946268 0.009427230946524348 0.13415014962356303 -0.006975135016840829 0 0 0 0
4842000 -0.034773026016740045 0.008560500511565677 0.13416424047773456 -0.007294108557482019 0 0 0 0
4901900 -0.03522613768353801 0.0073571105314983775 0.1341446312006975 -0.007647912648354322 0 0 0 0
4961800 -0.03543645911409781 0.006254989349733837 0.1341935062817725 -0.007898772002635217 0 0 0 0
5021700 -0.03536404837176605 0.0050302509741891755 0.13413230004284935 -0.008237898315433732 0 0 0 0
5081600 -0.03584919006470272 0.0039029539302484705 0.13413098703268928 -0.008570144513852714 0 0 0 0
5141500 -0.03616828910135105 0.0028425975936170115 0.1341999601483621 -0.008869427120294707 0 0 0 0
5201400 -0.03637468706358151 0.0017272092288905248 0.13407715036585494 -0.009177487762408154 0 0 0 0
5261300 -0.036851278092806604 0.0006210066285339313 0.13398216720564343 -0.009497767672311141 0 0 0 0
5321200 -0.03696940530973268 -0.00019180554264520503 0.1340556998151986 -0.010003302837585966 0 0 0 0
5381100 -0.03720255194047865 -0.001271678835461043 0.13406704214896462 -0.010168233658533204 0 0 0 0
5441000 -0.03758076124084713 -0.002008344376975768 0.1339609501890488 -0.010569843250394702 0 0 0 0
5500900 -0.037812545803067976 -0.0036911863012934272 0.13398213602408007 -0.011064775717937476 0 0 0 0
5560800 -0.03828761130125073 -0.004148083414424916 0.13407140108448443 -0.011266594963606475 0 0 0 0
5620700 -0.03887451564861605 -0.005455155265390325 0.13395355685251145 -0.011514098125075485 0 0 0 0
5680600 -0.03951534649168579 -0.006465527455596302 0.13393614854805025 -0.011716088837197268 0 0 0 0
5740500 -0.03954340705831108 -0.007341394246615649 0.13395602643418672 -0.01207308990919658 0 0 0 0
5800400 -0.04029919425893156 -0.008017813681724129 0.1340151787451957 -0.012447305509365623 0 0 0 0
5860300 -0.0404505850172258 -0.009300697243807367 0.13401889467191366 -0.012857368087594667 0 0 0 0
5920200 -0.041067243932221234 -0.01030434755624174 0.13397590092220227 -0.013005041932411152 0 0 0 0
5980100 -0.04112026786134885 -0.011753951509822948 0.13388423818708625 -0.013472281808807635 0 0 0 0
6040000 -0.041562505019724194 -0.012216170365091924 0.13387419764171465 -0.013817975530711443 0 0 0 0
6099900 -0.042052706205037566 -0.01325720225379465 0.1339231451568982 -0.014131555881610094 0 0 0 0
6159800 -0.042642432697279596 -0.014046974296224089 0.13391800766848405 -0.014500196624534181 0 0 0 0
6219700 -0.04289438002902978 -0.014869647451367717 0.13380882823193563 -0.014852290278755849 0 0 0 0
6279600 -0.04346787220742008 -0.015816095038361906 0.13394215317880048 -0.015090663491504534 0 0 0 0
6339500 -0.04400386378969867 -0.016442219105111268 0.13393006820008807 -0.015438272452227631 0 0 0 0
6399400 -0.044491568394464116 -0.017649315374333847 0.13377530100498458 -0.015812919400460458 0 0 0 0
6459300 -0.04498030108635332 -0.0186082215041917 0.13382886371105246 -0.01627509338774946 0 0 0 0
6519200 -0.045400733247674706 -0.01951038769850732 0.13374926036588186 -0.01646028903177552 0 0 0 0
6579100 -0.04616115865064367 -0.020564277325238113 0.1335806824118942 -0.01653901674614189 0 0 0 0
6639000 -0.046650947209562706 -0.02146879512957714 0.13361934302450976 -0.01719053965162335 0 0 0 0
6698900 -0.047123738458600545 -0.022347597255490043 0.1335343582048091 -0.017293007976309838 0 0 0 0
6758800 -0.047506680096396636 -0.023055626885038732 0.1335997501744329 -0.01754010565639666 0 0 0 0
6818700 -0.04835589216298127 -0.024017227853305345 0.13356687319970972 -0.017911357444531657 0 0 0 0
6878600 -0.048630085623676635 -0.024735706889163246 0.1334816706569153 -0.01813008339226 0 0 0 0
6938500 -0.04945588981340663 -0.025994181144025342 0.13347618220228516 -0.018484671674449584 0 0 0 0
6998400 -0.04989820631918923 -0.02674948015596819 0.13348487062137604 -0.01900104480033903 0 0 0 0
7058300 -0.05056604718594044 -0.027570639618754604 0.1333900804840844 -0.019166617939372427 0 0 0 0
7118200 -0.051377704885997605 -0.02848077410598235 0.13332017223133158 -0.019548253153679467 0 0 0 0
7178100 -0.05161396580620159 -0.029300934514439974 0.13331092564460142 -0.019736768544164913 0 0 0 0
7238000 -0.052251187327520036 -0.030039591772500193 0.13322366583603856 -0.020184559249209522 0 0 0 0
7297900 -0.05298734029008668 -0.030660275135343185 0.1331811068695717 -0.02054520212875381 0 0 0 0
7357800 -0.053843602826392764 -0.03177302696779726 0.133142514863551 -0.020642477188647937 0 0 0 0
7417700 -0.05406301887591992 -0.032816239259132296 0.13317166185141205 -0.02083616742317889 0 0 0 0
7477600 -0.0549441015245754 -0.033307436299686875 0.13300064177852144 -0.02148211740876956 0 0 0 0
7537500 -0.05569496712862586 -0.034369697289705646 0.13311459683959387 -0.021656857243104337 0 0 0 0
7597400 -0.05618155645816935 -0.03498713526528663 0.13302313356680617 -0.021828634183061996 0 0 0 0
7657300 -0.05690425451132182 -0.0359862853297406 0.1329338371450084 -0.02220793898117106 0 0 0 0
7717200 -0.057556857769143266 -0.03683405494750911 0.13273166300007588 -0.02246906741096263 0 0 0 0
7777100 -0.05827077906889459 -0.03761051214653502 0.13281010852039096 -0.02280178460577006 0 0 0 0
7837000 -0.05892043045366411 -0.03868215325809992 0.13258045355580156 -0.022934166391808373 0 0 0 0
7896900 -0.05975851319803065 -0.03918206994285193 0.13261607330469324 -0.02336579817176349 0 0 0 0
7956800 -0.06048760651249738 -0.03991096432862166 0.132666987971168 -0.02378902827334372 0 0 0 0
8016700 -0.0610035133474547 -0.040524227997987855 0.1326421236263047 -0.024129251444173855 0 0 0 0
8076600 -0.061999030936159535 -0.04136279044631713 0.13236938983534915 -0.024343828494028615 0 0 0 0
8136500 -0.06276198393994739 -0.041865101732692485 0.13240091994498024 -0.024535611424297016 0 0 0 0
8196400 -0.06326385904348021 -0.04244653053522706 0.13242881253386918 -0.024784959924518672 0 0 0 0
8256300 -0.06391904819027895 -0.0432469631410685 0.1324305386697706 -0.025466312177835283 0 0 0 0
8316200 -0.06474794249907004 -0.04426962416379265 0.13244306034809272 -0.025777809915153518 0 0 0 0
8376100 -0.06564003172630216 -0.044944161900878916 0.1321601835391073 -0.02576319840599078 0 0 0 0
8436000 -0.06635959488599477 -0.04582181694952053 0.13224392039640626 -0.02635669497540272 0 0 0 0
8495900 -0.06731373687193618 -0.04661072861005965 0.13221473565650618 -0.026702684059552527 0 0 0 0
8555800 -0.06794496834665317 -0.04679438568599243 0.13216428451080808 -0.02692575669565828 0 0 0 0
8615700 -0.06870905494630215 -0.04761715590486477 0.13202526361739086 -0.02693755858822071 0 0 0 0
8675600 -0.06957196800732633 -0.0484950586564924 0.13173759444186342 -0.027221906215067346 0 0 0 0
8735500 -0.07011837546323454 -0.04882862084203214 0.13190181399645817 -0.02768885662726583 0 0 0 0
8795400 -0.07113290647670174 -0.0495031532911608 0.1317450900481703 -0.028031814156457967 0 0 0 0
8855300 -0.07206220613159545 -0.05027212488493713 0.13174420975160414 -0.02827462488741123 0 0 0 0
8915200 -0.07293336256809255 -0.05117802744961217 0.13169001014510667 -0.028594470715923092 0 0 0 0
8975100 -0.0737058318373861 -0.05171044302531213 0.1315999756996187 -0.029063150960713588 0 0 0 0
9035000 -0.0744478394850823 -0.052507580929012025 0.13153992782183907 -0.02924886384195704 0 0 0 0
9094900 -0.07539975033471367 -0.05308801141289623 0.13147348849957916 -0.029437179744394276 0 0 0 0
9154800 -0.0764452909523321 -0.05366665972255131 0.13142396533150053 -0.029866780372604287 0 0 0 0
9214700 -0.07714676018934213 -0.0541237944308664 0.1314366938635834 -0.03021844976357868 0 0 0 0
9274600 -0.07803303816728503 -0.05454275715847152 0.13126200096862384 -0.03024957385037568 0 0 0 0
9334500 -0.0792962600802753 -0.05555407765943888 0.13112155893217722 -0.03073322335961306 0 0 0 0
9394400 -0.08018856679462014 -0.05596681503509751 0.13109766175566762 -0.031033737491786163 0 0 0 0
9454300 -0.081026407994143 -0.056969274870529836 0.13081508448843393 -0.03113256486154904 0 0 0 0
9514200 -0.08211993378859432 -0.057424179456884404 0.13091473514691826 -0.03177774666201033 0 0 0 0
9574100 -0.08322629935246054 -0.058269675054519 0.13072351410750732 -0.03179682959816796 0 0 0 0
9634000 -0.08388087395013408 -0.059495406439967466 0.1305249101104309 -0.03200341296814917 0 0 0 0
9693900 -0.08519637876005536 -0.06000139593707755 0.1305941538662679 -0.03233584133004309 0 0 0 0
9753800 -0.0861982899893705 -0.06057004078428857 0.13045084979928429 -0.03286649351424164 0 0 0 0
9813700 -0.0867330293966088 -0.06115972350251254 0.13039696708771834 -0.03322430924487975 0 0 0 0
9873600 -0.08826046132727085 -0.061898241179394305 0.1302796669200337 -0.033394001694392814 0 0 0 0
9933500 -0.08921203624254517 -0.06186082241059386 0.13014505498968001 -0.03345359440980703 0 0 0 0
9993400 -0.0900691155132323 -0.06263970723523558 0.13001109237504632 -0.03366618594016177 0 0 0 0
10053300 -0.09096235194484212 -0.06316863783147902 0.12997263923687594 -0.034078332474471444 0 0 0 0
10113200 -0.09194623616642433 -0.06380328648728953 0.12994142335329673 -0.03440750229630192 0 0 0 0
10173100 -0.09271277418934999 -0.06484012709398254 0.12986987454247298 -0.03484528705113078 0 0 0 0
10233000 -0.09410614122282385 -0.06517573173409064 0.12992026539942964 -0.03510997367485402 0 0 0 0
10292900 -0.09474861394365397 -0.06550453134471017 0.12966138172425465 -0.03529292125881392 0 0 0 0
10352800 -0.09582701486018264 -0.06603266268669247 0.12954665964433293 -0.035689651723060975 0 0 0 0
10412700 -0.09724702967306864 -0.06655541947990788 0.12958157461723888 -0.03611324207111819 0 0 0 0
10472600 -0.09873530280095263 -0.06741524802036016 0.12957467457605096 -0.03636008401905572 0 0 0 0
10532500 -0.09928132772272773 -0.06777754337504782 0.12942830357459337 -0.03633516652264778 0 0 0 0
10592400 -0.10003618999716637 -0.0684157286961912 0.12926328640918566 -0.03669513054658986 0 0 0 0
10652300 -0.10158444399180876 -0.06907620311272741 0.12911142052664443 -0.03698077976127605 0 0 0 0
10712200 -0.10280258847647245 -0.06990733632315671 0.12912806632952334 -0.03752696191230142 0 0 0 0
10772100 -0.10374883414591433 -0.06940521527453827 0.12887507191612457 -0.03784234288191973 0 0 0 0
10832000 -0.10468792790935987 -0.07051571147108548 0.1290110358972764 -0.038171749057225854 0 0 0 0
10891900 -0.10586535066216361 -0.07128363753217622 0.12874588615522325 -0.03851275097471061 0 0 0 0
10951800 -0.10684574747972579 -0.07101391298546554 0.1286809598881494 -0.03842048837935702 0 0 0 0
11011700 -0.10830643339036829 -0.07216475128484995 0.12854896252598635 -0.03880116117041464 0 0 0 0
11071600 -0.109098291928487 -0.07290133684707785 0.12827303364261278 -0.03927323384467203 0 0 0 0
11131500 -0.11059985896669919 -0.07300098320486204 0.12822093052485486 -0.03947787953453441 0 0 0 0
11191400 -0.11171161235411861 -0.07349537044390417 0.12826955220645248 -0.0396883855637084 0 0 0 0
11251300 -0.11286939400406854 -0.07393635169278684 0.12817609584633796 -0.04012409922367464 0 0 0 0
11311200 -0.11373982647180246 -0.074239872079586 0.12810697911332988 -0.04040951561039062 0 0 0 0
11371100 -0.11550633425930967 -0.07449799031845662 0.12792459996466607 -0.04043628911241737 0 0 0 0
11431000 -0.11676758847510145 -0.0750849138241822 0.12776250336959766 -0.0408600925973032 0 0 0 0
11490900 -0.11767912505896781 -0.07529161091323455 0.12757098716691706 -0.041087756317002 0 0 0 0
11550800 -0.11829701225207599 -0.07561236365128611 0.12744982193805743 -0.041719071265038675 0 0 0 0
11610700 -0.11968726488773414 -0.07604529727590023 0.12746275371431331 -0.04190422357996386 0 0 0 0
11670600 -0.12176825111213543 -0.07628070719503907 0.12716775181782336 -0.042246206692519286 0 0 0 0
11730500 -0.12180934640220435 -0.0766785690485211 0.12709190482012572 -0.0424566575566054 0 0 0 0
11790400 -0.12324735671893165 -0.07727809246024189 0.12692888932477533 -0.04288603414750731 0 0 0 0
11850300 -0.12475950533309509 -0.07726941171440208 0.12688324361529582 -0.04304458178533978 0 0 0 0
11910200 -0.12668675669137167 -0.07777504541247955 0.1266625911327344 -0.0433256380001692 0 0 0 0
11970100 -0.12775429643282482 -0.07856739685409811 0.12638399582637622 -0.04373072356168637 0 0 0 0
