# HZ S RI R 50
50000 -0.9657316627254351 0.20951179471439058
79305 -0.9474560363959234 0.3113631352071559
108610 -0.9023485413070321 0.42109475856121786
137915 -0.8500977430848824 0.5247651833470549
167220 -0.7811046857168907 0.6048729558766675
196525 -0.7168247626993006 0.6822770865221713
225830 -0.6366473210278308 0.7497823265903768
255135 -0.5654307715893039 0.7987134983256667
284440 -0.4890787410318183 0.8573782163861562
313745 -0.41482115111767087 0.8977209286727974
343050 -0.33880447291565075 0.9294938133830914
372355 -0.2627686252223636 0.9505594955469168
401660 -0.191372080207991 0.9682604274357721
430965 -0.12413804833632626 0.9776050613145105
460270 -0.05631799195633681 0.9834821716224862
489575 0.005887268275660022 0.9854206500338855
518880 0.06519115298988377 0.9805172924721505
548185 0.11844750210456376 0.9753065841614191
577490 0.1705713438744545 0.9671968880567555
606795 0.21852079771446084 0.9548387528638352
636100 0.26432880538248765 0.9452766537868789
665405 0.3082504417587962 0.9323792531835933
694710 0.3475510453160557 0.9174540250963298
724015 0.38435699378461446 0.9029390703673632
753320 0.41595322714216765 0.8865134233569327
782625 0.4486483863297846 0.8708062128388463
811930 0.48029382276858995 0.8536269962214081
841235 0.5081655322839819 0.8381820220072392
870540 0.5331142516506413 0.8208380063605115
899845 0.5527258909938719 0.8086091519842056
929150 0.5791623195461774 0.7880420302531006
958455 0.6016936807384174 0.7721985880277493
987760 0.6216820549683159 0.755874358167527
1017065 0.6405271523274683 0.7386948730468503
1046370 0.6572900157529641 0.7232873240694763
1075675 0.6740803558937812 0.7092733479539637
1104980 0.689130623567898 0.6938048534500445
1134285 0.7036071489953074 0.6789757108989591
1163590 0.7177159234388476 0.6644386737070991
1192895 0.7283965102039361 0.6491852053270405
1222200 0.7425390251525268 0.6347313939667942
1251505 0.7534927910267909 0.6219571979072941
1280810 0.7629963774034475 0.6090916803893017
1310115 0.7741061278589705 0.5952093155738484
1339420 0.7837536580835914 0.5826925483626044
1368725 0.7929806198002071 0.5702611321097306
1398030 0.8012190821033633 0.5566692363532055
1427335 0.809337744892038 0.5444575964198815
1456640 0.8161974398581212 0.5328460346155308
1485945 0.8236797213412012 0.5215953858041731
1515250 0.8302935770728568 0.5107737195834949
1544555 0.8376774679015309 0.4992531790422189
1573860 0.8436886181521679 0.4869098610798418
1603165 0.8493399701277131 0.4760617015822296
1632470 0.8547467879705762 0.465324653814481
1661775 0.8601551696515883 0.45546937457044884
1691080 0.8640034006353001 0.4451939287517385
1720385 0.866661974639661 0.43591997768526947
1749690 0.8724701611667106 0.42640279696237016
1778995 0.8776204544974118 0.4168640455225076
1808300 0.8817654181502118 0.40710225824126983
1837605 0.8853646906263256 0.39723836735831836
1866910 0.8884325215142229 0.388038046899695
1896215 0.8901258172761644 0.38067849719437546
1925520 0.8915112323177365 0.37252885378800565
1954825 0.8957412330343973 0.36317691810534897
1984130 0.8991123322138597 0.3555815799654977
2013435 0.9007582276381676 0.34739554995845057
2042740 0.9029373483586433 0.3380862837123127
2072045 0.9045647192347115 0.331700125751401
2101350 0.9057693361511304 0.32419109573714966
2130655 0.9077805964220668 0.31562930680881274
2159960 0.9098999323159854 0.3089187639559997
2189265 0.9117427621900883 0.3010381605098663
2218570 0.9120799069226495 0.29460402783850953
2247875 0.9121470474433373 0.28802842469111706
2277180 0.9147515483564745 0.2810893930466786
2306485 0.9157067843014897 0.27486875874224054
2335790 0.9150421209953294 0.2694087975253512
2365095 0.9152963688713328 0.2638354943517987
2394400 0.9172230818389898 0.25733253773134845
2423705 0.9171322214141543 0.25137156275764816
2453010 0.9195727940452465 0.24466408740966616
2482315 0.9197007541181452 0.2393223586697998
2511620 0.9188858386573462 0.23433293366305843
2540925 0.9189752606196951 0.2292249203019786
2570230 0.9196979752848023 0.22412217872729995
2599535 0.9206335224121494 0.21972130028199274
2628840 0.9210351128146717 0.21468939822000374
2658145 0.9220020230926238 0.2080896983608739
2687450 0.9214016463920033 0.20433832155473497
2716755 0.9223359044893515 0.19971080652893136
2746060 0.92250447959121 0.19412145182393092
2775365 0.9213868843754462 0.1903206456594852
2804670 0.9214563380363741 0.18626220596052764
2833975 0.9217066026546461 0.18182326677500368
2863280 0.9218313838516063 0.17769240335277184
2892585 0.9217033107374292 0.17318847638129928
2921890 0.922760997510783 0.16814797130604633
2951195 0.9225364077208806 0.16537747340874479
2980500 0.9219285907530821 0.1612916829556908
3009805 0.9210983050919035 0.1574360136555269
3039110 0.9219241285118 0.15395070822053292
3068415 0.9217582370937758 0.14974375408148394
3097720 0.9221670952013779 0.14587791598143307
3127025 0.9215881696334677 0.14335934589680588
3156330 0.9217336266234769 0.139498960808533
3185635 0.9218282284558101 0.13603743900403437
3214940 0.9211984309907468 0.1329856269133271
3244245 0.9208583303224791 0.12887603432692082
3273550 0.9206047032565613 0.12606375734781694
3302855 0.9213515561206436 0.12232595474732638
3332160 0.9212050038896794 0.11952589280894038
3361465 0.921060659120389 0.11609725985955091
3390770 0.9212327042412348 0.11327574227006716
3420075 0.9197557228479644 0.11000359939493352
3449380 0.9200064579439982 0.1067903269951248
3478685 0.9203334320193192 0.10446084046282593
3507990 0.9200279952885592 0.10180281000662754
3537295 0.9196787092733462 0.09849718162091484
3566600 0.9192797886109886 0.0949221173203348
3595905 0.9194017868294142 0.09286283377441017
3625210 0.9186716779608494 0.08896479955976815
3654515 0.9195936895549447 0.087512581973866
3683820 0.9187127590854174 0.08467007685401073
3713125 0.9184263746639053 0.08167213178873792
3742430 0.9193781798357198 0.07983985489967457
3771735 0.9184986326854269 0.07710688064122093
3801040 0.9175182642827663 0.07447411212098089
3830345 0.9179089908480795 0.0718887056500981
3859650 0.9181372921753405 0.06903433339813644
3888955 0.9168793701381274 0.06597124140317281
3918260 0.916917837377411 0.06424702005775214
3947565 0.9176152824954001 0.06183811714047375
3976870 0.9174923160295282 0.05934194875824772
4006175 0.9169194846322903 0.05786933038819018
4035480 0.916713508666957 0.05558429239717312
4064785 0.9166905236416661 0.052113747484352484
4094090 0.916576401995448 0.04997493606473939
4123395 0.91574068886507 0.0479707837071309
4152700 0.9167041799718794 0.04560134809457429
4182005 0.9165476800352942 0.043389216446235744
4211310 0.915374940965305 0.041408958827233944
4240615 0.915328929345277 0.03856549782622726
4269920 0.9149971427713933 0.03714653828920169
4299225 0.9147210559367723 0.0364142272107224
4328530 0.9159998789417814 0.033711970952491344
4357835 0.9152825499886732 0.030327204220708868
4387140 0.9146566766912676 0.028199641898332743
4416445 0.9147575108221557 0.02709896952942378
4445750 0.9131738658310259 0.026060436407997874
4475055 0.9135730556328971 0.023916698246382928
4504360 0.9143651876169402 0.020627414724034742
4533665 0.9146653635020774 0.01774616968478341
4562970 0.912808835601749 0.017023849217299873
4592275 0.9133583540703427 0.014372489708337443
4621580 0.9132712177040249 0.012877593643175818
4650885 0.9137229316402021 0.011265781423028712
4680190 0.9126096361796456 0.00915013773608114
4709495 0.9135420310067839 0.0065023327543003865
4738800 0.9129656310499664 0.00593295010883039
4768105 0.912085178356195 0.0033682437818352605
4797410 0.9126928754155582 0.0016028512208847152
4826715 0.9115561894664032 -0.0009022530069822901
4856020 0.9119926307409094 -0.0015273040256632414
4885325 0.9123297468949573 -0.0031431611494889306
4914630 0.9119210336179445 -0.005288479340350966
4943935 0.9119341799035561 -0.009132009730470113
4973240 0.9112477786105141 -0.009861444955258133
5002545 0.9108289689858552 -0.010449924761658468
5031850 0.9106617437605941 -0.012837044578997835
5061155 0.9098407635606354 -0.013579896718203744
5090460 0.9099258910682334 -0.014719219466145442
5119765 0.9104001425713053 -0.01780233082686985
5149070 0.9102888833967887 -0.021231312972610727
5178375 0.9110604149879781 -0.022291596061606415
5207680 0.9099308592990929 -0.023246380031248008
5236985 0.9092871621888475 -0.024807547596714694
5266290 0.9096902958497698 -0.025808333435273962
5295595 0.9090862246319822 -0.028282950171957862
5324900 0.909676730158787 -0.030627542528213914
5354205 0.9087141873420108 -0.03195754689903194
5383510 0.9094197644892362 -0.032047657997383516
5412815 0.9086438235436416 -0.03476510318978502
5442120 0.9087071372839028 -0.03669014487161405
5471425 0.9093049823676874 -0.038247944002952027
5500730 0.9084478757800029 -0.03926216653927484
5530035 0.908839225427211 -0.04288669350311388
5559340 0.9079556595528415 -0.04361640555202729
5588645 0.9082631062655429 -0.04341316969601802
5617950 0.9068038744358674 -0.04631428434716768
5647255 0.9074236099201807 -0.046904573261540024
5676560 0.9071353087537142 -0.04822026414162688
5705865 0.9082599047317027 -0.051831811329530374
5735170 0.9076511915395997 -0.05270778203751279
5764475 0.9066786536310306 -0.05405883106406417
5793780 0.9063847392414794 -0.054621709682875275
5823085 0.9072799433719085 -0.05738059290793111
5852390 0.9071374593824056 -0.05786782421414428
5881695 0.9066875134936276 -0.059331876934281304
5911000 0.9058076315691479 -0.06025337002913944
5940305 0.9065631002813909 -0.06293471517478642
5969610 0.9061895388226545 -0.0643663925555853
5998915 0.9066262817866061 -0.06589866514171934
6028220 0.9065294384375584 -0.06768158623791572
6057525 0.9061053488358424 -0.0699486147104582
6086830 0.9051145735558916 -0.06971976018823947
6116135 0.9048872546809483 -0.07145034612867475
6145440 0.9057744715714812 -0.07380015202955341
6174745 0.905365237136921 -0.07618447822423631
6204050 0.9056873258815219 -0.07778228631909548
6233355 0.9037826825926428 -0.07759949629054144
6262660 0.9041176129103176 -0.0774510850954656
6291965 0.9039395418823876 -0.07977675153451275
6321270 0.905105261788113 -0.0831937151505919
6350575 0.9046210977716901 -0.08452608941294806
6379880 0.9034385686062029 -0.0853212237261044
6409185 0.9037287920450886 -0.08499842934101189
6438490 0.9032152716113495 -0.0864720745480654
6467795 0.9034290063827037 -0.09082006589469727
6497100 0.904098277596157 -0.09179179703028727
6526405 0.9029386838636798 -0.092119993781793
6555710 0.9028652758353661 -0.09342084460083176
6585015 0.9023960425724725 -0.09386320083709575
6614320 0.9026246337984427 -0.09754453361647478
6643625 0.9024603620458982 -0.09824500764436975
6672930 0.9019814198190094 -0.09960797289926249
6702235 0.9029808606101728 -0.10010032723468798
6731540 0.9020756574636587 -0.1025642680724062
6760845 0.9019944619746074 -0.10406386544382516
6790150 0.9018657192829246 -0.10475764939601642
6819455 0.9008420236681909 -0.10544810481192846
6848760 0.9016986602440387 -0.10752855568066706
6878065 0.9005503495264451 -0.10802015088585505
6907370 0.9002345861615859 -0.10959465401888195
6936675 0.9003698245132689 -0.11082615792370434
6965980 0.9015381657506054 -0.11376293335201224
6995285 0.9010002021742981 -0.11642689707375005
7024590 0.900207653872144 -0.11721506457758933
7053895 0.8992245513273855 -0.11620051459974408
7083200 0.8995451469193263 -0.11683691807954935
7112505 0.8990737684239289 -0.12139333745398673
7141810 0.8998038598888211 -0.12225194369671186
7171115 0.8989014841950794 -0.12409215184607628
7200420 0.8972952047095697 -0.12289867515375652
7229725 0.8986652017985691 -0.12495059348291059
7259030 0.8980399596880334 -0.12587936652668008
7288335 0.8982668482774533 -0.1274749308507275
7317640 0.8979271594185652 -0.12720009175256053
7346945 0.8978587484263949 -0.13162423366490097
7376250 0.8973571763902445 -0.13118739268226917
7405555 0.8970651867583016 -0.13209570646671703
7434860 0.8971630153906278 -0.13498062232875807
7464165 0.8973476047843059 -0.13678441781676468
7493470 0.8976653802637785 -0.137075996200529
7522775 0.8966078899866905 -0.13916904971214986
7552080 0.8959286175143151 -0.14035485800119613
7581385 0.8957923361901159 -0.1398180774827485
7610690 0.8954567829441474 -0.1402843479387707
7639995 0.89636083705472 -0.14368984510834396
7669300 0.896924132273028 -0.1460459838817145
7698605 0.8945766476293939 -0.14711970766647134
7727910 0.8942231837329986 -0.14826203469369229
7757215 0.8941506510524957 -0.14809360790097623
7786520 0.8942036271816564 -0.14876004307738439
7815825 0.8930684961084283 -0.15032833712696594
7845130 0.893520434066314 -0.15205118624154512
7874435 0.8945680922518703 -0.15346926590369964
7903740 0.8941196563238413 -0.1559790197456123
7933045 0.8941518969674467 -0.15750611696323563
7962350 0.8933124052650059 -0.15752328914890862
7991655 0.893798630785224 -0.15924903805153057
8020960 0.893076839954242 -0.16037121271818985
8050265 0.8938296392311449 -0.16264126425476283
8079570 0.8921259925598244 -0.16316632475187162
8108875 0.8914816599927873 -0.16254889680549772
8138180 0.8915233739494489 -0.1634160942813445
8167485 0.8921198977887989 -0.16578510220524792
8196790 0.8915176723563129 -0.1673456811727082
8226095 0.8927075854603321 -0.16969550879745418
8255400 0.8911347304431062 -0.17362111923950674
8284705 0.889532667373519 -0.17257868803967202
8314010 0.8907888688068765 -0.17490523796383434
8343315 0.8902967861750598 -0.1764997963099036
8372620 0.8907496292590307 -0.17836145977463774
8401925 0.8895993376974807 -0.17945924545348224
8431230 0.8889307303975925 -0.17770591524068763
8460535 0.8884897392453172 -0.17908333845449168
8489840 0.8889695331245271 -0.18275664545015152
8519145 0.8891120026502858 -0.18425517612473405
8548450 0.8877637338725344 -0.18475792754436113
8577755 0.8885451639403624 -0.18544476745122013
8607060 0.887939296509869 -0.18696182444408976
8636365 0.8871088944884079 -0.18912521997354298
8665670 0.8870982692379263 -0.1895290190592927
8694975 0.8875393531151866 -0.1917332864324531
8724280 0.8873740084160632 -0.19250861233635838
8753585 0.8865685112677579 -0.19381347631736406
8782890 0.8860171434087567 -0.1943112816325491
8812195 0.8869402840526683 -0.19604730942619786
8841500 0.8856521310527863 -0.19713769245176138
8870805 0.8846599321812849 -0.1979491435372552
8900110 0.8843681553575268 -0.19876271195804002
8929415 0.884875298853389 -0.20159131376432246
8958720 0.8840859042758082 -0.20124976215211904
8988025 0.8842793241975792 -0.20421786748241422
9017330 0.8849060665415541 -0.20458630062569763
9046635 0.8839826451900619 -0.20604076243052935
9075940 0.8834614807172766 -0.20627976081460125
9105245 0.8836188822531849 -0.20853811265186967
9134550 0.8825083975721286 -0.20932415514727323
9163855 0.8822536222397442 -0.21005400489349804
9193160 0.8825506811597477 -0.21248370870152164
9222465 0.8819551871563709 -0.21409419069130464
9251770 0.8819200043320089 -0.21291995687139598
9281075 0.8810872325302206 -0.21568200547619223
9310380 0.8804339534463699 -0.2160687137247166
9339685 0.8813318883261846 -0.21722185813809697
9368990 0.880414320156018 -0.2185494682914944
9398295 0.8795716442498346 -0.22020826685613973
9427600 0.879685186945912 -0.22157467836323783
9456905 0.880341465622985 -0.2221175379629494
9486210 0.8799560344570837 -0.22419444682359
9515515 0.8787763449190852 -0.224120560506833
9544820 0.8796176749407957 -0.22745590000317759
9574125 0.8789075877740552 -0.22787649639465607
9603430 0.8777448673838386 -0.22840658741627712
9632735 0.8779187500690037 -0.2295135800387159
9662040 0.8782345048174738 -0.2308116279483731
9691345 0.8789273227447623 -0.23218631618260116
9720650 0.8777286726955023 -0.23458996797188128
9749955 0.8765974266909332 -0.23505962324332172
9779260 0.8759785864900448 -0.23465176309229127
9808565 0.8765534225787744 -0.23602551468419736
9837870 0.8755016482710178 -0.23640104869688933
9867175 0.8763385923407925 -0.23802377659117346
9896480 0.8761907633956556 -0.24111510339584577
9925785 0.8748568242792251 -0.2420783121362005
9955090 0.8741616750101823 -0.24174271846859663
9984395 0.8732927774817544 -0.24253574119716398
10013700 0.8732977068163261 -0.24276507409851775
10043005 0.8745330650523837 -0.2456161257080292
10072310 0.8745944291966402 -0.24810400956122672
10101615 0.8733847023897798 -0.24966872486635927
10130920 0.8720469945085294 -0.2499217628055562
10160225 0.8719132738812728 -0.25052455226253556
10189530 0.8711103929522308 -0.24995375882736376
10218835 0.8712047529585663 -0.2527205381279954
10248140 0.8715496571506224 -0.25362855529856304
10277445 0.8710026886172444 -0.2539260281060874
10306750 0.8720985691127561 -0.25643068595697327
10336055 0.8714007087535718 -0.25881070057615624
10365360 0.869919209059549 -0.2593469800253648
10394665 0.8699744395078709 -0.25820506556265765
10423970 0.8696191275680146 -0.2589097145806337
10453275 0.8685522988463805 -0.2618340653296156
10482580 0.8684969315012583 -0.26261592487495294
10511885 0.8694485762849907 -0.2635081741647897
10541190 0.8685757329051947 -0.26632041329948947
10570495 0.8688573987870328 -0.26638671559825766
10599800 0.8676575002259119 -0.2679178600397377
10629105 0.8670954439308793 -0.2705590500394437
10658410 0.866651885342486 -0.2707996033595338
10687715 0.865688458039845 -0.27116105010609953
10717020 0.865399899101882 -0.2718104022545229
10746325 0.8660267196081749 -0.2740110709365148
10775630 0.865840423596397 -0.276428375833869
10804935 0.8643963932955088 -0.27610477936405664
10834240 0.86475893907238 -0.27556068136650724
10863545 0.8646062331857266 -0.277406025558523
10892850 0.8638489535402356 -0.27875154592042867
10922155 0.863339723315579 -0.28193776101855034
10951460 0.8630908693524312 -0.2822955975466635
10980765 0.8617492990458214 -0.2817041114263555
11010070 0.8622792519396056 -0.2833091912646434
11039375 0.8610082246397573 -0.2841488487967908
11068680 0.8622106726258344 -0.28546159370089547
11097985 0.8630580872564056 -0.28896171108657875
11127290 0.8606409564429038 -0.2897868874193138
11156595 0.8612424981216179 -0.2905888792091649
11185900 0.8602681079082448 -0.29251657491325994
11215205 0.8599884666545871 -0.2911999197145006
11244510 0.8604712345584582 -0.2936335248347691
11273815 0.8598934877434514 -0.2958625026894959
11303120 0.859314619170748 -0.2971933290460713
11332425 0.8594437198127968 -0.2988054705124092
11361730 0.8575138250722791 -0.2995261486322915
11391035 0.8575236558533247 -0.29949101388967897
11420340 0.8572872651555821 -0.3003545689896348
11449645 0.8567258452104556 -0.30117593506902335
11478950 0.8563580921760566 -0.301186922255286
11508255 0.8560277818089016 -0.3034800057239377
11537560 0.8563697625175659 -0.30506612431605024
11566865 0.8564674352396362 -0.3077743273687832
11596170 0.8537776758126582 -0.30839434649315217
11625475 0.854758213769606 -0.3100181719266779
11654780 0.853880502716414 -0.3106612248564898
11684085 0.853406221423931 -0.31210767051293425
11713390 0.8532609397750216 -0.3109509051929747
11742695 0.8532918912132095 -0.3147490937650236
11772000 0.8517843074318767 -0.3141456185161921
11801305 0.851902294385255 -0.3155164863074267
11830610 0.8526313509268553 -0.3157834606312579
11859915 0.8510774191819488 -0.31640610905552413
11889220 0.8517904781219925 -0.31748797247302685
11918525 0.8501426665693795 -0.32054380052494824
11947830 0.8493940528569842 -0.32113442233664075
11977135 0.84938496516295 -0.32371252281399177
12006440 0.8483729156732202 -0.32357889252740246
12035745 0.8487092933305151 -0.3238020462423341
12065050 0.84812996279161 -0.3260889259777156
12094355 0.8467080276677246 -0.3262694122962236
12123660 0.8471706615770566 -0.327853618834818
12152965 0.8469057102478793 -0.32725003485041887
12182270 0.8463295733350391 -0.32957056269666557
12211575 0.8459739517041942 -0.3323322455957337
12240880 0.8453470694435649 -0.3318339351915531
12270185 0.8446389212099806 -0.3343740094908378
12299490 0.8444619311627921 -0.3349117489718247
12328795 0.8439601752342456 -0.33545241443326607
12358100 0.8433199673511171 -0.3365662043567163
