# HZ S RI R 50
50000 0.9619338124880419 -0.0018155709085278318 0.04024445664324047 0.0014989450238746126 0 0 0 0
349500 0.9574796018271404 -0.021459372730113238 0.025705823563716815 -0.016069763258165098 0 0 0 0
649000 0.9599195915806737 -0.03957244603780959 0.03999878461956178 0.002399281173647133 0 0 0 0
948500 0.9587759394731262 -0.05822819705238101 0.0399817593734762 0.0026305882614316156 0 0 0 0
1248000 0.957184829226817 -0.07609658628881164 0.03994818579326674 0.002689759899431967 0 0 0 0
1547500 0.955504595944117 -0.09479257233671594 0.03995016010424981 0.0027061224219617525 0 0 0 0
1847000 0.9532956935063519 -0.11363627918421075 0.040035340353211685 0.0027719324096452712 0 0 0 0
2146500 0.951489996238716 -0.1323740762912728 0.04003000986594815 0.0027314225682209016 0 0 0 0
2446000 0.9485858092917918 -0.15013795730323043 0.04003842790425624 0.002723029379437931 0 0 0 0
2745500 0.9451919504262514 -0.16800803297869685 0.04009207512755861 0.002713030536026068 0 0 0 0
3045000 0.9420635154200964 -0.18670525091475804 0.04004332565530205 0.0026404875336449394 0 0 0 0
3344500 0.9381619947957726 -0.20280301273118703 0.0400771967598091 0.0027111662587865327 0 0 0 0
3644000 0.9340527194526577 -0.22304725459417543 0.04006200010435688 0.0027904775578936262 0 0 0 0
3943500 0.929170097313387 -0.23966400418667871 0.0400797644671092 0.002768179918198514 0 0 0 0
4243000 0.9245180390251958 -0.25696988145581895 0.04006104119203176 0.002775011187745961 0 0 0 0
4542500 0.9182223105136363 -0.27381032516638604 0.04010456648051806 0.002777668344186274 0 0 0 0
4842000 0.913449097002717 -0.29318149902373286 0.040116438578554035 0.002754692879601057 0 0 0 0
5141500 0.908320012511129 -0.31038512645028105 0.040145089967551624 0.002781772438669437 0 0 0 0
5441000 0.901696036198689 -0.32680597248005255 0.040093790789235265 0.0027993760931043703 0 0 0 0
5740500 0.8956662741412558 -0.34458727145072054 0.040173202259860784 0.0028945877605818108 0 0 0 0
6040000 0.88837246226829 -0.3613153233689277 0.0401720068738662 0.0028289933733226546 0 0 0 0
6339500 0.8814950448622091 -0.3789259129404736 0.04023565321153152 0.0027581902097761593 0 0 0 0
6639000 0.8733672572488632 -0.3961264921906538 0.04012293376735618 0.0028599153810517056 0 0 0 0
6938500 0.8666219610680985 -0.41283120039463533 0.04018614200707687 0.002828443154235227 0 0 0 0
7238000 0.858050558809717 -0.4279531470302627 0.04013836282987569 0.0028137675501727945 0 0 0 0
7537500 0.8492553533229183 -0.4437282227053022 0.040177000057985905 0.0028985519609524995 0 0 0 0
7837000 0.841648225557644 -0.46091475809940036 0.04018046532514044 0.0029564977032474865 0 0 0 0
8136500 0.8312616027336855 -0.47670763281859424 0.04023143895314738 0.0029007332886321247 0 0 0 0
8436000 0.8224714000618014 -0.4926567209984239 0.040299564105181485 0.002918815842629227 0 0 0 0
8735500 0.8132614451043424 -0.509223838859032 0.040305502031573764 0.0029384239409274123 0 0 0 0
9035000 0.8035674317339631 -0.523426076988262 0.040230186392061 0.0028355924781984006 0 0 0 0
9334500 0.7928679163508822 -0.538281674411178 0.040286270426278074 0.0029179505194855118 0 0 0 0
9634000 0.7821793950672664 -0.5542683582281551 0.040197467352371216 0.0029443546793271567 0 0 0 0
9933500 0.770807331453139 -0.5694281327718212 0.04025403404548112 0.0029202969209330834 0 0 0 0
10233000 0.7603603531895814 -0.5837736737888973 0.04023693408632023 0.00298940743786019 0 0 0 0
10532500 0.7487437341325098 -0.5984089935303378 0.040333318845109316 0.002942598442602776 0 0 0 0
10832000 0.736729768905958 -0.6120052907211163 0.04032494058869122 0.00285436614179904 0 0 0 0
11131500 0.7255059372808386 -0.6263061986705168 0.04021935269240345 0.0030022891538614514 0 0 0 0
11431000 0.7126249265792106 -0.6398537794276756 0.04028936476429897 0.0029693495808766077 0 0 0 0
11730500 0.6994572669985247 -0.6527740932210399 0.04022134114626068 0.0029020206556210635 0 0 0 0
12030000 0.6874915582009266 -0.6666048821836942 0.040296234464914094 0.0030001902297583137 0 0 0 0
12329500 0.6756923345230431 -0.6795448363029686 0.04037843241925675 0.0029919600205734415 0 0 0 0
12629000 0.6614074365942805 -0.6922248832194982 0.04039886334580511 0.0028153512008062143 0 0 0 0
12928500 0.6478346369903648 -0.7055575832063486 0.040296322331995496 0.002848231290630232 0 0 0 0
13228000 0.6341611206552831 -0.7179378138465559 0.040442690888027336 0.0028355819159696575 0 0 0 0
13527500 0.6197297112456219 -0.728433225348233 0.04038525999317477 0.0028230160501977217 0 0 0 0
13827000 0.6062022520641175 -0.7399747060883074 0.04034535210307802 0.0029012201237925256 0 0 0 0
14126500 0.5919211904714192 -0.7525410570291388 0.040403974626515696 0.0028435314850762854 0 0 0 0
14426000 0.5773822628639674 -0.7639020233543198 0.0402865985923366 0.0029416092145560417 0 0 0 0
14725500 0.5626939444574224 -0.7749744778498653 0.04042210462053622 0.002905085125689718 0 0 0 0
15025000 0.5475324717011335 -0.7845560923889082 0.040446934846565155 0.0029043584972706683 0 0 0 0
15324500 0.5326927757986528 -0.7952246713901019 0.04042068170185554 0.0029413118379129914 0 0 0 0
15624000 0.5161636241299362 -0.8039201471516837 0.04039192728651918 0.002816629419168991 0 0 0 0
15923500 0.5011679156789138 -0.815179539676957 0.04052995898384315 0.00287290346855445 0 0 0 0
16223000 0.4861914266567472 -0.8230020248552784 0.0404721743111171 0.0029809599966869695 0 0 0 0
16522500 0.4699583394870394 -0.8332872448520546 0.040553293718184745 0.0029239216697869714 0 0 0 0
16822000 0.452830445417264 -0.8409450827894871 0.04043583618144646 0.0029514312732573343 0 0 0 0
17121500 0.4367059173761715 -0.8491095998541246 0.04035678923614076 0.002887458687175464 0 0 0 0
17421000 0.4208547466603035 -0.858765773290446 0.040405541066228616 0.0029182628437268055 0 0 0 0
17720500 0.4047247894498039 -0.8659060373874377 0.0405042420463012 0.0029736923442239176 0 0 0 0
18020000 0.3878689086386534 -0.8728776205012422 0.04053255168532014 0.0029914197966546996 0 0 0 0
18319500 0.3704193724919864 -0.8806208382558635 0.04047572640571625 0.002899756534129757 0 0 0 0
18619000 0.35369727017694597 -0.8869662616992804 0.040494890613584 0.0029156709908009573 0 0 0 0
18918500 0.3356930268068726 -0.894147164972579 0.04055136915234664 0.0028790832727061014 0 0 0 0
19218000 0.3195698169211933 -0.8990275513028909 0.040550174804551274 0.0028598927415199537 0 0 0 0
19517500 0.301914241557514 -0.9059579177582247 0.040517759448306385 0.002863386917146342 0 0 0 0
19817000 0.2860529724855262 -0.9102844032782025 0.04051238626912366 0.002928238910545371 0 0 0 0
20116500 0.2663543791198799 -0.9162046546003344 0.04045615046313309 0.002845363803886362 0 0 0 0
20416000 0.24940031093544993 -0.9210283608927246 0.0405807804402141 0.002798610870085431 0 0 0 0
20715500 0.2303942729825156 -0.9253656614606581 0.0405295913899906 0.0029105509231007994 0 0 0 0
21015000 0.2135302416779645 -0.928998601293905 0.040501088076302955 0.002893371478535325 0 0 0 0
21314500 0.1944830525154857 -0.9324196221507749 0.04051027923917292 0.002863728183041257 0 0 0 0
21614000 0.17792989866010542 -0.9359289230519846 0.04052343527776309 0.0028834948801296895 0 0 0 0
21913500 0.15900214318187164 -0.9385744546823142 0.04051396708772295 0.002837525591612813 0 0 0 0
22213000 0.1427121011769501 -0.9406482554161616 0.04054643741311476 0.002890121985445034 0 0 0 0
22512500 0.12339782199768733 -0.9444301439726244 0.04055802078575252 0.0029122014678255033 0 0 0 0
22812000 0.10559176519843216 -0.9474726844936103 0.04069955995233217 0.002847063503336726 0 0 0 0
23111500 0.08651183431696309 -0.9482418633718364 0.040483997839557785 0.002920743672258961 0 0 0 0
23411000 0.06824424988991298 -0.9494860915008826 0.0405894136042174 0.0029168210761597924 0 0 0 0
23710500 0.05075295434794889 -0.9507710733560683 0.04054695465891375 0.002901405408756079 0 0 0 0
24010000 0.032289084241013656 -0.9504995104929229 0.04063267631707408 0.0028353721760412407 0 0 0 0
24309500 0.013495653245773266 -0.9503529188504268 0.04052059758156876 0.002876667575910625 0 0 0 0
24609000 -0.004357439910180841 -0.9503823058275246 0.04051386797616939 0.002842360236481087 0 0 0 0
24908500 -0.0220183275525734 -0.9499558024499778 0.04052955496243983 0.0028525481337088976 0 0 0 0
25208000 -0.039494367280215444 -0.9480658901471328 0.04054508295354009 0.0028420683348662785 0 0 0 0
25507500 -0.058610477688950204 -0.949522734085313 0.04060397617685888 0.002757830088993013 0 0 0 0
25807000 -0.07644440899390886 -0.9461232306014564 0.04050739331903141 0.0028978534728927863 0 0 0 0
26106500 -0.09383498735922885 -0.9432461425959662 0.040561265098753935 0.002758537471996809 0 0 0 0
26406000 -0.1132870443308282 -0.9414364797640979 0.040631603300752474 0.0028179573081529292 0 0 0 0
26705500 -0.13039724868304023 -0.9401326977945329 0.04053238665502596 0.0028690572792379057 0 0 0 0
27005000 -0.14852146098435862 -0.9351745349974131 0.040527580624822916 0.0028138359764045755 0 0 0 0
27304500 -0.16685614668550877 -0.9342859319948424 0.04054353844825393 0.0028890452706896662 0 0 0 0
27604000 -0.18467495836599107 -0.9299442591429992 0.04051429468243533 0.0027528247282743146 0 0 0 0
27903500 -0.20298884055568325 -0.926850757699944 0.04056175050498992 0.00277869391230644 0 0 0 0
28203000 -0.21959248077860102 -0.9212377448833409 0.040698356199439845 0.0027823633616191534 0 0 0 0
28502500 -0.23731308384527758 -0.9168457654955148 0.040534773170841566 0.0028035610398519533 0 0 0 0
28802000 -0.253532745077788 -0.9107041102798459 0.04042132305727112 0.0028237571438842015 0 0 0 0
29101500 -0.2715014988056079 -0.9047792302859812 0.04056751095621128 0.002648776628444417 0 0 0 0
29401000 -0.2889349024548801 -0.9001692300088049 0.04051525932639803 0.002700725631563869 0 0 0 0
29700500 -0.30717783890980305 -0.8956251259188183 0.04058412757910278 0.002757155786887538 0 0 0 0
30000000 -0.324699075040963 -0.8884581500722138 0.04138710369231106 0.032702686671661554 0 0 0 0
