Freq (MHz),re(S11),im(S11),re(Z),im(Z)
0.050,-0.99974,0.00815,0.006,0.204
0.100,-0.99690,0.00458,0.077,0.115
0.150,-0.99735,0.00785,0.066,0.197
0.200,-0.99736,0.01130,0.065,0.283
0.250,-0.99672,0.01332,0.080,0.334
0.300,-0.99712,0.01601,0.069,0.401
0.350,-0.99591,0.01778,0.098,0.446
0.400,-0.99576,0.01908,0.102,0.479
0.450,-0.99832,0.02279,0.035,0.571
0.500,-0.99621,0.02463,0.087,0.618
0.550,-0.99272,0.02742,0.173,0.690
0.600,-0.99989,0.02999,-0.008,0.750
0.650,-0.99610,0.03224,0.085,0.809
0.700,-0.99606,0.03432,0.084,0.861
0.750,-0.99899,0.03715,0.008,0.929
0.800,-0.99235,0.03757,0.174,0.946
0.850,-0.99149,0.04049,0.193,1.020
0.900,-0.99999,0.04440,-0.024,1.110
0.950,-0.99507,0.04526,0.098,1.137
1.000,-0.99289,0.04764,0.150,1.199
1.050,-0.99982,0.04797,-0.024,1.199
1.100,-0.99188,0.05166,0.170,1.301
1.150,-0.99351,0.05390,0.126,1.355
1.200,-0.98684,0.05701,0.290,1.443
1.250,-0.99082,0.05781,0.188,1.457
1.300,-0.99238,0.06039,0.145,1.520
1.350,-0.98424,0.06109,0.349,1.550
1.400,-0.99046,0.06378,0.188,1.608
1.450,-0.98943,0.06708,0.208,1.693
1.500,-0.98419,0.06758,0.340,1.715
1.550,-0.99029,0.07050,0.181,1.778
1.600,-0.98957,0.07379,0.193,1.862
1.650,-0.98861,0.07558,0.214,1.908
1.700,-0.98955,0.07699,0.188,1.942
1.750,-0.98780,0.08042,0.225,2.032
1.800,-0.98279,0.08028,0.352,2.039
1.850,-0.98788,0.08439,0.214,2.132
1.900,-0.98758,0.08675,0.217,2.192
1.950,-0.99360,0.08918,0.060,2.239
2.000,-0.98689,0.09045,0.226,2.287
2.050,-0.98867,0.09345,0.174,2.358
2.100,-0.98169,0.09458,0.347,2.403
2.150,-0.98620,0.09721,0.227,2.458
2.200,-0.98596,0.09974,0.227,2.523
2.250,-0.97978,0.10030,0.381,2.552
2.300,-0.98491,0.10290,0.245,2.605
2.350,-0.98516,0.10553,0.232,2.670
2.400,-0.98559,0.10758,0.215,2.721
2.450,-0.98403,0.10980,0.249,2.781
2.500,-0.98447,0.11180,0.232,2.830
2.550,-0.98311,0.11414,0.259,2.893
2.600,-0.98306,0.11569,0.256,2.932
2.650,-0.98277,0.11795,0.257,2.990
2.700,-0.98571,0.11957,0.178,3.022
2.750,-0.98330,0.12314,0.227,3.119
2.800,-0.98168,0.12332,0.268,3.128
2.850,-0.98222,0.12699,0.242,3.219
2.900,-0.98151,0.12823,0.256,3.252
2.950,-0.98037,0.13135,0.274,3.334
3.000,-0.98038,0.13255,0.270,3.365
3.050,-0.98052,0.13517,0.258,3.430
3.100,-0.97990,0.13745,0.265,3.490
3.150,-0.97807,0.13824,0.309,3.516
3.200,-0.97872,0.14164,0.280,3.599
3.250,-0.97871,0.14258,0.277,3.623
3.300,-0.97786,0.14508,0.289,3.689
3.350,-0.97745,0.14632,0.295,3.722
3.400,-0.97705,0.14998,0.291,3.815
3.450,-0.97685,0.15117,0.292,3.846
3.500,-0.97657,0.15304,0.291,3.894
3.550,-0.97634,0.15497,0.289,3.943
3.600,-0.97600,0.15723,0.289,4.002
3.650,-0.97454,0.15820,0.322,4.032
3.700,-0.97437,0.16214,0.310,4.132
3.750,-0.97448,0.16371,0.300,4.170
3.800,-0.97398,0.16589,0.304,4.227
3.850,-0.97368,0.16769,0.304,4.274
3.900,-0.97223,0.16997,0.330,4.338
3.950,-0.97283,0.17182,0.307,4.382
4.000,-0.97178,0.17399,0.324,4.441
4.050,-0.97222,0.17629,0.302,4.496
4.100,-0.97098,0.17824,0.325,4.551
4.150,-0.97026,0.18028,0.333,4.605
4.200,-0.96989,0.18184,0.335,4.646
4.250,-0.96979,0.18403,0.328,4.702
4.300,-0.96959,0.18672,0.320,4.770
4.350,-0.96761,0.18801,0.363,4.812
4.400,-0.96850,0.19016,0.330,4.862
4.450,-0.96788,0.19187,0.337,4.908
4.500,-0.96632,0.19354,0.368,4.958
4.550,-0.96613,0.19602,0.361,5.021
4.600,-0.96618,0.19865,0.346,5.087
4.650,-0.96554,0.19936,0.359,5.108
4.700,-0.96569,0.20155,0.343,5.162
4.750,-0.96499,0.20487,0.344,5.249
4.800,-0.96496,0.20571,0.340,5.270
4.850,-0.96398,0.20843,0.350,5.344
4.900,-0.96344,0.21027,0.353,5.392
4.950,-0.96262,0.21254,0.362,5.454
5.000,-0.96261,0.21430,0.352,5.498
5.050,-0.96215,0.21672,0.350,5.561
5.100,-0.96178,0.21809,0.352,5.598
5.150,-0.96054,0.22173,0.362,5.696
5.200,-0.95978,0.22291,0.375,5.730
5.250,-0.95945,0.22411,0.376,5.762
5.300,-0.95995,0.22673,0.348,5.824
5.350,-0.95870,0.22868,0.368,5.880
5.400,-0.95780,0.23066,0.378,5.935
5.450,-0.95787,0.23168,0.371,5.960
5.500,-0.95703,0.23446,0.375,6.035
5.550,-0.95714,0.23696,0.357,6.097
5.600,-0.95611,0.23919,0.369,6.159
5.650,-0.95559,0.24220,0.363,6.237
5.700,-0.95518,0.24333,0.366,6.268
5.750,-0.95487,0.24443,0.367,6.298
5.800,-0.95336,0.24542,0.398,6.332
5.850,-0.95341,0.24670,0.389,6.364
5.900,-0.95201,0.25079,0.397,6.475
5.950,-0.95209,0.25279,0.382,6.524
6.000,-0.95097,0.25442,0.400,6.572
6.050,-0.95138,0.25604,0.378,6.610
6.100,-0.95071,0.25810,0.381,6.666
6.150,-0.94969,0.25903,0.401,6.696
6.200,-0.94933,0.26272,0.384,6.790
6.250,-0.94879,0.26513,0.381,6.854
6.300,-0.94800,0.26653,0.391,6.895
6.350,-0.94716,0.26791,0.403,6.935
6.400,-0.94662,0.27137,0.392,7.025
6.450,-0.94503,0.27225,0.425,7.058
6.500,-0.94513,0.27339,0.415,7.086
6.550,-0.94485,0.27714,0.395,7.181
6.600,-0.94480,0.27773,0.391,7.196
6.650,-0.94332,0.27918,0.418,7.243
6.700,-0.94228,0.28253,0.419,7.334
6.750,-0.94190,0.28344,0.422,7.360
6.800,-0.94118,0.28529,0.426,7.411
6.850,-0.94069,0.28890,0.411,7.504
6.900,-0.94043,0.28894,0.417,7.507
6.950,-0.93910,0.29165,0.430,7.585
7.000,-0.93907,0.29372,0.414,7.636
7.050,-0.93853,0.29598,0.410,7.697
7.100,-0.93811,0.29678,0.414,7.720
7.150,-0.93737,0.29897,0.416,7.780
7.200,-0.93614,0.30207,0.422,7.867
7.250,-0.93464,0.30276,0.453,7.896
7.300,-0.93445,0.30603,0.432,7.978
7.350,-0.93436,0.30587,0.436,7.975
7.400,-0.93341,0.30962,0.429,8.076
7.450,-0.93208,0.31194,0.443,8.144
7.500,-0.93196,0.31102,0.453,8.122
7.550,-0.93171,0.31550,0.423,8.235
7.600,-0.93055,0.31721,0.437,8.287
7.650,-0.92979,0.31856,0.445,8.327
7.700,-0.92953,0.32083,0.432,8.385
7.750,-0.92806,0.32115,0.466,8.406
7.800,-0.92737,0.32422,0.456,8.488
7.850,-0.92669,0.32684,0.451,8.558
7.900,-0.92591,0.32857,0.455,8.608
7.950,-0.92605,0.33109,0.430,8.669
8.000,-0.92455,0.33224,0.457,8.710
8.050,-0.92392,0.33384,0.458,8.755
8.100,-0.92334,0.33534,0.459,8.798
8.150,-0.92256,0.33720,0.462,8.850
8.200,-0.92196,0.33866,0.464,8.892
8.250,-0.92133,0.34143,0.454,8.966
8.300,-0.92090,0.34322,0.448,9.014
8.350,-0.92013,0.34403,0.460,9.041
8.400,-0.91839,0.34686,0.477,9.127
8.450,-0.91842,0.34853,0.461,9.168
8.500,-0.91798,0.35031,0.455,9.215
8.550,-0.91627,0.35023,0.498,9.229
8.600,-0.91511,0.35436,0.488,9.342
8.650,-0.91521,0.35718,0.459,9.410
8.700,-0.91365,0.35757,0.493,9.435
8.750,-0.91355,0.35962,0.476,9.486
8.800,-0.91279,0.36124,0.479,9.533
8.850,-0.91142,0.36242,0.501,9.576
8.900,-0.91044,0.36615,0.489,9.677
8.950,-0.91064,0.36879,0.459,9.740
9.000,-0.90949,0.36917,0.483,9.760
9.050,-0.90851,0.37188,0.480,9.836
9.100,-0.90862,0.37292,0.467,9.861
9.150,-0.90816,0.37528,0.455,9.923
9.200,-0.90637,0.37753,0.476,9.996
9.250,-0.90611,0.37817,0.476,10.015
9.300,-0.90367,0.38106,0.506,10.110
9.350,-0.90507,0.38245,0.458,10.130
9.400,-0.90177,0.38347,0.528,10.189
9.450,-0.90184,0.38574,0.503,10.243
9.500,-0.90082,0.38562,0.529,10.251
9.550,-0.89961,0.38804,0.534,10.323
9.600,-0.89989,0.39054,0.501,10.381
9.650,-0.89869,0.39377,0.496,10.472
9.700,-0.89778,0.39321,0.524,10.468
9.750,-0.89639,0.39551,0.534,10.539
9.800,-0.89582,0.39764,0.525,10.597
9.850,-0.89468,0.39993,0.528,10.666
9.900,-0.89549,0.40300,0.475,10.732
9.950,-0.89349,0.40424,0.511,10.783
10.000,-0.89301,0.40462,0.518,10.798
10.050,-0.89087,0.40653,0.549,10.868
10.100,-0.89066,0.40946,0.522,10.942
10.150,-0.89035,0.41128,0.509,10.989
10.200,-0.88976,0.41096,0.527,10.988
10.250,-0.88779,0.41474,0.533,11.102
10.300,-0.88706,0.41650,0.531,11.153
10.350,-0.88690,0.41792,0.519,11.189
10.400,-0.88524,0.42028,0.532,11.265
10.450,-0.88482,0.42287,0.513,11.333
10.500,-0.88348,0.42225,0.552,11.333
10.550,-0.88228,0.42546,0.545,11.425
10.600,-0.88225,0.42746,0.522,11.474
10.650,-0.88196,0.42802,0.523,11.491
10.700,-0.87973,0.42985,0.555,11.561
10.750,-0.87910,0.43178,0.548,11.615
10.800,-0.87884,0.43376,0.531,11.666
10.850,-0.87814,0.43620,0.519,11.733
10.900,-0.87606,0.43646,0.566,11.764
10.950,-0.87524,0.43953,0.549,11.848
11.000,-0.87509,0.44037,0.543,11.870
11.050,-0.87340,0.44320,0.550,11.959
11.100,-0.87290,0.44331,0.561,11.967
11.150,-0.87204,0.44580,0.551,12.038
11.200,-0.87083,0.44840,0.548,12.115
11.250,-0.87007,0.44893,0.560,12.137
11.300,-0.86879,0.45077,0.568,12.198
11.350,-0.86776,0.45252,0.572,12.253
11.400,-0.86709,0.45479,0.559,12.316
11.450,-0.86578,0.45566,0.580,12.353
11.500,-0.86498,0.45823,0.567,12.424
11.550,-0.86435,0.46070,0.551,12.492
11.600,-0.86349,0.46058,0.573,12.500
11.650,-0.86256,0.46404,0.552,12.595
11.700,-0.86125,0.46589,0.559,12.655
11.750,-0.86110,0.46653,0.555,12.673
11.800,-0.85948,0.46708,0.587,12.707
11.850,-0.85889,0.47049,0.557,12.796
11.900,-0.85766,0.47129,0.576,12.831
11.950,-0.85656,0.47192,0.594,12.861
12.000,-0.85663,0.47434,0.561,12.917
12.050,-0.85500,0.47672,0.569,12.996
12.100,-0.85359,0.47915,0.570,13.072
12.150,-0.85224,0.48084,0.580,13.131
12.200,-0.85143,0.48130,0.593,13.152
12.250,-0.85047,0.48356,0.586,13.219
12.300,-0.84923,0.48432,0.605,13.254
12.350,-0.84922,0.48583,0.585,13.290
12.400,-0.84663,0.48941,0.599,13.410
12.450,-0.84697,0.49194,0.556,13.466
12.500,-0.84580,0.49159,0.589,13.473
12.550,-0.84468,0.49359,0.588,13.536
12.600,-0.84306,0.49581,0.596,13.611
12.650,-0.84280,0.49613,0.598,13.622
12.700,-0.84189,0.49872,0.584,13.696
12.750,-0.84030,0.49930,0.613,13.732
12.800,-0.83954,0.50014,0.620,13.762
12.850,-0.83824,0.50342,0.604,13.859
12.900,-0.83730,0.50507,0.604,13.911
12.950,-0.83722,0.50771,0.568,13.974
13.000,-0.83524,0.50756,0.617,13.999
13.050,-0.83408,0.50964,0.615,14.065
13.100,-0.83426,0.51265,0.568,14.133
13.150,-0.83243,0.51332,0.602,14.175
13.200,-0.83110,0.51448,0.616,14.222
13.250,-0.82952,0.51534,0.641,14.265
13.300,-0.82965,0.51776,0.603,14.320
13.350,-0.82813,0.51993,0.607,14.393
13.400,-0.82693,0.52146,0.613,14.447
13.450,-0.82643,0.52183,0.619,14.463
13.500,-0.82508,0.52392,0.621,14.532
13.550,-0.82399,0.52624,0.612,14.602
13.600,-0.82287,0.52624,0.638,14.619
13.650,-0.82184,0.52811,0.635,14.678
13.700,-0.82042,0.53086,0.627,14.764
13.750,-0.81963,0.53197,0.629,14.801
13.800,-0.81861,0.53494,0.608,14.886
13.850,-0.81783,0.53432,0.636,14.884
13.900,-0.81634,0.53799,0.615,14.992
13.950,-0.81484,0.53804,0.650,15.016
14.000,-0.81300,0.54102,0.647,15.114
14.050,-0.81342,0.54150,0.630,15.118
14.100,-0.81190,0.54313,0.640,15.180
14.150,-0.81114,0.54667,0.604,15.274
14.200,-0.80877,0.54622,0.666,15.300
14.250,-0.80921,0.54813,0.626,15.338
14.300,-0.80777,0.55003,0.630,15.405
14.350,-0.80616,0.55174,0.640,15.470
14.400,-0.80437,0.55281,0.665,15.523
14.450,-0.80352,0.55364,0.672,15.555
14.500,-0.80265,0.55628,0.651,15.630
14.550,-0.80164,0.55754,0.654,15.676
14.600,-0.80037,0.56033,0.639,15.761
14.650,-0.79985,0.55958,0.663,15.751
14.700,-0.79826,0.56149,0.669,15.821
14.750,-0.79749,0.56367,0.652,15.884
14.800,-0.79533,0.56567,0.670,15.965
14.850,-0.79587,0.56596,0.653,15.963
14.900,-0.79466,0.56808,0.646,16.032
14.950,-0.79333,0.56932,0.657,16.082
15.000,-0.79139,0.57216,0.655,16.179
15.050,-0.79088,0.57245,0.662,16.194
15.100,-0.78897,0.57361,0.687,16.252
15.150,-0.78876,0.57510,0.667,16.290
15.200,-0.78749,0.57767,0.654,16.370
15.250,-0.78669,0.57831,0.662,16.398
15.300,-0.78432,0.58034,0.682,16.484
15.350,-0.78468,0.58331,0.624,16.546
15.400,-0.78236,0.58334,0.677,16.586
15.450,-0.78180,0.58564,0.651,16.648
15.500,-0.78068,0.58557,0.678,16.665
15.550,-0.77975,0.58814,0.656,16.740
15.600,-0.77902,0.58951,0.649,16.784
15.650,-0.77671,0.59067,0.682,16.849
15.700,-0.77501,0.59236,0.692,16.917
15.750,-0.77544,0.59333,0.666,16.932
15.800,-0.77322,0.59544,0.680,17.018
15.850,-0.77168,0.59611,0.703,17.060
15.900,-0.77137,0.59925,0.656,17.137
15.950,-0.76905,0.59871,0.718,17.165
16.000,-0.76918,0.60130,0.670,17.222
16.050,-0.76779,0.60100,0.707,17.239
16.100,-0.76595,0.60376,0.700,17.334
16.150,-0.76522,0.60557,0.685,17.388
16.200,-0.76446,0.60556,0.702,17.401
16.250,-0.76335,0.60835,0.678,17.484
16.300,-0.76096,0.60983,0.706,17.560
16.350,-0.75946,0.61018,0.734,17.594
16.400,-0.75941,0.61340,0.677,17.668
16.450,-0.75780,0.61398,0.703,17.710
16.500,-0.75734,0.61623,0.673,17.769
16.550,-0.75434,0.61726,0.722,17.847
16.600,-0.75435,0.61891,0.692,17.883
16.650,-0.75319,0.61895,0.718,17.905
16.700,-0.75192,0.61998,0.727,17.952
16.750,-0.75057,0.62315,0.700,18.048
16.800,-0.74873,0.62267,0.750,18.071
16.850,-0.74797,0.62446,0.734,18.125
16.900,-0.74726,0.62561,0.729,18.164
16.950,-0.74721,0.62932,0.661,18.248
17.000,-0.74484,0.62947,0.712,18.295
17.050,-0.74287,0.63116,0.724,18.369
17.100,-0.74216,0.63239,0.717,18.410
17.150,-0.74251,0.63490,0.663,18.460
17.200,-0.73950,0.63526,0.723,18.524
17.250,-0.73916,0.63454,0.744,18.514
17.300,-0.73702,0.63842,0.719,18.641
17.350,-0.73596,0.63912,0.729,18.677
17.400,-0.73475,0.63987,0.742,18.716
17.450,-0.73331,0.64220,0.729,18.796
17.500,-0.73232,0.64352,0.726,18.844
17.550,-0.73119,0.64477,0.727,18.893
17.600,-0.72961,0.64501,0.758,18.929
17.650,-0.72860,0.64586,0.764,18.967
17.700,-0.72849,0.64786,0.728,19.013
17.750,-0.72656,0.64949,0.739,19.087
17.800,-0.72484,0.65008,0.765,19.133
17.850,-0.72320,0.65216,0.761,19.211
17.900,-0.72234,0.65477,0.729,19.285
17.950,-0.72102,0.65494,0.755,19.315
18.000,-0.71959,0.65648,0.756,19.377
18.050,-0.71868,0.65657,0.774,19.397
18.100,-0.71732,0.65963,0.744,19.491
18.150,-0.71659,0.65994,0.753,19.512
18.200,-0.71449,0.66181,0.763,19.595
18.250,-0.71295,0.66323,0.768,19.657
18.300,-0.71282,0.66422,0.751,19.681
18.350,-0.71094,0.66519,0.773,19.740
18.400,-0.70991,0.66811,0.737,19.824
18.450,-0.70932,0.66887,0.734,19.853
18.500,-0.70665,0.66931,0.784,19.916
18.550,-0.70624,0.67071,0.764,19.955
18.600,-0.70503,0.67188,0.767,20.005
18.650,-0.70340,0.67370,0.765,20.078
18.700,-0.70221,0.67573,0.750,20.146
18.750,-0.70081,0.67623,0.770,20.186
18.800,-0.69930,0.67739,0.779,20.242
18.850,-0.69894,0.67827,0.769,20.268
18.900,-0.69662,0.67978,0.788,20.349
18.950,-0.69607,0.68041,0.786,20.374
19.000,-0.69405,0.68316,0.773,20.475
19.050,-0.69310,0.68330,0.791,20.498
19.100,-0.69255,0.68465,0.774,20.539
19.150,-0.69028,0.68613,0.792,20.618
19.200,-0.69043,0.68871,0.735,20.670
19.250,-0.68697,0.68940,0.795,20.758
19.300,-0.68673,0.68968,0.794,20.769
19.350,-0.68670,0.69253,0.735,20.831
19.400,-0.68430,0.69166,0.805,20.863
19.450,-0.68314,0.69422,0.775,20.942
19.500,-0.68236,0.69487,0.778,20.973
19.550,-0.68015,0.69664,0.787,21.058
19.600,-0.67917,0.69773,0.785,21.102
19.650,-0.67800,0.69764,0.812,21.125
19.700,-0.67677,0.70046,0.777,21.212
19.750,-0.67483,0.70020,0.824,21.248
19.800,-0.67500,0.70204,0.781,21.284
19.850,-0.67267,0.70341,0.801,21.363
19.900,-0.67062,0.70379,0.836,21.416
19.950,-0.67102,0.70542,0.792,21.442
20.000,-0.66826,0.70674,0.822,21.530
20.050,-0.66818,0.71002,0.752,21.601
20.100,-0.66544,0.70880,0.836,21.636
20.150,-0.66445,0.71174,0.793,21.720
20.200,-0.66363,0.71200,0.804,21.743
20.250,-0.66188,0.71321,0.814,21.807
20.300,-0.66000,0.71338,0.850,21.853
20.350,-0.65933,0.71508,0.826,21.903
20.400,-0.65931,0.71622,0.801,21.928
20.450,-0.65695,0.71829,0.805,22.024
20.500,-0.65545,0.71844,0.832,22.061
20.550,-0.65438,0.71964,0.828,22.110
20.600,-0.65225,0.72147,0.831,22.196
20.650,-0.65160,0.72274,0.816,22.237
20.700,-0.64954,0.72352,0.842,22.300
20.750,-0.64927,0.72520,0.809,22.341
20.800,-0.64719,0.72552,0.845,22.395
20.850,-0.64631,0.72782,0.811,22.463
20.900,-0.64519,0.72821,0.826,22.497
20.950,-0.64426,0.72972,0.810,22.549
21.000,-0.64320,0.73036,0.817,22.587
21.050,-0.64054,0.73116,0.854,22.665
21.100,-0.63925,0.73277,0.844,22.728
21.150,-0.63803,0.73419,0.836,22.786
21.200,-0.63848,0.73550,0.797,22.802
21.250,-0.63527,0.73588,0.854,22.885
21.300,-0.63364,0.73753,0.849,22.957
21.350,-0.63287,0.73837,0.845,22.992
21.400,-0.63137,0.73874,0.867,23.035
21.450,-0.63025,0.74121,0.832,23.111
21.500,-0.62851,0.74170,0.856,23.163
21.550,-0.62717,0.74294,0.855,23.220
21.600,-0.62661,0.74414,0.838,23.257
21.650,-0.62493,0.74444,0.865,23.303
21.700,-0.62376,0.74676,0.834,23.378
21.750,-0.62138,0.74758,0.863,23.452
21.800,-0.62090,0.74799,0.863,23.472
21.850,-0.61955,0.74852,0.878,23.515
21.900,-0.61839,0.75094,0.843,23.592
21.950,-0.61678,0.75104,0.873,23.632
22.000,-0.61556,0.75161,0.884,23.673
22.050,-0.61445,0.75260,0.883,23.720
22.100,-0.61256,0.75470,0.871,23.808
22.150,-0.61187,0.75646,0.842,23.860
22.200,-0.61027,0.75615,0.882,23.893
22.250,-0.60800,0.75783,0.887,23.982
22.300,-0.60756,0.75887,0.870,24.014
22.350,-0.60572,0.75859,0.914,24.053
22.400,-0.60458,0.76230,0.846,24.156
22.450,-0.60205,0.76255,0.890,24.223
22.500,-0.60148,0.76346,0.879,24.255
22.550,-0.60042,0.76400,0.887,24.292
22.600,-0.59959,0.76446,0.892,24.322
22.650,-0.59753,0.76587,0.899,24.401
22.700,-0.59592,0.76775,0.884,24.479
22.750,-0.59546,0.76974,0.843,24.530
22.800,-0.59385,0.76929,0.887,24.561
22.850,-0.59176,0.77010,0.908,24.629
22.900,-0.59102,0.77159,0.885,24.677
22.950,-0.58997,0.77231,0.888,24.718
23.000,-0.58790,0.77417,0.882,24.807
23.050,-0.58656,0.77542,0.877,24.865
23.100,-0.58558,0.77537,0.897,24.889
23.150,-0.58361,0.77671,0.902,24.966
23.200,-0.58199,0.77849,0.888,25.042
23.250,-0.58233,0.77834,0.886,25.030
23.300,-0.57948,0.77945,0.913,25.125
23.350,-0.57826,0.78100,0.897,25.187
23.400,-0.57686,0.78248,0.887,25.251
23.450,-0.57718,0.78201,0.892,25.234
23.500,-0.57435,0.78302,0.922,25.326
23.550,-0.57387,0.78448,0.894,25.367
23.600,-0.57180,0.78476,0.927,25.427
23.650,-0.56951,0.78595,0.940,25.509
23.700,-0.56839,0.78783,0.913,25.575
23.750,-0.56828,0.78658,0.948,25.553
23.800,-0.56613,0.78889,0.929,25.654
23.850,-0.56454,0.79031,0.923,25.723
23.900,-0.56275,0.79106,0.938,25.785
23.950,-0.56203,0.79275,0.907,25.836
24.000,-0.56051,0.79302,0.929,25.881
24.050,-0.55919,0.79466,0.911,25.948
24.100,-0.55797,0.79447,0.940,25.976
24.150,-0.55730,0.79445,0.953,25.994
24.200,-0.55549,0.79604,0.946,26.072
24.250,-0.55270,0.79852,0.933,26.194
24.300,-0.55216,0.79957,0.915,26.228
24.350,-0.54996,0.80070,0.927,26.309
24.400,-0.55033,0.79935,0.956,26.273
24.450,-0.54943,0.80156,0.914,26.339
24.500,-0.54674,0.80264,0.936,26.432
24.550,-0.54655,0.80347,0.917,26.453
24.600,-0.54329,0.80504,0.936,26.570
24.650,-0.54204,0.80364,0.998,26.578
24.700,-0.54153,0.80589,0.947,26.634
24.750,-0.53963,0.80853,0.911,26.735
24.800,-0.53776,0.80832,0.951,26.782
24.850,-0.53804,0.80947,0.915,26.796
24.900,-0.53588,0.80777,1.002,26.824
24.950,-0.53384,0.80864,1.016,26.896
25.000,-0.53307,0.81158,0.950,26.972
25.050,-0.53126,0.81136,0.990,27.018
25.100,-0.53018,0.81361,0.948,27.090
25.150,-0.52894,0.81453,0.946,27.141
25.200,-0.52840,0.81501,0.943,27.165
25.250,-0.52577,0.81677,0.942,27.270
25.300,-0.52574,0.81709,0.934,27.277
25.350,-0.52163,0.81871,0.965,27.422
25.400,-0.52118,0.81772,1.001,27.416
25.450,-0.51939,0.81820,1.020,27.475
25.500,-0.51913,0.81955,0.987,27.507
25.550,-0.51705,0.82169,0.966,27.605
25.600,-0.51590,0.82245,0.965,27.651
25.650,-0.51414,0.82349,0.968,27.720
25.700,-0.51369,0.82388,0.965,27.740
25.750,-0.51293,0.82499,0.948,27.782
25.800,-0.51100,0.82572,0.962,27.850
25.850,-0.50789,0.82671,0.991,27.956
25.900,-0.50715,0.82673,1.004,27.978
25.950,-0.50618,0.82768,0.994,28.023
26.000,-0.50489,0.82862,0.991,28.077
26.050,-0.50457,0.82954,0.970,28.102
26.100,-0.50344,0.83047,0.964,28.151
26.150,-0.49944,0.83128,1.013,28.281
26.200,-0.49894,0.83061,1.041,28.283
26.250,-0.49838,0.83293,0.984,28.341
26.300,-0.49654,0.83486,0.961,28.429
26.350,-0.49504,0.83529,0.976,28.480
26.400,-0.49379,0.83333,1.055,28.482
26.450,-0.49232,0.83682,0.980,28.587
26.500,-0.49037,0.83718,1.004,28.650
26.550,-0.48940,0.83717,1.021,28.678
26.600,-0.48766,0.83673,1.065,28.722
26.650,-0.48702,0.84050,0.966,28.807
26.700,-0.48462,0.84066,1.004,28.880
26.750,-0.48353,0.84105,1.011,28.920
26.800,-0.48183,0.84064,1.054,28.963
26.850,-0.48021,0.84253,1.026,29.044
26.900,-0.47886,0.84541,0.965,29.135
26.950,-0.47876,0.84497,0.979,29.130
27.000,-0.47537,0.84470,1.047,29.226
27.050,-0.47552,0.84492,1.037,29.225
27.100,-0.47417,0.84610,1.026,29.286
27.150,-0.47175,0.84824,1.004,29.396
27.200,-0.47037,0.84818,1.030,29.436
27.250,-0.46783,0.84997,1.020,29.544
27.300,-0.46854,0.84794,1.069,29.487
27.350,-0.46780,0.85099,0.990,29.563
27.400,-0.46575,0.84988,1.059,29.605
27.450,-0.46335,0.85017,1.091,29.683
