# MHz S MA R 50
!   freq        S11              S21              S12              S22       
0.050000  0.97319  168.54  0.02408   80.44  0.02420   81.61  0.97861  168.39
0.100000  0.92886  158.64  0.04599   75.82  0.04624   76.22  0.92426  157.73
0.150000  0.86758  148.40  0.06352   63.69  0.06436   65.06  0.86412  149.80
0.200000  0.78894  140.96  0.07998   58.17  0.07958   58.12  0.78823  140.85
0.250000  0.71731  134.40  0.09215   52.07  0.09185   52.13  0.71836  134.44
0.300000  0.66518  126.83  0.10183   44.15  0.10131   49.11  0.65653  131.74
0.350000  0.59592  124.45  0.10873   41.77  0.10856   41.81  0.59633  124.38
0.400000  0.54617  120.55  0.11445   37.88  0.11414   37.99  0.54692  120.56
0.450000  0.50390  117.39  0.06645   21.76  0.06645   21.80  0.50369  117.25
0.500000  0.46603  114.70  0.12449   27.78  0.12484   27.79  0.46905  114.80
0.550000  0.43599  112.60  0.12785   25.29  0.12738   25.43  0.43623  112.07
0.600000  0.40988  109.12  0.12874   23.55  0.13100   22.95  0.41383  111.04
0.650000  0.38255  108.52  0.13170   21.07  0.13065   21.26  0.37951  107.97
0.700000  0.35955  106.94  0.13311   19.41  0.13222   19.37  0.35749  106.37
0.750000  0.34508  105.71  0.13476   17.93  0.13273   17.77  0.33240  104.05
0.800000  0.32245  104.64  0.13532   16.29  0.13472   16.36  0.32191  104.05
0.850000  0.30772  103.60  0.13594   14.99  0.13558   15.02  0.30683  103.09
0.900000  0.29134  101.58  0.13589   13.81  0.13781   13.77  0.29689  103.27
0.950000  0.28192  102.08  0.13718   12.56  0.13666   12.56  0.28099  101.31
1.000000  0.26955  101.17  0.13716   11.44  0.13678   11.62  0.27000  100.70
1.050000  0.26033  101.91  0.13712   10.56  0.13559   10.57  0.25832   99.48
1.100000  0.25270  100.61  0.13803    9.61  0.13778    9.69  0.25292  100.09
1.150000  0.24509  100.27  0.13811    8.75  0.13766    8.80  0.24407   99.83
1.200000  0.23814   99.15  0.13836    7.93  0.13944    8.04  0.24023  100.44
1.250000  0.23169   99.45  0.13851    7.22  0.13820    7.30  0.23190   99.60
1.300000  0.22711   99.53  0.13835    6.55  0.13830    6.51  0.22727   99.18
1.350000  0.22324   99.29  0.13840    5.91  0.13909    5.90  0.22424  100.24
1.400000  0.21875   99.36  0.13827    5.30  0.13782    5.35  0.21836   99.23
1.450000  0.21449   99.23  0.13817    4.71  0.13814    4.79  0.21496   98.66
1.500000  0.21332  100.09  0.13837    4.24  0.13828    4.26  0.21285   99.58
1.550000  0.20893   98.96  0.13824    3.63  0.13803    3.79  0.20918   98.28
1.600000  0.20733   98.85  0.13817    3.19  0.13822    3.21  0.20735   98.55
1.650000  0.20650   99.16  0.13919    2.68  0.13841    2.81  0.20477   98.52
1.700000  0.20330   98.23  0.13795    2.30  0.13765    2.31  0.20287   97.80
1.750000  0.20202   98.60  0.13803    1.75  0.13775    1.92  0.20186   97.74
1.800000  0.20180   99.06  0.13835    1.41  0.13723    1.44  0.19878   96.91
1.850000  0.19986   98.00  0.13808    1.03  0.13798    0.97  0.19988   97.79
1.900000  0.19944   97.82  0.13806    0.54  0.13773    0.58  0.19920   97.80
1.950000  0.19777   97.82  0.13782    0.18  0.13831    0.23  0.19883   97.80
2.000000  0.19797   97.37  0.13786   -0.07  0.13779   -0.16  0.19804   97.42
2.050000  0.19827   97.23  0.13810   -0.64  0.13783   -0.53  0.19767   96.86
2.100000  0.19742   97.16  0.13794   -0.94  0.13752   -0.96  0.19661   96.88
2.150000  0.19737   96.86  0.13776   -1.13  0.13756   -1.25  0.19741   96.88
2.200000  0.19738   97.16  0.13780   -1.60  0.13771   -1.55  0.19737   96.42
2.250000  0.19858   97.44  0.13782   -1.89  0.13771   -1.81  0.19785   96.53
2.300000  0.19783   96.80  0.13786   -2.23  0.13780   -2.28  0.19780   96.01
2.350000  0.19816   96.56  0.13767   -2.57  0.13759   -2.50  0.19825   96.10
2.400000  0.19897   96.13  0.13820   -2.87  0.13810   -2.88  0.19860   96.52
2.450000  0.19955   96.12  0.13752   -3.18  0.13750   -3.08  0.19888   95.61
2.500000  0.19984   95.54  0.13769   -3.46  0.13747   -3.46  0.19993   95.42
2.550000  0.19986   95.16  0.13732   -3.74  0.13763   -3.77  0.20029   95.33
2.600000  0.20131   95.22  0.13767   -4.03  0.13746   -4.09  0.20076   95.28
2.650000  0.20189   94.83  0.13765   -4.33  0.13760   -4.30  0.20190   94.59
2.700000  0.20308   95.49  0.13784   -4.64  0.13732   -4.48  0.20178   94.09
2.750000  0.20362   94.89  0.13753   -4.98  0.13726   -4.91  0.20359   94.46
2.800000  0.20465   94.28  0.13770   -5.22  0.13736   -5.05  0.20401   93.99
2.850000  0.20474   93.66  0.13750   -5.38  0.13750   -5.35  0.20481   94.07
2.900000  0.20652   93.84  0.13757   -5.75  0.13732   -5.65  0.20569   93.52
2.950000  0.20707   93.73  0.13732   -5.87  0.13719   -5.96  0.20729   93.62
3.000000  0.20863   93.54  0.13748   -6.33  0.13715   -6.33  0.20822   93.42
3.050000  0.20964   93.55  0.13738   -6.49  0.13710   -6.38  0.20894   92.85
3.100000  0.21100   93.23  0.13736   -6.75  0.13728   -6.75  0.21016   92.62
3.150000  0.21190   92.50  0.13741   -6.98  0.13705   -7.09  0.21149   92.70
3.200000  0.21318   92.85  0.13731   -7.34  0.13710   -7.24  0.21260   92.40
3.250000  0.21428   92.58  0.13716   -7.45  0.13713   -7.61  0.21418   92.31
3.300000  0.21580   92.26  0.13712   -7.77  0.13679   -7.77  0.21527   92.02
3.350000  0.21708   92.12  0.13736   -8.08  0.13711   -8.00  0.21637   91.57
3.400000  0.21793   91.59  0.13727   -8.25  0.13701   -8.16  0.21763   91.59
3.450000  0.21941   91.53  0.13685   -8.50  0.13695   -8.54  0.21920   91.46
3.500000  0.22059   91.18  0.13720   -8.75  0.13705   -8.77  0.21999   90.85
3.550000  0.22216   91.17  0.13708   -8.87  0.13697   -9.07  0.22181   91.04
3.600000  0.22365   90.95  0.13692   -9.26  0.13679   -9.27  0.22309   90.72
3.650000  0.22478   90.70  0.13698   -9.51  0.13706   -9.49  0.22423   90.24
3.700000  0.22594   90.29  0.13710   -9.70  0.13676   -9.56  0.22577   90.23
3.750000  0.22746   90.35  0.13698   -9.89  0.13686   -9.96  0.22696   90.08
3.800000  0.22897   89.94  0.13693  -10.20  0.13690  -10.21  0.22853   89.54
3.850000  0.23034   89.76  0.13694  -10.43  0.13686  -10.45  0.22986   89.37
3.900000  0.23189   89.86  0.13687  -10.57  0.13676  -10.58  0.23132   89.39
3.950000  0.23321   89.32  0.13685  -10.90  0.13672  -10.84  0.23271   89.00
4.000000  0.23496   89.24  0.13699  -11.18  0.13684  -11.05  0.23422   88.82
4.050000  0.23617   89.06  0.13677  -11.38  0.13673  -11.37  0.23553   88.50
4.100000  0.23780   88.55  0.13689  -11.61  0.13661  -11.53  0.23763   88.54
4.150000  0.23958   88.63  0.13673  -11.75  0.13657  -11.68  0.23889   88.33
4.200000  0.24127   88.50  0.13671  -11.96  0.13669  -12.08  0.24040   88.13
4.250000  0.24236   88.10  0.13673  -12.37  0.13656  -12.25  0.24149   87.71
4.300000  0.24387   87.85  0.13669  -12.44  0.13658  -12.42  0.24346   87.53
4.350000  0.24553   87.81  0.13652  -12.57  0.13636  -12.64  0.24506   87.47
4.400000  0.24680   87.56  0.13666  -12.99  0.13636  -12.90  0.24613   87.29
4.450000  0.24833   87.30  0.13640  -13.19  0.13647  -13.14  0.24787   87.03
4.500000  0.25045   87.21  0.13649  -13.23  0.13636  -13.34  0.24953   87.12
4.550000  0.25129   86.85  0.13656  -13.54  0.13629  -13.62  0.25088   86.75
4.600000  0.25343   86.82  0.13644  -13.80  0.13640  -13.85  0.25283   86.35
4.650000  0.25474   86.59  0.13650  -14.12  0.13627  -13.97  0.25424   86.38
4.700000  0.25620   86.29  0.13630  -14.25  0.13622  -14.24  0.25582   86.20
4.750000  0.25840   86.12  0.13629  -14.35  0.13617  -14.50  0.25730   85.80
4.800000  0.25950   86.02  0.13649  -14.65  0.13632  -14.62  0.25901   85.79
4.850000  0.26087   85.73  0.13619  -14.90  0.13617  -14.90  0.26095   85.60
4.900000  0.26306   85.51  0.13633  -15.10  0.13602  -14.98  0.26269   85.39
4.950000  0.26458   85.43  0.13630  -15.36  0.13626  -15.43  0.26376   85.12
5.000000  0.26591   85.15  0.13613  -15.63  0.13604  -15.56  0.26536   85.03
5.050000  0.26746   85.00  0.13601  -15.75  0.13596  -15.67  0.26754   84.80
5.100000  0.26954   84.75  0.13615  -16.07  0.13607  -16.02  0.26893   84.70
5.150000  0.27096   84.57  0.13619  -16.16  0.13589  -16.13  0.27035   84.42
5.200000  0.27296   84.40  0.13588  -16.31  0.13568  -16.45  0.27180   84.16
5.250000  0.27406   84.21  0.13591  -16.69  0.13577  -16.56  0.27391   84.14
5.300000  0.27591   84.07  0.13600  -16.89  0.13577  -16.81  0.27525   83.92
5.350000  0.27773   83.93  0.13601  -17.09  0.13581  -17.19  0.27665   83.68
5.400000  0.27881   83.80  0.13589  -17.34  0.13571  -17.33  0.27820   83.51
5.450000  0.28077   83.53  0.13587  -17.60  0.13579  -17.49  0.28007   83.47
5.500000  0.28227   83.33  0.13578  -17.68  0.13542  -17.55  0.28188   83.14
5.550000  0.28450   83.23  0.13570  -17.89  0.13555  -17.96  0.28364   82.98
5.600000  0.28574   83.08  0.13574  -18.17  0.13553  -18.12  0.28525   82.93
5.650000  0.28721   82.98  0.13569  -18.35  0.13549  -18.37  0.28686   82.66
5.700000  0.28947   82.67  0.13534  -18.43  0.13526  -18.51  0.28836   82.45
5.750000  0.29095   82.50  0.13552  -18.79  0.13536  -18.75  0.29028   82.39
5.800000  0.29296   82.33  0.13542  -18.87  0.13535  -18.98  0.29194   82.18
5.850000  0.29473   82.16  0.13526  -19.11  0.13520  -19.19  0.29366   82.04
5.900000  0.29577   82.03  0.13537  -19.45  0.13516  -19.33  0.29484   81.84
5.950000  0.29740   82.01  0.13546  -19.64  0.13518  -19.45  0.29752   81.61
6.000000  0.29892   81.67  0.13519  -19.81  0.13520  -19.82  0.29830   81.63
6.050000  0.30066   81.62  0.13525  -19.97  0.13501  -19.99  0.30035   81.34
6.100000  0.30254   81.34  0.13507  -20.14  0.13503  -20.16  0.30224   81.25
6.150000  0.30455   81.17  0.13498  -20.32  0.13495  -20.46  0.30380   80.98
6.200000  0.30656   81.00  0.13512  -20.64  0.13484  -20.57  0.30548   80.86
6.250000  0.30846   80.87  0.13509  -20.91  0.13483  -20.78  0.30710   80.72
6.300000  0.30929   80.73  0.13493  -20.92  0.13483  -20.88  0.30933   80.50
6.350000  0.31162   80.43  0.13498  -21.20  0.13485  -21.26  0.31069   80.36
6.400000  0.31319   80.37  0.13498  -21.57  0.13484  -21.47  0.31185   80.39
6.450000  0.31409   80.37  0.13482  -21.58  0.13462  -21.52  0.31424   79.98
6.500000  0.31655   80.07  0.13472  -21.76  0.13465  -21.81  0.31595   79.90
6.550000  0.31787   79.92  0.13462  -22.02  0.13466  -22.06  0.31714   79.85
6.600000  0.31997   79.83  0.13466  -22.24  0.13453  -22.24  0.31934   79.59
6.650000  0.32190   79.65  0.13461  -22.41  0.13438  -22.40  0.32110   79.45
6.700000  0.32368   79.36  0.13449  -22.56  0.13444  -22.65  0.32311   79.26
6.750000  0.32525   79.32  0.13455  -22.93  0.13433  -22.79  0.32355   79.28
6.800000  0.32659   79.27  0.13452  -23.17  0.13427  -23.02  0.32651   78.93
6.850000  0.32857   78.95  0.13442  -23.34  0.13427  -23.34  0.32834   78.86
6.900000  0.33036   78.78  0.13431  -23.57  0.13408  -23.42  0.32897   78.85
6.950000  0.33152   78.82  0.13426  -23.71  0.13416  -23.63  0.33179   78.46
7.000000  0.33431   78.49  0.13418  -23.81  0.13417  -23.96  0.33305   78.38
7.050000  0.33562   78.34  0.13415  -24.13  0.13403  -24.10  0.33445   78.38
7.100000  0.33807   78.27  0.13405  -24.38  0.13393  -24.32  0.33734   78.15
7.150000  0.33907   78.00  0.13411  -24.53  0.13386  -24.50  0.33886   77.90
7.200000  0.34042   77.99  0.13391  -24.75  0.13389  -24.77  0.33961   77.87
7.250000  0.34304   77.81  0.13387  -24.87  0.13378  -24.87  0.34228   77.69
7.300000  0.34389   77.60  0.13365  -25.10  0.13362  -25.05  0.34376   77.53
7.350000  0.34591   77.52  0.13361  -25.32  0.13348  -25.30  0.34468   77.53
7.400000  0.34736   77.47  0.13377  -25.51  0.13357  -25.56  0.34667   77.33
7.450000  0.34966   77.27  0.13368  -25.61  0.13341  -25.60  0.34880   77.14
7.500000  0.35092   77.10  0.13346  -25.89  0.13331  -25.86  0.34985   77.09
7.550000  0.35267   77.03  0.13349  -26.13  0.13338  -26.15  0.35211   76.93
7.600000  0.35532   76.84  0.13350  -26.31  0.13335  -26.38  0.35395   76.72
7.650000  0.35683   76.59  0.13338  -26.48  0.13320  -26.42  0.35633   76.51
7.700000  0.35883   76.58  0.13328  -26.69  0.13322  -26.70  0.35801   76.43
7.750000  0.35954   76.44  0.13311  -26.94  0.13315  -26.93  0.35899   76.36
7.800000  0.36206   76.20  0.13307  -27.06  0.13303  -27.10  0.36130   76.14
7.850000  0.36392   76.05  0.13303  -27.28  0.13295  -27.27  0.36279   76.04
7.900000  0.36488   75.84  0.13303  -27.62  0.13281  -27.46  0.36468   75.79
7.950000  0.36726   75.84  0.13296  -27.65  0.13288  -27.70  0.36662   75.71
8.000000  0.36864   75.62  0.13294  -27.97  0.13269  -27.89  0.36835   75.57
8.050000  0.37090   75.51  0.13273  -28.04  0.13261  -28.01  0.36991   75.45
8.100000  0.37202   75.34  0.13268  -28.34  0.13266  -28.34  0.37124   75.25
8.150000  0.37372   75.34  0.13252  -28.56  0.13258  -28.60  0.37316   75.14
8.200000  0.37601   75.11  0.13270  -28.77  0.13262  -28.66  0.37511   75.10
8.250000  0.37716   74.96  0.13250  -28.94  0.13233  -28.84  0.37682   75.04
8.300000  0.37904   74.80  0.13239  -29.12  0.13228  -29.14  0.37871   74.74
8.350000  0.38105   74.84  0.13227  -29.40  0.13226  -29.23  0.38037   74.74
8.400000  0.38273   74.64  0.13226  -29.48  0.13200  -29.53  0.38168   74.61
8.450000  0.38408   74.34  0.13227  -29.76  0.13213  -29.76  0.38386   74.35
8.500000  0.38631   74.38  0.13212  -29.93  0.13195  -29.94  0.38515   74.22
8.550000  0.38821   74.14  0.13218  -30.17  0.13202  -30.16  0.38763   74.08
8.600000  0.38984   73.99  0.13212  -30.37  0.13193  -30.39  0.38825   73.87
8.650000  0.39123   74.00  0.13191  -30.46  0.13169  -30.53  0.39065   73.95
8.700000  0.39263   73.68  0.13190  -30.76  0.13182  -30.77  0.39261   73.65
8.750000  0.39459   73.65  0.13183  -30.98  0.13161  -30.78  0.39395   73.60
8.800000  0.39668   73.41  0.13176  -31.24  0.13159  -31.21  0.39524   73.43
8.850000  0.39808   73.42  0.13160  -31.23  0.13145  -31.31  0.39678   73.28
8.900000  0.40045   73.17  0.13153  -31.53  0.13142  -31.56  0.39924   73.18
8.950000  0.40147   73.10  0.13140  -31.59  0.13107  -31.66  0.40109   73.12
9.000000  0.40359   73.07  0.13124  -31.97  0.13123  -31.84  0.40216   72.91
9.050000  0.40566   72.75  0.13137  -32.19  0.13126  -32.21  0.40448   72.79
9.100000  0.40677   72.76  0.13109  -32.26  0.13104  -32.33  0.40650   72.64
9.150000  0.40843   72.63  0.13110  -32.56  0.13094  -32.48  0.40832   72.49
9.200000  0.41047   72.51  0.13107  -32.77  0.13098  -32.61  0.40900   72.43
9.250000  0.41187   72.38  0.13082  -32.80  0.13076  -32.84  0.41162   72.28
9.300000  0.41308   72.18  0.13076  -33.07  0.13067  -33.17  0.41340   72.03
9.350000  0.41583   72.18  0.13049  -33.30  0.13064  -33.29  0.41431   71.95
9.400000  0.41739   71.88  0.13073  -33.59  0.13045  -33.46  0.41634   71.99
9.450000  0.41894   71.89  0.13043  -33.70  0.13052  -33.70  0.41796   71.73
9.500000  0.42036   71.72  0.13045  -33.86  0.13048  -33.96  0.41980   71.72
9.550000  0.42219   71.57  0.13036  -34.14  0.13031  -34.12  0.42147   71.59
9.600000  0.42406   71.53  0.13007  -34.25  0.13023  -34.33  0.42311   71.33
9.650000  0.42565   71.25  0.13032  -34.44  0.13004  -34.38  0.42412   71.21
9.700000  0.42731   71.23  0.12993  -34.70  0.13014  -34.77  0.42637   71.20
9.750000  0.42971   70.95  0.13003  -34.92  0.12996  -34.91  0.42875   70.94
9.800000  0.43023   70.91  0.12984  -35.01  0.12967  -35.05  0.42982   70.91
9.850000  0.43295   70.73  0.12990  -35.29  0.12983  -35.31  0.43239   70.66
9.900000  0.43386   70.64  0.12974  -35.42  0.12956  -35.44  0.43303   70.63
9.950000  0.43582   70.53  0.12972  -35.64  0.12955  -35.60  0.43506   70.50
10.000000  0.43817   70.35  0.12951  -35.91  0.12939  -35.90  0.43712   70.29
10.050000  0.43989   70.21  0.12948  -36.08  0.12937  -36.11  0.43794   70.23
10.100000  0.44081   70.23  0.12948  -36.34  0.12917  -36.16  0.43963   70.13
10.150000  0.44234   70.06  0.12940  -36.46  0.12932  -36.51  0.44177   70.03
10.200000  0.44475   69.96  0.12911  -36.59  0.12905  -36.63  0.44426   69.84
10.250000  0.44647   69.70  0.12918  -36.86  0.12886  -36.73  0.44463   69.77
10.300000  0.44763   69.71  0.12908  -36.93  0.12901  -37.00  0.44681   69.64
10.350000  0.44924   69.55  0.12875  -37.25  0.12880  -37.23  0.44920   69.45
10.400000  0.45192   69.31  0.12882  -37.38  0.12860  -37.40  0.45056   69.30
10.450000  0.45392   69.19  0.12876  -37.68  0.12851  -37.55  0.45184   69.23
10.500000  0.45399   69.23  0.12871  -37.87  0.12836  -37.80  0.45340   69.15
10.550000  0.45584   69.07  0.12826  -38.00  0.12828  -38.02  0.45583   69.00
10.600000  0.45867   68.87  0.12838  -38.25  0.12830  -38.18  0.45680   68.89
10.650000  0.45963   68.81  0.12842  -38.32  0.12837  -38.43  0.45862   68.82
10.700000  0.46101   68.64  0.12823  -38.69  0.12801  -38.66  0.46078   68.63
10.750000  0.46371   68.46  0.12806  -38.84  0.12797  -38.78  0.46178   68.46
10.800000  0.46442   68.42  0.12805  -39.03  0.12778  -39.05  0.46366   68.40
10.850000  0.46692   68.18  0.12802  -39.23  0.12785  -39.26  0.46519   68.26
10.900000  0.46796   68.21  0.12767  -39.20  0.12761  -39.40  0.46802   68.12
10.950000  0.46933   68.07  0.12751  -39.58  0.12745  -39.46  0.46862   67.99
11.000000  0.47227   67.81  0.12757  -39.74  0.12751  -39.78  0.47025   67.88
11.050000  0.47306   67.78  0.12768  -39.92  0.12758  -40.08  0.47192   67.76
11.100000  0.47497   67.66  0.12744  -40.00  0.12722  -40.16  0.47500   67.52
11.150000  0.47598   67.61  0.12737  -40.32  0.12707  -40.28  0.47545   67.57
11.200000  0.47893   67.37  0.12713  -40.46  0.12716  -40.56  0.47684   67.36
11.250000  0.47994   67.29  0.12721  -40.60  0.12694  -40.74  0.47959   67.13
11.300000  0.48181   67.22  0.12693  -40.91  0.12713  -40.86  0.48012   67.22
11.350000  0.48336   66.96  0.12681  -41.09  0.12677  -40.99  0.48204   66.99
11.400000  0.48521   66.97  0.12671  -41.33  0.12654  -41.27  0.48376   67.00
11.450000  0.48648   66.85  0.12660  -41.42  0.12649  -41.47  0.48599   66.72
11.500000  0.48744   66.79  0.12672  -41.57  0.12625  -41.50  0.48674   66.71
11.550000  0.49043   66.50  0.12626  -41.79  0.12617  -41.82  0.48884   66.54
11.600000  0.49113   66.48  0.12644  -41.98  0.12616  -42.05  0.49037   66.47
11.650000  0.49330   66.34  0.12629  -42.30  0.12599  -42.27  0.49284   66.23
11.700000  0.49436   66.18  0.12611  -42.31  0.12596  -42.40  0.49390   66.16
11.750000  0.49651   66.11  0.12601  -42.63  0.12605  -42.56  0.49519   66.13
11.800000  0.49812   65.94  0.12573  -42.87  0.12560  -42.90  0.49757   65.98
11.850000  0.50023   65.87  0.12557  -43.04  0.12573  -43.04  0.49905   65.85
11.900000  0.50097   65.77  0.12561  -43.16  0.12559  -43.20  0.50048   65.75
11.950000  0.50207   65.74  0.12563  -43.37  0.12529  -43.30  0.50147   65.62
12.000000  0.50409   65.50  0.12538  -43.54  0.12521  -43.50  0.50348   65.50
12.050000  0.50681   65.35  0.12557  -43.83  0.12516  -43.78  0.50554   65.23
12.100000  0.50760   65.26  0.12505  -43.96  0.12522  -43.87  0.50644   65.26
12.150000  0.50890   65.14  0.12517  -44.14  0.12514  -44.25  0.50894   65.14
12.200000  0.51164   65.06  0.12472  -44.37  0.12464  -44.34  0.51020   65.01
12.250000  0.51260   64.85  0.12471  -44.50  0.12468  -44.43  0.51141   64.90
12.300000  0.51406   64.84  0.12479  -44.73  0.12464  -44.72  0.51307   64.81
12.350000  0.51629   64.65  0.12456  -44.97  0.12453  -44.89  0.51467   64.67
12.400000  0.51727   64.49  0.12448  -45.11  0.12446  -45.19  0.51697   64.54
12.450000  0.51959   64.39  0.12463  -45.23  0.12417  -45.24  0.51832   64.36
12.500000  0.52100   64.29  0.12420  -45.45  0.12407  -45.36  0.51936   64.30
12.550000  0.52175   64.17  0.12420  -45.71  0.12428  -45.78  0.52226   64.19
12.600000  0.52433   64.07  0.12387  -45.83  0.12381  -45.81  0.52333   64.07
12.650000  0.52529   63.88  0.12377  -46.08  0.12385  -46.00  0.52393   64.00
12.700000  0.52624   63.92  0.12379  -46.12  0.12355  -46.19  0.52676   63.83
12.750000  0.52864   63.72  0.12352  -46.44  0.12355  -46.47  0.52720   63.68
12.800000  0.53047   63.64  0.12345  -46.60  0.12341  -46.53  0.52862   63.59
12.850000  0.53159   63.52  0.12370  -46.80  0.12317  -46.81  0.52974   63.52
