# HZ S RI R 50
3000000 -0.05509808889165132 0.039445536064586784 -0.13552484825315525 -0.009541153892351944 0 0 0 0
3026419 -0.05436897225439375 0.038572730049428586 -0.13575736323864135 -0.009484542825758144 0 0 0 0
3052838 -0.054413036574558565 0.03753155501518377 -0.1357603390512656 -0.009214806709653628 0 0 0 0
3079257 -0.054692795357585366 0.03561135394341542 -0.13584935097848605 -0.009115481263554433 0 0 0 0
3105676 -0.05487204621047562 0.03489450678433376 -0.13579345775090554 -0.00886433065206952 0 0 0 0
3132095 -0.054622489829674215 0.03410699971655527 -0.1357424906900441 -0.008812044794670053 0 0 0 0
3158514 -0.05467664456592727 0.033062315221343924 -0.1358616502153417 -0.008610484830772532 0 0 0 0
3184933 -0.0545431732140601 0.03165088421391875 -0.13570284981919864 -0.008407192374571422 0 0 0 0
3211352 -0.05498105299532255 0.030871841618317238 -0.13567467450743734 -0.008282554038146 0 0 0 0
3237771 -0.05503628000212937 0.029932241169352548 -0.13592060215752103 -0.008081626838223232 0 0 0 0
3264190 -0.055027112285596196 0.028904056625619828 -0.13594707278669416 -0.007804577833794568 0 0 0 0
3290609 -0.05508851224615053 0.02769810603062906 -0.13575893021054744 -0.007955959685071238 0 0 0 0
3317028 -0.055107814135904126 0.026828871632345732 -0.13581105596613616 -0.0076483438307363705 0 0 0 0
3343447 -0.05522097196600554 0.025866711852308797 -0.13575121742156945 -0.00741757396022793 0 0 0 0
3369866 -0.055259650051696065 0.024846046929204547 -0.13579214813106694 -0.007357666417918248 0 0 0 0
3396285 -0.055027913820018044 0.024024140474309653 -0.13592662664608157 -0.007225129678830402 0 0 0 0
3422704 -0.05475550582487224 0.022809777724475108 -0.1358996899649941 -0.006937897582045244 0 0 0 0
3449123 -0.05471539575340157 0.022046702695416826 -0.13576404249022359 -0.0070443105044744846 0 0 0 0
3475542 -0.05549412460021285 0.021356086286339854 -0.13588005589803234 -0.006710485859300781 0 0 0 0
3501961 -0.055340002320612314 0.020197587144091506 -0.13593115747824241 -0.006606577923730539 0 0 0 0
3528380 -0.05547944154007346 0.019047756492193594 -0.13577301738743633 -0.006552892258772605 0 0 0 0
3554799 -0.05531283871971621 0.01854998417222875 -0.13579038960943346 -0.006272397305394741 0 0 0 0
3581218 -0.0553976228380822 0.01780157916513167 -0.1358668305094068 -0.0061748044668588145 0 0 0 0
3607637 -0.05579131794828158 0.01703082839897737 -0.13586960646794022 -0.00606626864870491 0 0 0 0
3634056 -0.055753140968482766 0.016185139837107065 -0.13575445792988836 -0.006058617203874588 0 0 0 0
3660475 -0.05578832229075892 0.014923275181797521 -0.13587331389971796 -0.005741186078145711 0 0 0 0
3686894 -0.05570375043355683 0.014044685200902534 -0.13585408686821948 -0.005882093906813843 0 0 0 0
3713313 -0.05572021600372293 0.013311502560255085 -0.1358407911577454 -0.00540742532883813 0 0 0 0
3739732 -0.05590252776635567 0.012268891107643162 -0.13586127593594102 -0.005265054064409048 0 0 0 0
3766151 -0.056178957277044146 0.011512947240550553 -0.1359420419732638 -0.005111973956655367 0 0 0 0
3792570 -0.05641974239718403 0.010754623952287752 -0.13591896234741094 -0.005189726497246249 0 0 0 0
3818989 -0.0560533864646755 0.009876433994536622 -0.13571240072986138 -0.005018169341324149 0 0 0 0
3845408 -0.056335535287018415 0.009037314204497656 -0.1359111973742984 -0.004871452695222993 0 0 0 0
3871827 -0.05655687112514274 0.008530056936542121 -0.13593121651998907 -0.004694710961474607 0 0 0 0
3898246 -0.0562055643090633 0.0074318533758414695 -0.1358713290765515 -0.004390414068829985 0 0 0 0
3924665 -0.056288113044939816 0.0065247073508622995 -0.13596912405196093 -0.004427808834272547 0 0 0 0
3951084 -0.056684571231428726 0.00537025088563476 -0.13599163624193292 -0.00438407364081073 0 0 0 0
3977503 -0.056482171509498545 0.0050949565139688895 -0.1359187505037111 -0.004100077994731449 0 0 0 0
4003922 -0.056650329185940346 0.0041431472537452425 -0.1358635391603713 -0.0038984655314066273 0 0 0 0
4030341 -0.05702424146299138 0.0033622418293258066 -0.1357471420812229 -0.003892539276339274 0 0 0 0
4056760 -0.05700858571701562 0.002861469849181689 -0.13594196872756423 -0.0037856104184327637 0 0 0 0
4083179 -0.056748001954395604 0.0018655490726105267 -0.13599531620417707 -0.003616906076374168 0 0 0 0
4109598 -0.05706108995388803 0.0009347831019097557 -0.13592160032575537 -0.0035961988299832094 0 0 0 0
4136017 -0.05712471194014874 0.00027176936752972187 -0.13581147134480862 -0.003311580701519256 0 0 0 0
4162436 -0.05708577784287048 -0.00047340159250591887 -0.13591577481275388 -0.003339004820072616 0 0 0 0
4188855 -0.05707813346130873 -0.0006739607479223978 -0.1358855805285478 -0.0030053214263711615 0 0 0 0
4215274 -0.057138924725704934 -0.0017507461380743075 -0.13583855898582045 -0.003010226279202852 0 0 0 0
4241693 -0.05751527780100984 -0.002526808595174481 -0.13604263319041837 -0.002925015377277723 0 0 0 0
4268112 -0.0578937367888284 -0.0032256202331302428 -0.13597775350630215 -0.0027910294481109455 0 0 0 0
4294531 -0.057844896845080984 -0.004002626999873943 -0.13598865374493038 -0.0025434438335868786 0 0 0 0
4320950 -0.05783123078341322 -0.004914337708376967 -0.13590097454274272 -0.002249417660323537 0 0 0 0
4347369 -0.057673810530625105 -0.0055756918358879845 -0.13593625785547991 -0.002530791771483772 0 0 0 0
4373788 -0.057979201815229336 -0.005931752808182907 -0.13601429066776988 -0.0020664593061063825 0 0 0 0
4400207 -0.057694789431193313 -0.006928479397152489 -0.1360504269455605 -0.002159100681686161 0 0 0 0
4426626 -0.05807659123438185 -0.00755651841068034 -0.13594996525785527 -0.0021359818404186465 0 0 0 0
4453045 -0.058171088038918684 -0.007911445128197225 -0.13599792883035186 -0.0019474912031688097 0 0 0 0
4479464 -0.0576425916895492 -0.00913631600074877 -0.1360432001644227 -0.0016352926139491415 0 0 0 0
4505883 -0.05845273907023279 -0.00946490833003365 -0.1359491644353003 -0.0015740446872009482 0 0 0 0
4532302 -0.058516530166215726 -0.010519588176831724 -0.13600464132964699 -0.0017130976771423338 0 0 0 0
4558721 -0.05857181094492104 -0.011000926850124524 -0.13596125793856426 -0.001476879928882594 0 0 0 0
4585140 -0.05872117818343189 -0.011680748670565344 -0.13589249828203456 -0.0013092889393879774 0 0 0 0
4611559 -0.05880585943690774 -0.012637636150773561 -0.13608423524109128 -0.0011907091198392263 0 0 0 0
4637978 -0.05886434662089313 -0.012640292575246638 -0.1359441112540861 -0.0010137367483998364 0 0 0 0
4664397 -0.05936929996102769 -0.01382746357759426 -0.13607955871304356 -0.0010006623615680282 0 0 0 0
4690816 -0.05902097656422593 -0.014270041966526174 -0.13607266361981493 -0.0008868727005216474 0 0 0 0
4717235 -0.058947332393827635 -0.015272440450429003 -0.13616105790128497 -0.0004960087970379856 0 0 0 0
4743654 -0.0591127017714607 -0.0161108999220366 -0.13584607431739706 -0.0008420511660420846 0 0 0 0
4770073 -0.059979130031637524 -0.01642531522696025 -0.13607991624505922 -0.0004763619622172373 0 0 0 0
4796492 -0.059553224346258 -0.01689196194416331 -0.13612878749021 -0.00041566980408846955 0 0 0 0
4822911 -0.05929612766290502 -0.017884323031272006 -0.13618282567002127 -0.00037288840006056533 0 0 0 0
4849330 -0.05942604462495587 -0.018523149518470627 -0.13607358842836523 -0.00022360998828864224 0 0 0 0
4875749 -0.059733663146272174 -0.019352890003792093 -0.13598577960210506 5.389579792026277e-05 0 0 0 0
4902168 -0.060268265348672835 -0.019776373340225334 -0.13606044109545254 7.047865788650695e-05 0 0 0 0
4928587 -0.06006795422378842 -0.020401461158889075 -0.13612883767488831 0.0002083652526792827 0 0 0 0
4955006 -0.06011634148181226 -0.02120866766299293 -0.1361766692424012 0.0004822300290170836 0 0 0 0
4981425 -0.060551079897494905 -0.022045818559248285 -0.13605178562231193 0.00015570468255295936 0 0 0 0
5007844 -0.06043082023534957 -0.02253592220150081 -0.13607492645756414 0.0003548474569765089 0 0 0 0
5034263 -0.06045138589891778 -0.023077009203419062 -0.13615413883805322 0.0006785370495833932 0 0 0 0
5060682 -0.060581355237573006 -0.02403531951877328 -0.13607177143519297 0.0008440260734455511 0 0 0 0
5087101 -0.06083969577629238 -0.024476448063038635 -0.13619740427759708 0.000656503225006734 0 0 0 0
5113520 -0.06086790911870571 -0.02504800676390326 -0.13608089721417868 0.001020280654231586 0 0 0 0
5139939 -0.06081423354909875 -0.02578825630026148 -0.1359713743661361 0.0010085267001170779 0 0 0 0
5166358 -0.06128948889989224 -0.026694867351684533 -0.13609349665594003 0.0008959230348074453 0 0 0 0
5192777 -0.06158718386626118 -0.027007435561790007 -0.13611018167891104 0.0012166392455387526 0 0 0 0
5219196 -0.061180823464556645 -0.027444420594602077 -0.1361246589652607 0.001340195914680117 0 0 0 0
5245615 -0.06145536355145629 -0.028377551294513526 -0.1361739685386275 0.0013691273017819214 0 0 0 0
5272034 -0.06207642081544406 -0.029172776618937437 -0.1360472166843222 0.0015313040523064073 0 0 0 0
5298453 -0.06165101275954834 -0.029197082002603354 -0.13613589810784518 0.0018608356679198172 0 0 0 0
5324872 -0.061918430789893 -0.030305665552741123 -0.1363224899358409 0.0019578414512598807 0 0 0 0
5351291 -0.06219646883967079 -0.03137632859896125 -0.1360879826507372 0.0021910113149034398 0 0 0 0
5377710 -0.06220077300738029 -0.03139893446070407 -0.1360400466031368 0.0018696912532483777 0 0 0 0
5404129 -0.062178498174516574 -0.03220898785819873 -0.1362369102466458 0.0021320865854680456 0 0 0 0
5430548 -0.06233670372501662 -0.03291427661759346 -0.13602573032756854 0.002093471628840563 0 0 0 0
5456967 -0.0628268846141058 -0.033505480020570313 -0.13607143168126423 0.0023658912177403142 0 0 0 0
5483386 -0.06282558562275117 -0.03408596398913478 -0.13605117297915567 0.002399641061830683 0 0 0 0
5509805 -0.06273211456273 -0.0344194471173285 -0.13620597863702172 0.0026327231762664615 0 0 0 0
5536224 -0.06304728760881291 -0.035215067535816984 -0.1361857382726609 0.002652069761171193 0 0 0 0
5562643 -0.06299826259155544 -0.0357560221338372 -0.13599133490354615 0.002770706479435498 0 0 0 0
5589062 -0.06376858271337181 -0.03657566195495578 -0.13605039521593096 0.003004914421387199 0 0 0 0
5615481 -0.0635174013677373 -0.03707303612040069 -0.13600219271925038 0.002888584940766451 0 0 0 0
5641900 -0.06359034677167122 -0.03754459942971933 -0.13624473768880174 0.0033723227839923303 0 0 0 0
5668319 -0.064174179162712 -0.038484917806996866 -0.13618200369074046 0.0033358783658891085 0 0 0 0
5694738 -0.06398292527500693 -0.03871167246805932 -0.13624228120365298 0.003271170149435811 0 0 0 0
5721157 -0.06392743889012971 -0.03942252934221587 -0.13626697852124559 0.00346606601089019 0 0 0 0
5747576 -0.0640425951336448 -0.04020251779269664 -0.13614562302133745 0.0036024598094303306 0 0 0 0
5773995 -0.06458340906128307 -0.041378099132642426 -0.13605163323971367 0.003796896294782336 0 0 0 0
5800414 -0.06482222957996152 -0.04144755463035998 -0.13604712453627377 0.0036623193422802717 0 0 0 0
5826833 -0.06473271266274201 -0.04183621726333954 -0.13608138240032072 0.003773299512044149 0 0 0 0
5853252 -0.06487250982275491 -0.042498188347329595 -0.13622402024617614 0.003857531719473216 0 0 0 0
5879671 -0.06488410195099491 -0.04287220716145555 -0.13622331330640094 0.004140373110489276 0 0 0 0
5906090 -0.06513042176520313 -0.0437526821994937 -0.13620192279728582 0.004405389313259739 0 0 0 0
5932509 -0.06587316033522779 -0.044385066597801795 -0.13608357003861943 0.00411781225153046 0 0 0 0
5958928 -0.06551946613767276 -0.04504505861434688 -0.13617664791689726 0.004386589009089328 0 0 0 0
5985347 -0.06555699159355814 -0.045413232447175315 -0.13618588118727226 0.004504156608411088 0 0 0 0
6011766 -0.06614783702015843 -0.04625620731496333 -0.13609042029035037 0.004539807375504396 0 0 0 0
6038185 -0.06625161832203225 -0.046387031162633485 -0.13613541128018067 0.004688128427304759 0 0 0 0
6064604 -0.06637216197799115 -0.047295884374548285 -0.13598263495149782 0.004933559325774252 0 0 0 0
6091023 -0.06652943248197449 -0.04791908474418675 -0.13608947647380853 0.004869474487688822 0 0 0 0
6117442 -0.06642979659346888 -0.048351366732292095 -0.13610224434453957 0.004985425616043405 0 0 0 0
6143861 -0.06656581647239877 -0.04916726288226651 -0.13618573635790063 0.005300841257012752 0 0 0 0
6170280 -0.06707430173883858 -0.04998829199121101 -0.13606159222357692 0.005233007954519169 0 0 0 0
6196699 -0.0669160756838179 -0.05033672157906569 -0.13602928492692187 0.005240863525904317 0 0 0 0
6223118 -0.06732481776849676 -0.050595166550770995 -0.1361035593597477 0.005443984817941875 0 0 0 0
6249537 -0.06743785179650306 -0.05120137619118325 -0.13593399049233326 0.0055064544305015745 0 0 0 0
6275956 -0.06744703788746113 -0.05201984874365664 -0.13601536265613887 0.005716884824267728 0 0 0 0
6302375 -0.06776815220947922 -0.05260963252666088 -0.13602034001317811 0.0055973246109216656 0 0 0 0
6328794 -0.06785817466259103 -0.05262796765613776 -0.13611123790325527 0.006031400848610545 0 0 0 0
6355213 -0.06820486087119645 -0.05318290118483593 -0.13594000517408847 0.005823230993445326 0 0 0 0
6381632 -0.06849564530796602 -0.05436476803339789 -0.13609435824513597 0.00598047333125585 0 0 0 0
6408051 -0.06878953025567046 -0.05482920386117213 -0.13592777061597544 0.006195615579548704 0 0 0 0
6434470 -0.06861355199454594 -0.05534283382598199 -0.13602214705777585 0.00600167758460782 0 0 0 0
6460889 -0.06880831445186202 -0.0554613876638524 -0.13595519214187046 0.00652317916723742 0 0 0 0
6487308 -0.06869199427626814 -0.05669032793403344 -0.13603394572936536 0.006443547856568272 0 0 0 0
6513727 -0.06939963671710468 -0.05708400183897738 -0.13599490034503417 0.006744339116422485 0 0 0 0
6540146 -0.06953713769001277 -0.05741264962593288 -0.13594620159840706 0.006496857774750832 0 0 0 0
6566565 -0.06971407913832009 -0.05785372211427377 -0.13612960669931695 0.0069774369897715755 0 0 0 0
6592984 -0.06976430773209746 -0.05893821605882293 -0.135837302536073 0.0069463206169028905 0 0 0 0
6619403 -0.06998333532616398 -0.059113744097242966 -0.1361403882676013 0.006983417384535509 0 0 0 0
6645822 -0.06981793202080909 -0.05940283355875553 -0.13597113623352702 0.006995826102004669 0 0 0 0
6672241 -0.0704390148887551 -0.06067663171587196 -0.13598895142985906 0.007282946190131259 0 0 0 0
6698660 -0.07062057877512784 -0.06111291101726883 -0.1360005509868336 0.007197433065359688 0 0 0 0
6725079 -0.0705975319291702 -0.0612952820121298 -0.1359156340532677 0.00722268332887891 0 0 0 0
6751498 -0.07107564731457543 -0.06205662872672937 -0.13594499266868498 0.007707464756510392 0 0 0 0
6777917 -0.07102139327571538 -0.06276517774167137 -0.1359764442475853 0.007887752246323243 0 0 0 0
6804336 -0.07124946127552648 -0.06319783107724838 -0.13609941334646072 0.008003665126468598 0 0 0 0
6830755 -0.07210581407772829 -0.06374646445218153 -0.1359546735849629 0.007661073121840266 0 0 0 0
6857174 -0.07171768670539151 -0.06393776893275768 -0.13606016170702853 0.007791439366267403 0 0 0 0
6883593 -0.07180403961507703 -0.06473714850543084 -0.1359113979431766 0.00821792209760828 0 0 0 0
6910012 -0.07233040917584704 -0.06526555692515272 -0.1357975301729911 0.00792948363894112 0 0 0 0
6936431 -0.07259710858011593 -0.06620298092734755 -0.13582284283986004 0.00801218872736594 0 0 0 0
6962850 -0.07262336699134678 -0.06596907963653441 -0.13599795841762063 0.008131161145187185 0 0 0 0
6989269 -0.07293260389424257 -0.06711445343920264 -0.13575656459009916 0.00835820223407537 0 0 0 0
7015688 -0.07311414535348483 -0.06816417267419424 -0.13589240685069714 0.008221895214689048 0 0 0 0
7042107 -0.07338473118750688 -0.06807415143144337 -0.13584875526699108 0.008407720717276248 0 0 0 0
7068526 -0.07353371008995255 -0.06887726038977558 -0.13593791097397326 0.008655121091543313 0 0 0 0
7094945 -0.07388180130529211 -0.0693677593166417 -0.13588874629533232 0.008688483294427706 0 0 0 0
7121364 -0.0740203495020257 -0.06934544902875081 -0.13581463249132733 0.008651552262450356 0 0 0 0
7147783 -0.07410190667886077 -0.07005784725424591 -0.1357984165391323 0.009144100224517863 0 0 0 0
7174202 -0.07448258697813763 -0.0705661942633565 -0.13576281289291373 0.009004154216534312 0 0 0 0
7200621 -0.07473651698015092 -0.07161740286767265 -0.1357417431195311 0.009216913725810308 0 0 0 0
7227040 -0.07523235086729975 -0.07195194939696058 -0.1358735929469415 0.00907736886970305 0 0 0 0
7253459 -0.07515253277427116 -0.07276766346929081 -0.13585085417724918 0.009119969646532342 0 0 0 0
7279878 -0.07551921783739701 -0.07309351667730728 -0.13581997471834567 0.009588389115443867 0 0 0 0
7306297 -0.07553344124066981 -0.07380929189742508 -0.13588249954930448 0.00946128702576763 0 0 0 0
7332716 -0.0757533420043177 -0.07373937075489284 -0.13584483592937943 0.009638980696946783 0 0 0 0
7359135 -0.07627158091886575 -0.07495218411367002 -0.13581819193099 0.009666940628383717 0 0 0 0
7385554 -0.07631794082431531 -0.07495634186517967 -0.1359514594412089 0.009696737094965827 0 0 0 0
7411973 -0.07643749253701546 -0.07567397270367872 -0.13572214835471316 0.009738986253668714 0 0 0 0
7438392 -0.07658087804098761 -0.07639689847920793 -0.13573856614683716 0.01012766912060272 0 0 0 0
7464811 -0.07667452046222192 -0.07808723743707172 -0.13571895100421236 0.010194229099423318 0 0 0 0
7491230 -0.0771605870993435 -0.07716865507420004 -0.13571606710842546 0.009921795916556867 0 0 0 0
7517649 -0.07770433714120116 -0.07723470294059334 -0.1358418938479141 0.010522492921831604 0 0 0 0
7544068 -0.07752373155709467 -0.07855482793018326 -0.13564847914635045 0.010379122817814543 0 0 0 0
7570487 -0.07774090591163069 -0.07973479488221694 -0.1357504606994232 0.010110666320313584 0 0 0 0
7596906 -0.07800086179968106 -0.07952054457981868 -0.13562071895794994 0.010474683392110783 0 0 0 0
7623325 -0.078585941794895 -0.0797647786714677 -0.13575007043199094 0.010957088454415958 0 0 0 0
7649744 -0.07854578488749187 -0.08080612909183645 -0.13562144348121075 0.010802551628815405 0 0 0 0
7676163 -0.07916523046086646 -0.08145888914413017 -0.13567198444797143 0.010862002740025184 0 0 0 0
7702582 -0.07918846944248449 -0.08142495066968536 -0.13568340858203526 0.01117020289944577 0 0 0 0
7729001 -0.0792005047081401 -0.08319908099748982 -0.1355378627762157 0.010964063596120562 0 0 0 0
7755420 -0.0792809793406819 -0.08286877054973991 -0.13549857381491048 0.010798476807699886 0 0 0 0
7781839 -0.07972543223338269 -0.08410794820759569 -0.13565965939176108 0.010993739307952615 0 0 0 0
7808258 -0.08038689279634537 -0.08386238157371088 -0.13560247074451856 0.01151926543231688 0 0 0 0
7834677 -0.0805138891095541 -0.08408696482364421 -0.1355118646974536 0.011168262194399564 0 0 0 0
7861096 -0.08057606624128148 -0.08601933625037812 -0.13552582449213715 0.011648533243277795 0 0 0 0
7887515 -0.08086606448257895 -0.08585498099318865 -0.13557383750579394 0.011483379601598436 0 0 0 0
7913934 -0.08122730041073603 -0.08656069260601185 -0.1356440614552573 0.011924695910692803 0 0 0 0
7940353 -0.08146593223270017 -0.08656290156377167 -0.13567310651781114 0.011866859642977044 0 0 0 0
7966772 -0.08164060606874965 -0.08796145255584063 -0.135476640067764 0.011822082703603787 0 0 0 0
7993191 -0.08190373569451878 -0.08853044461278121 -0.13535660105031314 0.011899810508551554 0 0 0 0
8019610 -0.08228042933643832 -0.08848573162856009 -0.13544849400551098 0.01179728270477377 0 0 0 0
8046029 -0.08220486987153998 -0.08908482846439134 -0.13568559015870532 0.012167995317463414 0 0 0 0
8072448 -0.08270009671269885 -0.0909190587704064 -0.13559253104977573 0.012557968173104275 0 0 0 0
8098867 -0.08296897627853791 -0.08997239245220578 -0.13537363943275885 0.012230898041920105 0 0 0 0
8125286 -0.08370191965136774 -0.09176217477987374 -0.13526406297725677 0.012360117530234636 0 0 0 0
8151705 -0.083582643624477 -0.09072412955423342 -0.1355122061403878 0.012350205829070109 0 0 0 0
8178124 -0.08352884521425794 -0.09270840828645611 -0.1353337114647137 0.012616966480017958 0 0 0 0
8204543 -0.08374530026038142 -0.09271532496500286 -0.13531216171338115 0.01279486051970934 0 0 0 0
