# HZ S RI R 50
3000000 -0.048725117873631166 -0.002728279319282328 -0.13602008022645182 -0.0035381376567858265 0 0 0 0
3026419 -0.049431844972643 -0.004146094325775521 -0.13625863846397196 -0.003003062288265307 0 0 0 0
3052838 -0.04940505308406941 -0.0056159862521825 -0.1361060622492084 -0.002662960914784009 0 0 0 0
3079257 -0.04957114676575712 -0.0074139039026851995 -0.13621702516243037 -0.0026851898686419294 0 0 0 0
3105676 -0.04994158870251256 -0.008780160713927008 -0.13617322389095124 -0.0025500817280367048 0 0 0 0
3132095 -0.049721832054608006 -0.010018012409298362 -0.13619107937979816 -0.0022133026524432157 0 0 0 0
3158514 -0.04988604668144428 -0.011385997572844333 -0.13596526551253119 -0.002118161008629727 0 0 0 0
3184933 -0.049898920282393296 -0.01266400873484168 -0.1359344949758169 -0.0018988535206774552 0 0 0 0
3211352 -0.05035342595225032 -0.01418627422074275 -0.13608765469512166 -0.0017150044575369242 0 0 0 0
3237771 -0.050298482841677594 -0.015499216888320391 -0.1362320676219918 -0.0014244553489731028 0 0 0 0
3264190 -0.05016176958519434 -0.016512693530451768 -0.13606441417127033 -0.0011201438248300084 0 0 0 0
3290609 -0.050807058911336044 -0.01826739015094464 -0.13606381731808304 -0.0010590936294012827 0 0 0 0
3317028 -0.050512076011415726 -0.019482998112848652 -0.13622328022586105 -0.0006108760371998702 0 0 0 0
3343447 -0.050637762245804296 -0.02092868667751647 -0.13602550588560583 -0.0006499835014773027 0 0 0 0
3369866 -0.05099802509618969 -0.022039397082500977 -0.1359929678567942 -0.00040736300992303125 0 0 0 0
3396285 -0.05090452055095222 -0.02323107425077458 -0.13609763950804504 -8.780846379427102e-06 0 0 0 0
3422704 -0.0508647168632666 -0.02521041746684253 -0.13609451032669978 0.0003065934986357369 0 0 0 0
3449123 -0.051330671163262384 -0.02593389469536896 -0.13599534821753528 9.486657842703474e-05 0 0 0 0
3475542 -0.051401977859967383 -0.027170482179521 -0.13606745417084795 0.00048124191340097593 0 0 0 0
3501961 -0.05140529908977157 -0.028207342203808945 -0.13604340057280728 0.0008237192819159964 0 0 0 0
3528380 -0.051650684585785665 -0.030366500305809334 -0.1358479494722299 0.0008869501409653685 0 0 0 0
3554799 -0.051663031682998656 -0.031017325961376137 -0.13598335629986702 0.001128665313130655 0 0 0 0
3581218 -0.051814999890147616 -0.0323943373572342 -0.13600820480759912 0.0014943672948646918 0 0 0 0
3607637 -0.05197318071271777 -0.03348691293933555 -0.13591608774114242 0.0014510251809539227 0 0 0 0
3634056 -0.052162847989676894 -0.03495945720787597 -0.13587558291738164 0.0014579697249365701 0 0 0 0
3660475 -0.052342771930249235 -0.036350431448512695 -0.13594799652485876 0.0016854561025768792 0 0 0 0
3686894 -0.052395109934808476 -0.037273291884625 -0.13587652529806296 0.0019234934284688462 0 0 0 0
3713313 -0.05258606031419705 -0.03879453271144461 -0.1358181933448936 0.0021051349540892935 0 0 0 0
3739732 -0.053048289788736505 -0.040125717478022994 -0.1358571007493728 0.00254343305483004 0 0 0 0
3766151 -0.05305062985960772 -0.041033745358487556 -0.13592483798150132 0.0025545959349929583 0 0 0 0
3792570 -0.053067058950632184 -0.04232358773913116 -0.13598484870658567 0.0028455300882483823 0 0 0 0
3818989 -0.0531366639088198 -0.043338761412429753 -0.13577376895188517 0.0032776922530035092 0 0 0 0
3845408 -0.05317005897602918 -0.044513739412666044 -0.13589868241693823 0.0032402795320986303 0 0 0 0
3871827 -0.0535057623390163 -0.04555529752967287 -0.1357371586541862 0.0034432919842275742 0 0 0 0
3898246 -0.05369701126612985 -0.04681577748768908 -0.13578015951404623 0.0035781100397174227 0 0 0 0
3924665 -0.053883883015912286 -0.048228378678247114 -0.13595132122572173 0.003941484712350674 0 0 0 0
3951084 -0.05415785319217593 -0.04971826872690387 -0.1358036684994082 0.004022623445849833 0 0 0 0
3977503 -0.05393308261043093 -0.05048995502610093 -0.13585860775036446 0.004062820266016795 0 0 0 0
4003922 -0.05466844641813524 -0.051483918834414596 -0.13575306226978862 0.004431751127169904 0 0 0 0
4030341 -0.05462662579926482 -0.05299331375227805 -0.13569715648281314 0.004588846583100116 0 0 0 0
4056760 -0.05463964278146072 -0.05410032784613887 -0.1356496335532545 0.004775780696559678 0 0 0 0
4083179 -0.054674990010440634 -0.05517777073025098 -0.13565829648210773 0.004762118054243523 0 0 0 0
4109598 -0.055131538156056446 -0.05631132385725189 -0.13562264801701582 0.0049022521695100746 0 0 0 0
4136017 -0.055242359321074026 -0.05725351254170479 -0.1357091743726446 0.005265794793632133 0 0 0 0
4162436 -0.05518683098202989 -0.0587894481078923 -0.1355134418646866 0.005412745206612726 0 0 0 0
4188855 -0.05563286261848606 -0.05963448137315683 -0.1356895793499995 0.00546680444136523 0 0 0 0
4215274 -0.055520578280157676 -0.06065972588240663 -0.13560554201014585 0.005549804698189611 0 0 0 0
4241693 -0.05572317020293241 -0.06183258153008044 -0.1357382653917025 0.006044837661923295 0 0 0 0
4268112 -0.05613869312152242 -0.06292134631683077 -0.13550138945278553 0.00622986842537537 0 0 0 0
4294531 -0.05654797026414286 -0.0640901198419649 -0.13557840453460096 0.006100812548595922 0 0 0 0
4320950 -0.056403972465970176 -0.06525094046172816 -0.13551513007473903 0.006494726979014034 0 0 0 0
4347369 -0.05614819465327109 -0.06655673369570926 -0.1353714115660027 0.006488703282720037 0 0 0 0
4373788 -0.05675808400400647 -0.06741243893106531 -0.13557816217455543 0.006662031421512556 0 0 0 0
4400207 -0.05688848804098635 -0.06803873534412935 -0.13549507875929062 0.006807163022752146 0 0 0 0
4426626 -0.05707580943488479 -0.06961265395942995 -0.1355515519656723 0.007027390737921203 0 0 0 0
4453045 -0.05709673829308276 -0.07041101081008107 -0.13535518698270982 0.007238397996988574 0 0 0 0
4479464 -0.05730519283021006 -0.07171475990066285 -0.13550581836600767 0.007366792551388542 0 0 0 0
4505883 -0.057293308506518134 -0.07238965056421794 -0.13530772699651947 0.007728658617130256 0 0 0 0
4532302 -0.05742033918079356 -0.07414518987329498 -0.1355998946810978 0.007943311823376598 0 0 0 0
4558721 -0.057945786286549374 -0.07523454833905908 -0.1353630622823815 0.007937436282342737 0 0 0 0
4585140 -0.058225873908287894 -0.07592545826676654 -0.13538040405545446 0.007986805504191206 0 0 0 0
4611559 -0.05835596538634381 -0.077353737662751 -0.13539905158642804 0.00838047461387587 0 0 0 0
4637978 -0.058455917243295505 -0.07843157388085135 -0.1353843418928874 0.008259400172269001 0 0 0 0
4664397 -0.05819538241892161 -0.08044848013448425 -0.13520754967816281 0.008728787938811771 0 0 0 0
4690816 -0.058756163862105325 -0.08046652993706399 -0.13540671307918184 0.008726748995866835 0 0 0 0
4717235 -0.05877139553590541 -0.08217205964843906 -0.1352878935008072 0.00889281245318022 0 0 0 0
4743654 -0.05946350629493481 -0.08296196073377637 -0.13530554080116394 0.009018482185716978 0 0 0 0
4770073 -0.059665062277445904 -0.08447108054768573 -0.13533188705354104 0.009062316391850794 0 0 0 0
4796492 -0.05915462680706499 -0.08571232027054639 -0.1352726050756102 0.009391850593018058 0 0 0 0
4822911 -0.059595347306403784 -0.08551631023109327 -0.13524861840748034 0.009437225215320286 0 0 0 0
4849330 -0.05919516089604727 -0.08831645963018278 -0.13515563162156807 0.009492714139751949 0 0 0 0
4875749 -0.05976432349234329 -0.08883645870158383 -0.13531944668133467 0.010115005621049278 0 0 0 0
4902168 -0.060117308471278066 -0.08988934395055981 -0.13509194353609502 0.01006201202084642 0 0 0 0
4928587 -0.06012422889604863 -0.09084356627233892 -0.13517774967853158 0.010053542610986052 0 0 0 0
4955006 -0.06025031108979638 -0.09176564316824314 -0.13535223539935207 0.010480752060211351 0 0 0 0
4981425 -0.0605755172952833 -0.09360825447797855 -0.13507863685898605 0.010413676517465938 0 0 0 0
5007844 -0.0612087681915801 -0.0938986592132606 -0.13494887716602633 0.010619787173494545 0 0 0 0
5034263 -0.06076855095118843 -0.09550791244665813 -0.13515002515651212 0.010556301390211645 0 0 0 0
5060682 -0.060627585215128954 -0.0969486896854216 -0.13489642939482627 0.010877576610329972 0 0 0 0
5087101 -0.061508977374964 -0.09724541068236686 -0.13494620683862016 0.011198007896940549 0 0 0 0
5113520 -0.06111655527755196 -0.09857751410170047 -0.1349902176665764 0.011286077603478823 0 0 0 0
5139939 -0.06171490965101551 -0.09961471231971265 -0.1349794080394439 0.011596107342406391 0 0 0 0
5166358 -0.0625017157037435 -0.10068876072167282 -0.13495255536187128 0.011535364539510266 0 0 0 0
5192777 -0.062178009671393676 -0.10121533782619764 -0.13482739234168256 0.01191365508951682 0 0 0 0
5219196 -0.06199342116903113 -0.10258828718652824 -0.1349025227976984 0.011686888262409009 0 0 0 0
5245615 -0.062499473025841905 -0.10349574532102049 -0.13500814106225775 0.012063361184131233 0 0 0 0
5272034 -0.06334506611971949 -0.10395243294703513 -0.13481948820441852 0.012317932617528395 0 0 0 0
5298453 -0.0631708031963395 -0.10566217769943295 -0.13499289547736407 0.012438148520558636 0 0 0 0
5324872 -0.06333628777145135 -0.10663505129985991 -0.1348335536353584 0.012492639715756607 0 0 0 0
5351291 -0.06399917842976159 -0.1080079500351188 -0.1349846682231525 0.01299468540963207 0 0 0 0
5377710 -0.06358048266875238 -0.10850096183250034 -0.13474710345504723 0.013012627171039869 0 0 0 0
5404129 -0.0634461394172906 -0.1093447396538898 -0.1348301748735425 0.01291913706234534 0 0 0 0
5430548 -0.06428742643186117 -0.11021982734288933 -0.13474926014555422 0.013430546029688083 0 0 0 0
5456967 -0.06490707940908033 -0.11163507474251216 -0.13468299449934404 0.013413974962948216 0 0 0 0
5483386 -0.06445461981504662 -0.11276433173324156 -0.13463080974552943 0.013788158181042936 0 0 0 0
5509805 -0.06466246484006316 -0.11326772078725163 -0.13487500231481409 0.013714560319490894 0 0 0 0
5536224 -0.0650454384653191 -0.11391190132254674 -0.1346795975551084 0.01383449763126708 0 0 0 0
5562643 -0.0655456281109837 -0.11525603577500133 -0.13467130694848325 0.014297822715003248 0 0 0 0
5589062 -0.06599395056123057 -0.11627287721385203 -0.13462381650976796 0.014381518272099058 0 0 0 0
5615481 -0.06542474834110644 -0.11780691293995268 -0.13442798844593357 0.014411646649368174 0 0 0 0
5641900 -0.06584641377065573 -0.11851238190276013 -0.13468142063634114 0.014444313191798196 0 0 0 0
5668319 -0.0667398949093091 -0.11919962314975442 -0.13458556392226698 0.014520365820633097 0 0 0 0
5694738 -0.06684812528467515 -0.12031074964362043 -0.13462400213932188 0.014752723885227113 0 0 0 0
5721157 -0.06649833698711742 -0.12038087354403705 -0.13451623033728582 0.01470667282884739 0 0 0 0
5747576 -0.06683821672750134 -0.12212639977345863 -0.13443858613598866 0.014841972191900478 0 0 0 0
5773995 -0.06789311984689511 -0.12322958201431926 -0.13453018057919092 0.0154677757661544 0 0 0 0
5800414 -0.0673621316264239 -0.12439879037062647 -0.13426833205498373 0.015383742082626469 0 0 0 0
5826833 -0.06805932900498209 -0.12520423219395033 -0.1343536989429868 0.01544084642080801 0 0 0 0
5853252 -0.06784971283007592 -0.1253352682991016 -0.1343364808947717 0.015436487323552423 0 0 0 0
5879671 -0.06856456180482376 -0.12728409756985226 -0.1343272932211303 0.015725323024807947 0 0 0 0
5906090 -0.06873791537681863 -0.1273645624930974 -0.13435317206453135 0.015905511788717314 0 0 0 0
5932509 -0.0685175737845961 -0.12909498203394093 -0.1340794551702249 0.016225670306045513 0 0 0 0
5958928 -0.06975167791365705 -0.12963439669381407 -0.1344157168730725 0.016238272644767977 0 0 0 0
5985347 -0.06998748297776661 -0.13000715881902636 -0.13432790703584027 0.016655990892686844 0 0 0 0
6011766 -0.06989943939520643 -0.1320440609400151 -0.13403414094477906 0.01636118490196264 0 0 0 0
6038185 -0.06995833639829754 -0.13188271401064333 -0.1341326668544161 0.016752476252265405 0 0 0 0
6064604 -0.0695401991089304 -0.133402994295137 -0.13398121865260995 0.016840447132088793 0 0 0 0
6091023 -0.07064173587019781 -0.13484581058620265 -0.13409841947565712 0.01689331526152664 0 0 0 0
6117442 -0.07076463257831368 -0.13506857872560135 -0.13404577991165897 0.016915285843915908 0 0 0 0
6143861 -0.07112337538418172 -0.13581537044342715 -0.13406031001096752 0.017472553054161434 0 0 0 0
6170280 -0.07119611918787534 -0.13693858258747998 -0.1338500772892078 0.01756870766143124 0 0 0 0
6196699 -0.07162860460945705 -0.13804189034869457 -0.13395446039452005 0.01746096082867611 0 0 0 0
6223118 -0.07200198879761162 -0.13809599116675392 -0.13392175833197778 0.017794645442025084 0 0 0 0
6249537 -0.07227256690668418 -0.13898109439461842 -0.13384852708843933 0.01795076851680936 0 0 0 0
6275956 -0.07182743173036858 -0.1403230741818405 -0.13377086179580272 0.017990170194654233 0 0 0 0
6302375 -0.07304535327116467 -0.14178574438976388 -0.13379184481625192 0.017930908168401812 0 0 0 0
6328794 -0.07338844280295197 -0.1413198495548422 -0.1338279541434534 0.0184619275992966 0 0 0 0
6355213 -0.07349352015947254 -0.1423166455569908 -0.13370533350490063 0.01866492798580856 0 0 0 0
6381632 -0.07372953973381553 -0.14360938102206383 -0.13390038444929037 0.01886469051426886 0 0 0 0
6408051 -0.07338636433287415 -0.1444863779506823 -0.13357162306651862 0.0186207164077025 0 0 0 0
6434470 -0.07469562897067392 -0.14561816570777167 -0.13357385042215492 0.018798269328567097 0 0 0 0
6460889 -0.07496365132734968 -0.1458174486241289 -0.13360325196941628 0.01929211101569488 0 0 0 0
6487308 -0.07377032544969352 -0.1476408147342078 -0.1335109199097274 0.01915139614590251 0 0 0 0
6513727 -0.0746725382385768 -0.14834485399472 -0.13334268091055917 0.01945364143732739 0 0 0 0
6540146 -0.07558008517239043 -0.1490314931600594 -0.13348234519364338 0.01948130033107548 0 0 0 0
6566565 -0.07606931327910933 -0.14908562219014038 -0.1333629730845729 0.019880753741966652 0 0 0 0
6592984 -0.07556925183118249 -0.1510514173529095 -0.13320438088110345 0.019891241094678682 0 0 0 0
6619403 -0.0762139343167955 -0.1509523703159545 -0.13338809255038836 0.019957335409617378 0 0 0 0
6645822 -0.0762941105778851 -0.1518681555212616 -0.13324225692127437 0.01987575123762897 0 0 0 0
6672241 -0.0765865818970717 -0.1534684365313006 -0.13318685314429216 0.02036059816960663 0 0 0 0
6698660 -0.0767517079574326 -0.15393579691913542 -0.13307902243321126 0.020385668422683335 0 0 0 0
6725079 -0.07825507235147924 -0.1549277497102115 -0.13313430631135525 0.02042096545190008 0 0 0 0
6751498 -0.07792671084835887 -0.15521109367567423 -0.13309945810178941 0.020979620821257296 0 0 0 0
6777917 -0.07829489694094247 -0.1563403521350509 -0.13317465505171153 0.020939681243048333 0 0 0 0
6804336 -0.07840843405657473 -0.15694053630357546 -0.13315144093576417 0.021115672180472018 0 0 0 0
6830755 -0.07852526099250048 -0.1582709474016084 -0.1329827982553007 0.02087420835973496 0 0 0 0
6857174 -0.07953132996435895 -0.15915585540837707 -0.13321764552936405 0.021148057579598444 0 0 0 0
6883593 -0.07954463853855429 -0.1591624474017117 -0.1329018935810948 0.021516511783734156 0 0 0 0
6910012 -0.07907846154134178 -0.16039059181043902 -0.13302521585173116 0.02149183051342418 0 0 0 0
6936431 -0.08009029433037039 -0.1615186331083384 -0.13269617643828222 0.021469918898441482 0 0 0 0
6962850 -0.08072806801048295 -0.16158234988439638 -0.1329152070365759 0.02184054503647964 0 0 0 0
6989269 -0.08013516874707093 -0.16286496060655187 -0.13284980447795702 0.022198274699856132 0 0 0 0
7015688 -0.08141008477553645 -0.1638000595897945 -0.13267205869113857 0.021815104496015696 0 0 0 0
7042107 -0.08212332346397516 -0.16524697392099705 -0.13282368680388906 0.021995393252421464 0 0 0 0
7068526 -0.08189695107937894 -0.16499733713347667 -0.13286750737175052 0.022453797195598604 0 0 0 0
7094945 -0.08132515809058771 -0.1662892183109184 -0.13247119886677736 0.022436356865252735 0 0 0 0
7121364 -0.08296345630807299 -0.16735414354049535 -0.13275077080561443 0.022417146299388076 0 0 0 0
7147783 -0.08308269057304551 -0.1674980619157695 -0.13257482173608137 0.023027354540162054 0 0 0 0
7174202 -0.08259475656833713 -0.16871327480065293 -0.13259343166864734 0.022803786631811762 0 0 0 0
7200621 -0.08305616473369691 -0.17005464740986914 -0.13236825062761626 0.02316312588441396 0 0 0 0
7227040 -0.0841902008339308 -0.17048074806424635 -0.13254679832071486 0.02291332924575189 0 0 0 0
7253459 -0.08462559812787729 -0.17161204634483812 -0.13247181065698932 0.02335553714434412 0 0 0 0
7279878 -0.08475246332680922 -0.17107675830262392 -0.1323683482899207 0.02363970194615218 0 0 0 0
7306297 -0.08424960163545515 -0.1726014503646891 -0.13235088161694783 0.02379884787166993 0 0 0 0
7332716 -0.0844682119321989 -0.17327642979069027 -0.1323376249613648 0.023886050503039984 0 0 0 0
7359135 -0.08521652847565729 -0.17457327395546973 -0.13224693502369317 0.02375738072676646 0 0 0 0
7385554 -0.08614453127554683 -0.17494647995324733 -0.13226081775529308 0.023894329817465892 0 0 0 0
7411973 -0.08714307099391973 -0.17598661156280396 -0.13214555501003467 0.02403895906692313 0 0 0 0
7438392 -0.08710263742681042 -0.17685073691692993 -0.13219478385785619 0.024247102189881093 0 0 0 0
7464811 -0.08639039401349559 -0.17777527893751627 -0.13195235183524512 0.024245731199294327 0 0 0 0
7491230 -0.08704908521967715 -0.1784410281199041 -0.13197133032706376 0.02430066867712789 0 0 0 0
7517649 -0.08820992576652334 -0.17923857634978516 -0.13208606971163275 0.02476177095361247 0 0 0 0
7544068 -0.08742447640844356 -0.1799360070942334 -0.13182258906082206 0.024745065153902096 0 0 0 0
7570487 -0.08815786638420439 -0.18090305029290474 -0.13191989068022777 0.024729557844695275 0 0 0 0
7596906 -0.0894973359936711 -0.18134689895794875 -0.13196592883982758 0.02504175349773978 0 0 0 0
7623325 -0.08822270710770458 -0.18215627934288986 -0.13179809764456576 0.02536235431620384 0 0 0 0
7649744 -0.08873819871269216 -0.18309941742766953 -0.13154102426920083 0.025220992745183846 0 0 0 0
7676163 -0.09009387707773488 -0.18344646564623934 -0.131796661338578 0.025523107255304794 0 0 0 0
7702582 -0.08999428443124768 -0.18470751231690666 -0.13171860838959595 0.02590626504029711 0 0 0 0
7729001 -0.0897035038835725 -0.18520156391447964 -0.13142830595827637 0.02557811906114264 0 0 0 0
7755420 -0.0909819946401039 -0.18624806144469921 -0.13152880307425852 0.025603779214565574 0 0 0 0
7781839 -0.09147994579960535 -0.18726282320187726 -0.1314937251634591 0.025927555613200266 0 0 0 0
7808258 -0.09058684320214604 -0.18755130382769034 -0.13153315385049924 0.02620058594658762 0 0 0 0
7834677 -0.0912787910697426 -0.18835666762213077 -0.13139039951236653 0.0260083734142025 0 0 0 0
7861096 -0.09187265106933351 -0.18891347476544063 -0.1313269275552913 0.026515565438078405 0 0 0 0
7887515 -0.09267414446904158 -0.19030257378742355 -0.13143241678653222 0.026242917311066594 0 0 0 0
7913934 -0.09394870388015852 -0.1908153081322544 -0.1314057477952965 0.026699906193134268 0 0 0 0
7940353 -0.09380325488848999 -0.19156898898655086 -0.13131078012590097 0.026923907454864036 0 0 0 0
7966772 -0.09321605107408815 -0.1917989086992676 -0.13129888029492873 0.02706230835769229 0 0 0 0
7993191 -0.09379833374388664 -0.19280885609806597 -0.13096458337085776 0.027013400184326512 0 0 0 0
8019610 -0.09482820046973404 -0.19359329048225518 -0.13112108347682477 0.02693097539186144 0 0 0 0
8046029 -0.09487985068741871 -0.19488843478516588 -0.13122343315235685 0.027159120334997885 0 0 0 0
8072448 -0.09423392339716553 -0.1950970175350034 -0.13099675897799287 0.027718041455575694 0 0 0 0
8098867 -0.09490843669634995 -0.19559576067874943 -0.13098488191523258 0.0278176493662256 0 0 0 0
8125286 -0.09526883223662776 -0.19656837646852565 -0.13079202737847148 0.027630038693579422 0 0 0 0
8151705 -0.09654592570467325 -0.1977256255390393 -0.13080831285937367 0.027557689192489014 0 0 0 0
8178124 -0.0955766956742487 -0.19846691058070168 -0.13099853758166335 0.02810490998252284 0 0 0 0
8204543 -0.09610306807846926 -0.1989806907058488 -0.1306932992073191 0.028026224101003076 0 0 0 0
8230962 -0.09672461161040127 -0.19927384738511947 -0.13053496444068488 0.0281388591375297 0 0 0 0
8257381 -0.09889112568483947 -0.20018132760606477 -0.13086138997208974 0.02838589875594411 0 0 0 0
