# HZ S RI R 50
3000000 -0.05799333487859657 0.003341546470827371 0.13551945199152407 0.0060665090666987675 0 0 0 0
3026419 -0.058374182592402936 0.002059167086003378 0.13569755385971372 0.005927023093070118 0 0 0 0
3052838 -0.058451610019244635 0.0009149229249973101 0.1357520510560944 0.005711117321903142 0 0 0 0
3079257 -0.05871840477820318 -0.0010092902562256758 0.13578516915316577 0.005469425340983812 0 0 0 0
3105676 -0.05925816025793835 -0.0022258936713632723 0.13577176714440595 0.00525328719040246 0 0 0 0
3132095 -0.058549892829180446 -0.0035203956617134206 0.13566474461660377 0.005110828231845329 0 0 0 0
3158514 -0.05894982504437905 -0.004394867737065752 0.1358532339355955 0.004993288546389109 0 0 0 0
3184933 -0.058491752056946796 -0.006248702215888594 0.13570829967474834 0.004731832821278357 0 0 0 0
3211352 -0.05931026361805186 -0.007061851451717494 0.13563627854683705 0.004552227474538525 0 0 0 0
3237771 -0.059482384950823204 -0.008282873527068068 0.13569847075419258 0.004268430398973072 0 0 0 0
3264190 -0.05957199323972587 -0.009839099122774855 0.13570775348454936 0.004011009162709515 0 0 0 0
3290609 -0.059626717002559476 -0.011045683168547078 0.13564551608959344 0.004100352443852121 0 0 0 0
3317028 -0.059436879395947446 -0.012367037765066764 0.1357388285880915 0.003866495468430427 0 0 0 0
3343447 -0.06006619584394429 -0.013386550692695804 0.13569327337380738 0.003681392139273335 0 0 0 0
3369866 -0.060129553854411634 -0.014555128129682442 0.13574193739687188 0.003549599608668217 0 0 0 0
3396285 -0.06010823737306118 -0.015658509028737184 0.1357216708777016 0.003301528239310126 0 0 0 0
3422704 -0.05993096749102436 -0.017127955677210586 0.13568060625413136 0.003143125356301823 0 0 0 0
3449123 -0.06067036453373953 -0.018262376904184016 0.13575836118265974 0.0029019433309121424 0 0 0 0
3475542 -0.06060824570111317 -0.019576661671225678 0.13564093623757428 0.002781370130200687 0 0 0 0
3501961 -0.06090898220455959 -0.02050603740507911 0.13564542296114804 0.0027398837880327053 0 0 0 0
3528380 -0.06102608767476962 -0.021568866820131875 0.1356196185349714 0.0025864482823306687 0 0 0 0
3554799 -0.06121834317828526 -0.023250590697603653 0.1356229601348575 0.0020385031813117465 0 0 0 0
3581218 -0.061388627647673215 -0.0241323337512152 0.1357434282687248 0.0020759242475302626 0 0 0 0
3607637 -0.061460457458894606 -0.025153142920013347 0.13566854136111098 0.0020133778173858116 0 0 0 0
3634056 -0.061501068875904064 -0.02575312121593822 0.13575672341041964 0.001812234746482742 0 0 0 0
3660475 -0.06161165633103747 -0.027758653037861562 0.13568454754109474 0.0016039310111680498 0 0 0 0
3686894 -0.06178096589698662 -0.028580540313073454 0.13571772675283816 0.0014886328225851226 0 0 0 0
3713313 -0.062059101422058005 -0.02971208817321361 0.13580030399013113 0.0012507741425859097 0 0 0 0
3739732 -0.062345348822079164 -0.031170518623788 0.13561018121244017 0.0012304406584295465 0 0 0 0
3766151 -0.06272687481053664 -0.03207807432110027 0.13568141647392112 0.0010373182005454448 0 0 0 0
3792570 -0.06274760725260907 -0.03306645010213071 0.13569384097387455 0.0008872552134286981 0 0 0 0
3818989 -0.06264610932415575 -0.03448100533957153 0.13556548594684623 0.0003777921868010281 0 0 0 0
3845408 -0.06271996141958189 -0.035169509894561635 0.13563878268507026 0.00042965783012737695 0 0 0 0
3871827 -0.0631534451112722 -0.03602150922796192 0.13554350096587628 0.0004836808219728675 0 0 0 0
3898246 -0.06338263501947004 -0.037470947667005476 0.13554309166067402 -3.596965860926068e-05 0 0 0 0
3924665 -0.06361435963128899 -0.03887347949763049 0.13560895685157756 -7.493851778620831e-05 0 0 0 0
3951084 -0.06370551520908495 -0.03994881369952528 0.1355128634931316 -4.847665592183858e-05 0 0 0 0
3977503 -0.06362203777406777 -0.04086072603598761 0.1355335428879633 -0.0004847765020054494 0 0 0 0
4003922 -0.06396005556660807 -0.042169373493654426 0.13561713701109518 -0.00028727803694105565 0 0 0 0
4030341 -0.06439885591583712 -0.04292149184875425 0.13544499274532143 -0.0005485734096551224 0 0 0 0
4056760 -0.06397186510475404 -0.0438179057359563 0.13561494950765415 -0.0008549118815840778 0 0 0 0
4083179 -0.06406487595349161 -0.045136935116542855 0.13561381451514223 -0.0010553003816202813 0 0 0 0
4109598 -0.06490138808988474 -0.04628003586309693 0.1354377254718053 -0.001258115696479377 0 0 0 0
4136017 -0.06501980422118671 -0.04728782208093242 0.13556996294939694 -0.0010706088879581124 0 0 0 0
4162436 -0.06507267717543343 -0.04836981149065682 0.13558868546941508 -0.0012425245044980545 0 0 0 0
4188855 -0.06493977137472887 -0.04901077438496993 0.1355275412080945 -0.0016862143046085852 0 0 0 0
4215274 -0.06534286926516127 -0.05035199867020044 0.13539874122443618 -0.0017786439684155022 0 0 0 0
4241693 -0.06582947051131623 -0.05106452929658107 0.13549587889800305 -0.0017160522248127327 0 0 0 0
4268112 -0.06611284124781742 -0.05193399848416693 0.13554593546923135 -0.0020412365875531165 0 0 0 0
4294531 -0.06653517866519472 -0.05353021324205382 0.13554259436558816 -0.002056529738490682 0 0 0 0
4320950 -0.06643862104061922 -0.05452673947124614 0.13556726537573743 -0.0022122894558954647 0 0 0 0
4347369 -0.06613224010340511 -0.05548407332828933 0.13542085696642633 -0.0023108540217770097 0 0 0 0
4373788 -0.066373758357584 -0.05610285776187472 0.13547477445651956 -0.0025316534582653476 0 0 0 0
4400207 -0.0666807128224055 -0.0573180580711482 0.13554660547670522 -0.002622135187218082 0 0 0 0
4426626 -0.06737353838971687 -0.05824489781599566 0.1355381405642562 -0.0028803415639551033 0 0 0 0
4453045 -0.06728683917049723 -0.059382710741724035 0.13533032061076794 -0.003081322109144525 0 0 0 0
4479464 -0.0670786818382098 -0.06047558712228331 0.1355630236853877 -0.003075157877420674 0 0 0 0
4505883 -0.0673905934243224 -0.06082912857624134 0.13537520697789324 -0.003260678497582843 0 0 0 0
4532302 -0.06759044039153947 -0.06258379179030671 0.1355261358830654 -0.0035109142019299454 0 0 0 0
4558721 -0.06828388663774392 -0.06338870048839094 0.13551833528627646 -0.0036021271835042197 0 0 0 0
4585140 -0.06850208698445008 -0.06391590332566584 0.1353990575438989 -0.003593363998902634 0 0 0 0
4611559 -0.06858575846528665 -0.06543585986533552 0.1352654318842882 -0.0038453586057893827 0 0 0 0
4637978 -0.06857775482150573 -0.06619740133300127 0.1354493720339316 -0.00399161647196954 0 0 0 0
4664397 -0.06909856837349058 -0.06712518411456532 0.13533701875835008 -0.004183111657246125 0 0 0 0
4690816 -0.0690733620524083 -0.06819089360526079 0.13533513939136596 -0.004313864830116839 0 0 0 0
4717235 -0.0694692017462533 -0.06899808865441513 0.1354033306371953 -0.004489115069414178 0 0 0 0
4743654 -0.06978020171719294 -0.07070372813867772 0.13525647936778987 -0.004615646513572438 0 0 0 0
4770073 -0.06990084719822083 -0.07082730812563459 0.1353557772088513 -0.004616046565867888 0 0 0 0
4796492 -0.07007582633744061 -0.07182209985830278 0.1352932427402295 -0.004754229257688832 0 0 0 0
4822911 -0.0702537050637362 -0.07321374088586771 0.1353245857296774 -0.004973667484109438 0 0 0 0
4849330 -0.07057279898495254 -0.07414305318539746 0.13521180294853846 -0.005067563289052925 0 0 0 0
4875749 -0.07101158345206242 -0.07554977493725361 0.1352010879761715 -0.0051824596909902125 0 0 0 0
4902168 -0.07082549693712874 -0.0765934748125306 0.13537142042927325 -0.005314872698708742 0 0 0 0
4928587 -0.0709006329621485 -0.07699748582830085 0.13522968307103736 -0.005534778809848925 0 0 0 0
4955006 -0.07130081288465832 -0.07827744947531372 0.13521612029518168 -0.00555768248200279 0 0 0 0
4981425 -0.07204058358025943 -0.07879136584892307 0.13529526361205388 -0.005653980785725094 0 0 0 0
5007844 -0.07126645107035302 -0.08115191185982758 0.1353361191754011 -0.005759201383198662 0 0 0 0
5034263 -0.07167887630350066 -0.08163926084239462 0.13520789965492394 -0.0060716415190187716 0 0 0 0
5060682 -0.07238989041287865 -0.0823693062328731 0.13507338040601585 -0.0060128886782193185 0 0 0 0
5087101 -0.07226209234371223 -0.08333405198440667 0.13528102911751544 -0.006419140849547679 0 0 0 0
5113520 -0.07259021296978749 -0.08430716997050541 0.13517390642981048 -0.006311750132008289 0 0 0 0
5139939 -0.07279094308810068 -0.08506179391498067 0.13523580458895731 -0.006627840678917701 0 0 0 0
5166358 -0.07355015188215808 -0.08557148258349502 0.13532557885528873 -0.006827175754948806 0 0 0 0
5192777 -0.07331170138455168 -0.0872204154734582 0.13510741507135837 -0.006903527617963151 0 0 0 0
5219196 -0.0737733694056614 -0.08788829773058689 0.1351642917019035 -0.006916076986804987 0 0 0 0
5245615 -0.07358344103741901 -0.08896516094634166 0.13510412212269088 -0.00708930897672323 0 0 0 0
5272034 -0.07453377869463494 -0.08990761486464675 0.13508525678413463 -0.007459930093730329 0 0 0 0
5298453 -0.07460103155955689 -0.09097159967770829 0.1350456627341859 -0.0073634940777003045 0 0 0 0
5324872 -0.07471249571423512 -0.0925364090127324 0.13505143351572954 -0.0074121136716108005 0 0 0 0
5351291 -0.07553193199210523 -0.09332722700987715 0.13499902745737805 -0.007619201354112862 0 0 0 0
5377710 -0.07544374038437117 -0.09329874611744657 0.1351219675349849 -0.007600204522953401 0 0 0 0
5404129 -0.07484293861966111 -0.09455750218307477 0.1349977819928693 -0.008048602460142064 0 0 0 0
5430548 -0.07570509564315492 -0.09539748914384638 0.13496848790189558 -0.008038901620331221 0 0 0 0
5456967 -0.07601545986295871 -0.09697018030772767 0.13493315477937298 -0.008078024036204137 0 0 0 0
5483386 -0.07602335754029137 -0.09701382008309427 0.13490177666682743 -0.008390242134639103 0 0 0 0
5509805 -0.07643856573867543 -0.09865308543365835 0.13491951592127366 -0.008527363835048084 0 0 0 0
5536224 -0.07689385900192298 -0.09955715841150185 0.13495468780955167 -0.008563002123019926 0 0 0 0
5562643 -0.07735379433304003 -0.10009839388366958 0.1348599439159609 -0.008655030756002723 0 0 0 0
5589062 -0.07699944405596136 -0.10108931770240086 0.13494918410554171 -0.008737973364487474 0 0 0 0
5615481 -0.07766762325970102 -0.10232022822815934 0.13492956675439277 -0.00906311014650799 0 0 0 0
5641900 -0.07748818173661803 -0.10292572904850444 0.13487805518270682 -0.00909612365310937 0 0 0 0
5668319 -0.07803972161658047 -0.1036135332759767 0.13477637172840912 -0.009284158549074275 0 0 0 0
5694738 -0.07863267706934457 -0.10471013954947493 0.1348739968138096 -0.00946631099686912 0 0 0 0
5721157 -0.07849721637684591 -0.10579789491234214 0.1348736737004756 -0.009428045300073127 0 0 0 0
5747576 -0.07875626669781421 -0.10616644823040775 0.13484509767267502 -0.009641243184931791 0 0 0 0
5773995 -0.07937868151972992 -0.1072879065306234 0.13500677032317135 -0.009818416316541703 0 0 0 0
5800414 -0.08019315426520626 -0.10831264715285863 0.13466608061330454 -0.00989708206753856 0 0 0 0
5826833 -0.08035822414651574 -0.10907995087073899 0.13475265173571804 -0.009953312269740734 0 0 0 0
5853252 -0.08000331199465231 -0.10989683612418076 0.13477200600495248 -0.010159708424081324 0 0 0 0
5879671 -0.0797544280488859 -0.11053502151224147 0.13472242170200727 -0.010264588988749778 0 0 0 0
5906090 -0.08078169787037266 -0.11124947350822517 0.1347060451850982 -0.010650333146205683 0 0 0 0
5932509 -0.0818934917594128 -0.11235582249735462 0.13468658034277675 -0.010404164231527074 0 0 0 0
5958928 -0.08121832683003412 -0.11306101818948434 0.13475694142185313 -0.010645782699733151 0 0 0 0
5985347 -0.08205567943799309 -0.11403364899003555 0.13454951188292436 -0.010732291589309257 0 0 0 0
6011766 -0.08212629842381666 -0.11537943154382058 0.13461352299491447 -0.010814210706933796 0 0 0 0
6038185 -0.08196977685322829 -0.11557673468796067 0.13466665744593118 -0.011015773971977408 0 0 0 0
6064604 -0.0830663469459865 -0.1166184242742894 0.13440360655049202 -0.011302374969051843 0 0 0 0
6091023 -0.08280763405666619 -0.11798267596966372 0.13454218684461633 -0.011120106834615204 0 0 0 0
6117442 -0.08320902688670609 -0.1178143755298171 0.13454885160818852 -0.011402390021443908 0 0 0 0
6143861 -0.08381371672097819 -0.1197143850572922 0.13441832516790164 -0.011653533292080763 0 0 0 0
6170280 -0.08372806420836654 -0.12029540537897508 0.1343974095239152 -0.011461394194730388 0 0 0 0
6196699 -0.08417774252168811 -0.12052455748690763 0.13448210185916384 -0.011701493113874395 0 0 0 0
6223118 -0.08461857334443965 -0.1213407021544712 0.13455201464286867 -0.012259810521033636 0 0 0 0
6249537 -0.08567333319500083 -0.12256160967524041 0.13416469329402111 -0.011989883038809507 0 0 0 0
6275956 -0.08547947367709244 -0.12378278026471672 0.13442729469452583 -0.012158770977731359 0 0 0 0
6302375 -0.0858244460295153 -0.12427968412169953 0.13436469534836115 -0.012559689847528085 0 0 0 0
6328794 -0.08632389260835681 -0.12493993985427693 0.13422246173884866 -0.01246261029226232 0 0 0 0
6355213 -0.08628837110460826 -0.125745680298472 0.1342496303156623 -0.012377851226410287 0 0 0 0
6381632 -0.08654816543365255 -0.12621116204335756 0.1342117626305046 -0.012574343309218009 0 0 0 0
6408051 -0.08721153582407606 -0.12728779508879226 0.13422957181085604 -0.013120452570419303 0 0 0 0
6434470 -0.0874239226671675 -0.12854568395513652 0.13417289179814845 -0.012907982239168385 0 0 0 0
6460889 -0.08761985050486387 -0.12921681244462546 0.13408925192242402 -0.013025836761956563 0 0 0 0
6487308 -0.08813276977573198 -0.13010901847760298 0.1341114468244727 -0.013035148131360962 0 0 0 0
6513727 -0.0888382642969875 -0.13016884670054832 0.13407785114846787 -0.013216187435090055 0 0 0 0
6540146 -0.08867615492586846 -0.1316766389561324 0.13407366404247262 -0.013484174874124814 0 0 0 0
6566565 -0.08920465758064082 -0.13230775392634203 0.1340457236007062 -0.01342810225850046 0 0 0 0
6592984 -0.0894503946296092 -0.13299738774102787 0.13408450137460395 -0.013832698030001325 0 0 0 0
6619403 -0.08920838861582725 -0.1337243558617018 0.13399256929818545 -0.01379866858743308 0 0 0 0
6645822 -0.08952966814437073 -0.1336400487828407 0.1338160107782207 -0.013878441208328656 0 0 0 0
6672241 -0.09008407534629652 -0.13558128492133303 0.1338586808485851 -0.01411407902413705 0 0 0 0
6698660 -0.09075763722102549 -0.13654392778739355 0.13377188193355913 -0.014005594431606675 0 0 0 0
6725079 -0.0914259954925117 -0.13684998729518683 0.13397711337777848 -0.014247291477480285 0 0 0 0
6751498 -0.09151000363353172 -0.1379155165898518 0.13385297064124216 -0.01459612271946855 0 0 0 0
6777917 -0.09214266429506697 -0.1386260527372772 0.13391103099159463 -0.014578466284708422 0 0 0 0
6804336 -0.09260739566065704 -0.13927775817451168 0.1339232218598757 -0.014650473583646318 0 0 0 0
6830755 -0.09282638841943332 -0.14031276917130306 0.13371300306309672 -0.014477810403258448 0 0 0 0
6857174 -0.09275589048869123 -0.14069888608396794 0.1337924655387177 -0.01499147965131912 0 0 0 0
6883593 -0.0931641615825119 -0.14166518200881908 0.13363629474036884 -0.015106965870832703 0 0 0 0
6910012 -0.09347913260409638 -0.1427565809956843 0.13355528026737662 -0.014807901011739334 0 0 0 0
6936431 -0.09448179122768621 -0.14276408374023353 0.13362535061379816 -0.015135609396533517 0 0 0 0
6962850 -0.09488564017224395 -0.14355522494018463 0.1336213969406013 -0.015298971470310656 0 0 0 0
6989269 -0.09476312407881841 -0.1448511320643674 0.13355689556359635 -0.015228386737332214 0 0 0 0
7015688 -0.09601731902305043 -0.14564445384787125 0.13357548248968665 -0.015797449883508147 0 0 0 0
7042107 -0.095757498199766 -0.14625740961771885 0.1333781194278587 -0.01586982036023779 0 0 0 0
7068526 -0.09593376577299693 -0.1474625747571976 0.1334744185939557 -0.015796216824727375 0 0 0 0
7094945 -0.09658767036274984 -0.14765489902731355 0.13339777202285594 -0.01594639518753517 0 0 0 0
7121364 -0.09621926997571409 -0.14833021209566505 0.13354116698811477 -0.016057563480701992 0 0 0 0
7147783 -0.09696225107433085 -0.14923788702284219 0.1332907363673723 -0.01591033977378802 0 0 0 0
7174202 -0.09802723251346061 -0.15001158779574297 0.13340072809930076 -0.016385524515523803 0 0 0 0
7200621 -0.09823628938865214 -0.1509418137405768 0.13326308561306227 -0.016438282249980864 0 0 0 0
7227040 -0.09816927922646862 -0.15132304843500338 0.1332227025106061 -0.016500844311802168 0 0 0 0
7253459 -0.09833399552582663 -0.15273148185554342 0.13321884745126383 -0.01656073760326152 0 0 0 0
7279878 -0.0998129318014002 -0.15305531012383838 0.1331378853466077 -0.016638342583721804 0 0 0 0
7306297 -0.09985849666259423 -0.15381764937744566 0.13332756657016673 -0.016973702658541694 0 0 0 0
7332716 -0.10002236972239312 -0.154516370527749 0.13327818873238403 -0.01702949495400051 0 0 0 0
7359135 -0.10036144450255388 -0.15566457150377638 0.13304195288501322 -0.017143946139577874 0 0 0 0
7385554 -0.10095365684969541 -0.15594673416734803 0.1332787623144273 -0.017411201244797968 0 0 0 0
7411973 -0.10162203466492299 -0.15686267276206095 0.13317381016290125 -0.017428909969844336 0 0 0 0
7438392 -0.10103444276617042 -0.1577058670240691 0.1330191880266663 -0.017572313031313454 0 0 0 0
7464811 -0.10204593269213155 -0.15828349806588365 0.13297679239587856 -0.017640398054117094 0 0 0 0
7491230 -0.10231537732168071 -0.1587254940193345 0.13306677927522592 -0.01779779712089719 0 0 0 0
7517649 -0.1023329186641355 -0.15966632074011952 0.13293347424241944 -0.017988242408895495 0 0 0 0
7544068 -0.10353147848358665 -0.16025369829542593 0.13289473903020171 -0.017899572421573175 0 0 0 0
7570487 -0.10405966959150753 -0.16122827189836195 0.1330133085832224 -0.01822729204778893 0 0 0 0
7596906 -0.1036311533358138 -0.16197888024609206 0.13267278393799176 -0.018095663278125042 0 0 0 0
7623325 -0.10469762705202255 -0.16261763854772143 0.1327951946206082 -0.018283950977048803 0 0 0 0
7649744 -0.10528487778304287 -0.16340823305348412 0.1328326480679093 -0.01849704935693164 0 0 0 0
7676163 -0.104871680668346 -0.1644224068063382 0.13283929269240638 -0.01835060951358023 0 0 0 0
7702582 -0.10646620754223303 -0.16486915917514489 0.13300891112515728 -0.018952126460021028 0 0 0 0
7729001 -0.10556665523475875 -0.1655014649434275 0.13265467665853492 -0.01882762723158586 0 0 0 0
7755420 -0.10586809414070246 -0.16473043645158164 0.13282052643688586 -0.018789664753749276 0 0 0 0
7781839 -0.10664224999959583 -0.16516299512139967 0.13264119042169917 -0.018892272050189413 0 0 0 0
7808258 -0.10664303954141954 -0.16636222405537432 0.13242130523199175 -0.018729875533901374 0 0 0 0
7834677 -0.10700157143514179 -0.16745139658840605 0.13243621140071457 -0.018674467216151774 0 0 0 0
7861096 -0.10731018156216186 -0.16777042453488075 0.1325462780716747 -0.019011456488226337 0 0 0 0
7887515 -0.10835447892055163 -0.16851097688867206 0.13254903259224832 -0.019232706545570383 0 0 0 0
7913934 -0.10810292958222503 -0.16890937311703222 0.1325407753553546 -0.019325511011434877 0 0 0 0
7940353 -0.10869507784169871 -0.16953632917469263 0.1326307092085764 -0.019523092837586374 0 0 0 0
7966772 -0.10874815437904474 -0.1706028897538163 0.13231788692095206 -0.01962927856924141 0 0 0 0
7993191 -0.10954338779848281 -0.17141907568426026 0.132377363264952 -0.019551183954631405 0 0 0 0
8019610 -0.11077892310480232 -0.17150675011281527 0.1324224858800423 -0.019796169302790847 0 0 0 0
8046029 -0.11068018126727547 -0.17235085081332951 0.13239455397501787 -0.019882119709519325 0 0 0 0
8072448 -0.11049581606497644 -0.17359706718245058 0.13224580494150032 -0.02002300541795586 0 0 0 0
8098867 -0.11069661437847303 -0.1741170237163318 0.13200504128273527 -0.020127847527659032 0 0 0 0
8125286 -0.11172139116380342 -0.17494332507365035 0.13213375728894694 -0.02010570941083169 0 0 0 0
8151705 -0.11250602753407053 -0.17518209964303325 0.1322974282212399 -0.02044063342104527 0 0 0 0
8178124 -0.11225930307353732 -0.17638370104689238 0.13214878214798403 -0.020485778546315885 0 0 0 0
8204543 -0.11303123304590819 -0.17721398695271248 0.1321309385364607 -0.020358265986316647 0 0 0 0
8230962 -0.11321891724098829 -0.1776355571891881 0.13202766068316377 -0.020553462784530623 0 0 0 0
8257381 -0.11513373937015535 -0.17767230120862604 0.13201461255021416 -0.02118097665041632 0 0 0 0
