# HZ S RI R 50
3000000 -0.05848637585646214 -0.04387264219614967 0.13545871107701374 -0.0007977604082222889 0 0 0 0
3026419 -0.057974461541369336 -0.04537909910883845 0.1359009355792067 -0.0009134023315067453 0 0 0 0
3052838 -0.05773810107253713 -0.04696931053379659 0.13574964918433613 -0.0011819475064726828 0 0 0 0
3079257 -0.058307020699268186 -0.04924627145590022 0.13585935964257928 -0.0014497826565619933 0 0 0 0
3105676 -0.05901110314913062 -0.05100206459753192 0.13587353742785663 -0.0018260551126382933 0 0 0 0
3132095 -0.05891647218920479 -0.052335352365378965 0.13577414315996195 -0.002001371233793102 0 0 0 0
3158514 -0.05920447085547573 -0.05397854067831329 0.13594353245354968 -0.0022389744058535755 0 0 0 0
3184933 -0.05934422523312279 -0.05613954777500169 0.13575056219501913 -0.002393039077440322 0 0 0 0
3211352 -0.05985031533341274 -0.057394493328849175 0.13560423006101158 -0.0026718013480870363 0 0 0 0
3237771 -0.060346473290546945 -0.059144106349530164 0.13574450641146887 -0.0030939032108010574 0 0 0 0
3264190 -0.0604021784264995 -0.060948276995202354 0.13555300734409748 -0.0032835051244767526 0 0 0 0
3290609 -0.060546087534609626 -0.06283847547389614 0.13546778210999147 -0.003350649681595517 0 0 0 0
3317028 -0.06078071654751997 -0.06433650576688432 0.13561073435675675 -0.0036137104632295376 0 0 0 0
3343447 -0.061264139396657924 -0.06601029331500667 0.13546073281657614 -0.0038228005361031245 0 0 0 0
3369866 -0.06178120732377852 -0.06768529077356018 0.13550577572629088 -0.0040433719614967 0 0 0 0
3396285 -0.06181456989211845 -0.0692207519809286 0.13557327180342912 -0.004512203035081434 0 0 0 0
3422704 -0.06203897261049282 -0.07105533644535084 0.13563094312512256 -0.004755458880145245 0 0 0 0
3449123 -0.06175588488457327 -0.07272206838495708 0.13541631864776457 -0.004707981231479513 0 0 0 0
3475542 -0.06278098882798167 -0.07403612933302803 0.13545217341063837 -0.004943153264602426 0 0 0 0
3501961 -0.0630168681312995 -0.07540016720125516 0.1353643591638632 -0.005283889285547045 0 0 0 0
3528380 -0.06293108899559136 -0.07798479134778752 0.13527145254298112 -0.005479869134720301 0 0 0 0
3554799 -0.06377336751778545 -0.07923373818611305 0.1352864705148969 -0.005716665384479563 0 0 0 0
3581218 -0.06408219587715214 -0.08083391832827776 0.1352027889104006 -0.005930026204995524 0 0 0 0
3607637 -0.0644923071978059 -0.08264936052648295 0.1352826673837562 -0.005987789831124534 0 0 0 0
3634056 -0.06428343162661636 -0.08421057831761837 0.13519214523050854 -0.006259457557158306 0 0 0 0
3660475 -0.06477757055833304 -0.08633300694253597 0.13515361205689091 -0.006701028932250898 0 0 0 0
3686894 -0.06511051875472931 -0.08759804449996568 0.1352794869474449 -0.00680868618225748 0 0 0 0
3713313 -0.06489322762763022 -0.0898531821138544 0.1351510124315822 -0.006973552756058833 0 0 0 0
3739732 -0.06558405969643259 -0.09139591313308246 0.13506817169863847 -0.007191953436032496 0 0 0 0
3766151 -0.06623550518154603 -0.09210960363148518 0.13495733839314503 -0.007445642428425421 0 0 0 0
3792570 -0.06608904052084844 -0.09399366654317529 0.1351097106374137 -0.007596046147007374 0 0 0 0
3818989 -0.06666463298567218 -0.0952481277655017 0.13489532726841866 -0.007867523499709846 0 0 0 0
3845408 -0.06713895354109359 -0.09669284497874242 0.134898499496806 -0.008020349821545399 0 0 0 0
3871827 -0.06721257117052937 -0.09834027469162489 0.1348268411307101 -0.008164010472358096 0 0 0 0
3898246 -0.06801601454466832 -0.1004282953202389 0.13472221612643936 -0.008486635584732151 0 0 0 0
3924665 -0.06778595298140407 -0.10105978580430237 0.13487898314559796 -0.008747459451762267 0 0 0 0
3951084 -0.06842178128887316 -0.10293556592673754 0.13471735946469507 -0.008803915786783165 0 0 0 0
3977503 -0.06868668793764125 -0.10452264831301976 0.13480482309500988 -0.00933729264167001 0 0 0 0
4003922 -0.06888810002512254 -0.10605855288581804 0.1346612582098772 -0.009253574957878928 0 0 0 0
4030341 -0.06926485465426742 -0.10742326083386756 0.13460699998493836 -0.009533858108539333 0 0 0 0
4056760 -0.06928381652355531 -0.10936294438955103 0.134587695713932 -0.009947086241564745 0 0 0 0
4083179 -0.06953227626119356 -0.11030054150003077 0.13460569939251701 -0.009769666082337005 0 0 0 0
4109598 -0.07044587133097753 -0.1114046905153019 0.13450909277183348 -0.010102448917541416 0 0 0 0
4136017 -0.07084019283515725 -0.11313539542379723 0.13430051192331705 -0.010256886858380453 0 0 0 0
4162436 -0.07096394665720378 -0.11479245197493168 0.13451262781290563 -0.010641851060238102 0 0 0 0
4188855 -0.07182851214094468 -0.11597642702270196 0.134408554801114 -0.010710267111581746 0 0 0 0
4215274 -0.07168456721334143 -0.11788355810530972 0.13429981397699287 -0.010781287153145405 0 0 0 0
4241693 -0.07240789357929896 -0.11847120118058033 0.13437760678097013 -0.011067740459701247 0 0 0 0
4268112 -0.07355045211457592 -0.12017140462370526 0.13428169299299345 -0.011311784769112291 0 0 0 0
4294531 -0.07335075470204559 -0.122044440652952 0.1342314958798974 -0.0117671274382953 0 0 0 0
4320950 -0.0737746701986322 -0.12320013240926725 0.13422995989442316 -0.011685967021882872 0 0 0 0
4347369 -0.07369887578175904 -0.12455759242526164 0.13409123277596466 -0.012055679929794023 0 0 0 0
4373788 -0.07411368595597871 -0.12607149778345614 0.1341278082284674 -0.012327807241606722 0 0 0 0
4400207 -0.07488311224383623 -0.126941803413314 0.13417639050913874 -0.012231355817174328 0 0 0 0
4426626 -0.07549348914423386 -0.128504376680574 0.13420217100544832 -0.012725447098818342 0 0 0 0
4453045 -0.07515002424585679 -0.1301017137917594 0.13378354104129436 -0.012832677974824248 0 0 0 0
4479464 -0.07553641759153533 -0.13179569712551553 0.13402337060817193 -0.012949145559524772 0 0 0 0
4505883 -0.07664482338576871 -0.13243082398137573 0.13391732237722176 -0.013100198575373758 0 0 0 0
4532302 -0.07705362687248289 -0.13401096566649576 0.133866071088139 -0.013390241042915524 0 0 0 0
4558721 -0.07695881040115432 -0.13550011396195108 0.13375637051612985 -0.013736241953804573 0 0 0 0
4585140 -0.07818117792914436 -0.13685712310652623 0.13375640529843646 -0.013630248922272407 0 0 0 0
4611559 -0.0779269705576507 -0.13799623937676053 0.13372882273570771 -0.014027676859069133 0 0 0 0
4637978 -0.07805978900866564 -0.13932082941024512 0.13375081817170145 -0.014268276771365959 0 0 0 0
4664397 -0.07873249893609308 -0.1406843124228499 0.1336054760701808 -0.01459050143806379 0 0 0 0
4690816 -0.0790336384156982 -0.14201437982714474 0.13359906685716844 -0.01439945068890601 0 0 0 0
4717235 -0.07954777691616913 -0.14310541436975302 0.13349835353923384 -0.014627351812341753 0 0 0 0
4743654 -0.07979500780680937 -0.14477492133367487 0.1334979343362838 -0.014744169118891034 0 0 0 0
4770073 -0.08102712197338284 -0.14555648450201952 0.13344578929015824 -0.014910454247754178 0 0 0 0
4796492 -0.08109507902972059 -0.14680384738702862 0.1334990636477227 -0.015193441941711454 0 0 0 0
4822911 -0.08156785816385372 -0.148073138318155 0.1334446352521183 -0.015530261082185507 0 0 0 0
4849330 -0.08165108893975079 -0.14928689951422955 0.13330416433292946 -0.015631853625303536 0 0 0 0
4875749 -0.08187987410033644 -0.15112557329061646 0.13308454166200717 -0.015789820157466845 0 0 0 0
4902168 -0.0827116528788253 -0.1521995561254829 0.13325754030650191 -0.015784802146755036 0 0 0 0
4928587 -0.08294237922817527 -0.15288308530938155 0.13320468703888974 -0.01633034962090693 0 0 0 0
4955006 -0.0835406313014631 -0.15422899677868857 0.13301989044942703 -0.016288223929918803 0 0 0 0
4981425 -0.08377405568541482 -0.15608449152314602 0.13300936240177846 -0.016506673276528234 0 0 0 0
5007844 -0.08475579441489102 -0.1573681131213132 0.1330513092285845 -0.016428367626573768 0 0 0 0
5034263 -0.08481179078083387 -0.15832183176481832 0.13303086794379834 -0.01677241583163085 0 0 0 0
5060682 -0.08484037526977029 -0.15946572769208198 0.13299645019941372 -0.01725274973202286 0 0 0 0
5087101 -0.08580234639553364 -0.16091329787446323 0.1328153119374732 -0.01741759181467554 0 0 0 0
5113520 -0.08716393459105409 -0.1620285575759641 0.1329519657574142 -0.01737295051782538 0 0 0 0
5139939 -0.08632054777726547 -0.16311986338945597 0.1328110917916444 -0.01779968872381323 0 0 0 0
5166358 -0.08712917942019284 -0.16448773613339623 0.13270393021145155 -0.017843758875698782 0 0 0 0
5192777 -0.08784661191269282 -0.16581518752902816 0.1327474110822743 -0.017974093669214493 0 0 0 0
5219196 -0.0884300077253336 -0.16661771163729402 0.13274473946387927 -0.018071071458137362 0 0 0 0
5245615 -0.08865836671379379 -0.16731895011098114 0.13259635911498946 -0.01850303397825305 0 0 0 0
5272034 -0.08956681863453224 -0.16967744990955114 0.1324076712757868 -0.01852098845031504 0 0 0 0
5298453 -0.09027552836705689 -0.17018346653667202 0.1324013941111067 -0.01867391726117841 0 0 0 0
5324872 -0.08982365304316667 -0.1720648374557822 0.13236059409840245 -0.01877839448997171 0 0 0 0
5351291 -0.09036430095196629 -0.17272086775222312 0.1322511015694593 -0.019010226120291254 0 0 0 0
5377710 -0.09081338758337298 -0.17402042309647325 0.1322782931726582 -0.01904040378266576 0 0 0 0
5404129 -0.09205994999294799 -0.17519970522646675 0.13233091401216554 -0.019481698485888103 0 0 0 0
5430548 -0.09134124071592159 -0.17576412246145748 0.13221308963208953 -0.01971404620768332 0 0 0 0
5456967 -0.09266402619413341 -0.17813085852760896 0.13206113447264684 -0.0197740893682337 0 0 0 0
5483386 -0.09276553689095515 -0.17893126288501596 0.1319795012271321 -0.019988290526460836 0 0 0 0
5509805 -0.09407326353517707 -0.17930942002522604 0.13209435951283607 -0.020106120617775183 0 0 0 0
5536224 -0.09464890085718933 -0.18094504341450346 0.13200828901724204 -0.020168255080507118 0 0 0 0
5562643 -0.09405164743692566 -0.1823329109808056 0.13201234346752913 -0.020591928720575536 0 0 0 0
5589062 -0.09513028463426013 -0.18382252302996718 0.1317421576013888 -0.020592816236046366 0 0 0 0
5615481 -0.09584686137715746 -0.18459982152840473 0.13186221879880602 -0.020918411655386906 0 0 0 0
5641900 -0.09493470358353966 -0.1856387630643105 0.13175353495784808 -0.02099561775436736 0 0 0 0
5668319 -0.09711273627396631 -0.18673809294871335 0.13165821046677909 -0.021094226337726053 0 0 0 0
5694738 -0.0978182764865543 -0.187841802627298 0.13173622596188989 -0.021419478842615202 0 0 0 0
5721157 -0.09688189694928556 -0.18883409896556066 0.13170309645526726 -0.021639123386588025 0 0 0 0
5747576 -0.09772634319431028 -0.19035750717600977 0.1315699809090978 -0.02188464235662662 0 0 0 0
5773995 -0.09880456558218537 -0.19197752256906697 0.13143595609378628 -0.021713157973325403 0 0 0 0
5800414 -0.09974728810205515 -0.1924118848481345 0.13144815306906033 -0.02209660457707625 0 0 0 0
5826833 -0.10061002650263999 -0.1934220787818003 0.13145923327681955 -0.02224845441793696 0 0 0 0
5853252 -0.09930698086807155 -0.1947620384373477 0.13124342510409065 -0.02232514819543239 0 0 0 0
5879671 -0.09990896965881785 -0.1960643831940684 0.13128259404141746 -0.022826837983341043 0 0 0 0
5906090 -0.10054642109857381 -0.1972286597425256 0.13124604502552065 -0.02261614448034306 0 0 0 0
5932509 -0.10268784662857719 -0.19791824743002 0.13113360856853576 -0.022859444396385768 0 0 0 0
5958928 -0.10153420140806677 -0.1991223258049554 0.13118418706211363 -0.02324509082462094 0 0 0 0
5985347 -0.103047579382331 -0.20035884104843577 0.13079926297015368 -0.023073482857980724 0 0 0 0
6011766 -0.10433832884365671 -0.20155983324524365 0.13095336811340108 -0.023231064576236398 0 0 0 0
6038185 -0.10454400256933447 -0.20275122475258753 0.13094245378012223 -0.023690085306877825 0 0 0 0
6064604 -0.10422458229815684 -0.2038615373819779 0.13061217008627107 -0.023828808677403748 0 0 0 0
6091023 -0.10569552508837422 -0.20490787265639362 0.13081070198762795 -0.023878527856234948 0 0 0 0
6117442 -0.1062926675007068 -0.2056921835997991 0.13071680764515448 -0.024102170268890704 0 0 0 0
6143861 -0.1056899520953088 -0.20709473831632416 0.13051346497701738 -0.024190618277582697 0 0 0 0
6170280 -0.10700741851085199 -0.2081567186542025 0.13040038165982434 -0.02411189260888309 0 0 0 0
6196699 -0.1078054204733389 -0.20905081015509183 0.1304040746638601 -0.02440411176028027 0 0 0 0
6223118 -0.10866633825196086 -0.2100971441546321 0.13041783158618095 -0.02483718392847298 0 0 0 0
6249537 -0.1081774699154577 -0.21146552853967104 0.1302734643603119 -0.02496978020757346 0 0 0 0
6275956 -0.10858152723797884 -0.21280064490494863 0.13022248128887326 -0.025137355066611487 0 0 0 0
6302375 -0.11035863706415452 -0.21386685660013197 0.1302580663386625 -0.025159410990804734 0 0 0 0
6328794 -0.10976573761044095 -0.2145412336202973 0.13007584529974509 -0.0256194842299346 0 0 0 0
6355213 -0.11023304829718869 -0.2156736837187707 0.12991423808077732 -0.025381942248780057 0 0 0 0
6381632 -0.11143534237438975 -0.21680378582367002 0.1298896285171828 -0.025462111165019466 0 0 0 0
6408051 -0.11191762965374129 -0.2178591460308898 0.12989529704988206 -0.025964632714855062 0 0 0 0
6434470 -0.1132337826399082 -0.2184604169617543 0.12986226119026578 -0.02588593496885956 0 0 0 0
6460889 -0.11304704039070808 -0.22022383425439318 0.1297356722824022 -0.026498490222860993 0 0 0 0
6487308 -0.11292097017496215 -0.22143347977983752 0.12958262664760004 -0.02630240294622715 0 0 0 0
6513727 -0.11546580989902386 -0.22183089763779987 0.12963047363051186 -0.026405176611181524 0 0 0 0
6540146 -0.11539379769371166 -0.22284087518546106 0.12963330697742084 -0.026604333786559898 0 0 0 0
6566565 -0.11556061903389621 -0.22439869189894432 0.12955791447824566 -0.026900350023554488 0 0 0 0
6592984 -0.11576484496206636 -0.22560800776788956 0.12905070916603992 -0.027074453824468808 0 0 0 0
6619403 -0.11642053371612238 -0.2259788982010476 0.1293029687245778 -0.0272329729876619 0 0 0 0
6645822 -0.11591522354280467 -0.22692682632496128 0.12923695695497808 -0.027357608701802 0 0 0 0
6672241 -0.1177393037291645 -0.22851159961272727 0.1290986588892391 -0.027394292046015508 0 0 0 0
6698660 -0.11831762200022643 -0.22924993943689925 0.12902873475282997 -0.027387654923319536 0 0 0 0
6725079 -0.11962284479327723 -0.23006093567380229 0.12924496685956288 -0.0276699370847441 0 0 0 0
6751498 -0.11871627090033814 -0.2319493214550497 0.12896547261469107 -0.02766330723451192 0 0 0 0
6777917 -0.11962974311548297 -0.23270791109897895 0.12889285007609116 -0.028069614300773527 0 0 0 0
6804336 -0.11999118935347634 -0.23360610706880028 0.1288654873313203 -0.028110277681288813 0 0 0 0
6830755 -0.12252204936176707 -0.2339842744530861 0.1287086136350537 -0.028077389175914787 0 0 0 0
6857174 -0.1217824548051654 -0.23585924622049065 0.12871833993135479 -0.02870656015834952 0 0 0 0
6883593 -0.12182618161151543 -0.23655488389921517 0.12838235050990604 -0.028716353789738972 0 0 0 0
6910012 -0.12421850826799948 -0.23762169889348508 0.12839576131527222 -0.028661405020856724 0 0 0 0
6936431 -0.12496934733236195 -0.23834093811610146 0.12843519844388368 -0.028782615564139198 0 0 0 0
6962850 -0.12454960072326658 -0.23970146194564534 0.12851971506076243 -0.029242689719898733 0 0 0 0
6989269 -0.12500876190849028 -0.24061125591411883 0.1282248096091863 -0.029216706179052008 0 0 0 0
7015688 -0.12742564939793846 -0.24157458327179013 0.12828279813478924 -0.02956047092563655 0 0 0 0
7042107 -0.1260555831974232 -0.24291199604716246 0.12822887570676106 -0.0297522449661837 0 0 0 0
7068526 -0.1270954849463172 -0.24375779908056336 0.12806585737955364 -0.02988325199634664 0 0 0 0
7094945 -0.12792060377114386 -0.2444944994689507 0.1280260444232162 -0.029512340866009693 0 0 0 0
7121364 -0.12959527285409145 -0.24525709989408495 0.12814204670704715 -0.029910644537611282 0 0 0 0
7147783 -0.12863690820820237 -0.24679634985250706 0.12772627461861427 -0.02995535326138453 0 0 0 0
7174202 -0.1300519012282079 -0.24732971795469103 0.12773428250100738 -0.029958175033617907 0 0 0 0
7200621 -0.13077344259532392 -0.24868801439084331 0.12759436479703257 -0.030361880542110514 0 0 0 0
7227040 -0.13186372233694774 -0.2490601073398401 0.12784380847244903 -0.03054369510826082 0 0 0 0
7253459 -0.1316863046722656 -0.25106580727931116 0.12766300335120415 -0.030723594357858163 0 0 0 0
7279878 -0.13198912269094362 -0.2510538230858714 0.12735163989908738 -0.030776525596237492 0 0 0 0
7306297 -0.13273643331959967 -0.2525496232697523 0.12730817786732046 -0.0307897872006434 0 0 0 0
7332716 -0.1327529143613922 -0.25309364484524816 0.1272385195777434 -0.030936373021080783 0 0 0 0
7359135 -0.13458159066945416 -0.2538562430154572 0.1271579884919541 -0.03105062516742139 0 0 0 0
7385554 -0.13498788284920665 -0.2552592999620121 0.12723969236239807 -0.03173074558182854 0 0 0 0
7411973 -0.1353375228409653 -0.2565410575799386 0.12716980357834456 -0.03177545958534296 0 0 0 0
7438392 -0.13563686601272373 -0.25688695673792433 0.12691194468613115 -0.03159477766627836 0 0 0 0
7464811 -0.13792513694219277 -0.2584076285196074 0.12704498886801432 -0.031963091367610524 0 0 0 0
7491230 -0.13749461080626055 -0.2590735488788256 0.12680903064119897 -0.03216293528274524 0 0 0 0
7517649 -0.13762236504538738 -0.2591984054082468 0.12668393963026436 -0.03223965823163749 0 0 0 0
7544068 -0.1399981659141763 -0.26046103549483324 0.12673744276487053 -0.03242441372106678 0 0 0 0
7570487 -0.1389861979735894 -0.26158562044770667 0.1265376927444746 -0.03228450925809677 0 0 0 0
7596906 -0.13889620818668583 -0.2621070538385004 0.12641487453784625 -0.03260272957081707 0 0 0 0
7623325 -0.140536444884541 -0.26342204308397854 0.12638626714594994 -0.03259739172190006 0 0 0 0
7649744 -0.1425881087502925 -0.264588169653835 0.12651308187892105 -0.03298932906045705 0 0 0 0
7676163 -0.14123613513832298 -0.26487907731448 0.1261692372082265 -0.033078350463820454 0 0 0 0
7702582 -0.14309073349346085 -0.2663507839698929 0.12638593322064812 -0.03313267167226348 0 0 0 0
7729001 -0.1446414331142001 -0.26740119902863624 0.12613421021648524 -0.03335495086628536 0 0 0 0
7755420 -0.1440205592140012 -0.2683775561545823 0.12607058315901162 -0.033459021464094206 0 0 0 0
7781839 -0.14490170599432445 -0.26956160813657 0.12594295617406748 -0.033526283456075195 0 0 0 0
7808258 -0.1456578038961145 -0.2696521713315051 0.125760403599822 -0.03343463032470697 0 0 0 0
7834677 -0.14719317583674507 -0.2710692438805334 0.12594435996132036 -0.03371756258139005 0 0 0 0
7861096 -0.1478249907388744 -0.2719440387215345 0.12578276505772357 -0.03413437174337641 0 0 0 0
7887515 -0.14755610006413267 -0.2730643442261072 0.12559575331736816 -0.0342867918002584 0 0 0 0
7913934 -0.14718356308966754 -0.2730647334399538 0.1254925781098194 -0.03437683701760401 0 0 0 0
7940353 -0.14797485929487333 -0.27351423462865626 0.12540835609498907 -0.03453133788594324 0 0 0 0
7966772 -0.15044224126390277 -0.27508065141316057 0.12538369956564888 -0.03454644408111873 0 0 0 0
7993191 -0.15094569960795695 -0.27641868862259666 0.1254456055790466 -0.03466103711474919 0 0 0 0
8019610 -0.15122434729705242 -0.277108228213484 0.1251907800795194 -0.03491829214066231 0 0 0 0
8046029 -0.15163848465180924 -0.27823131401531803 0.12518167965287022 -0.03493268189732611 0 0 0 0
8072448 -0.15201852268284013 -0.2782944728851373 0.12490878874130996 -0.03501385613434868 0 0 0 0
8098867 -0.15365280091351516 -0.2798178782243563 0.12490874891613846 -0.03518646013021874 0 0 0 0
8125286 -0.1542788803919787 -0.28047163416693927 0.12494390538747052 -0.035383049082111644 0 0 0 0
8151705 -0.15449137071875907 -0.2813432307700506 0.12487755325439538 -0.03561335518774438 0 0 0 0
8178124 -0.15462090424402097 -0.28193817400652 0.12468515140320395 -0.035344925110554204 0 0 0 0
8204543 -0.15588418444747476 -0.2831222566979106 0.12464048145565067 -0.03564952570135856 0 0 0 0
8230962 -0.1565028599915185 -0.28361003648952926 0.12452224012675714 -0.03593269511167109 0 0 0 0
8257381 -0.15698910722471493 -0.28361690471890166 0.12431999013551072 -0.03587115209991473 0 0 0 0
8283800 -0.15812789871145863 -0.2850359569514732 0.12428467529153418 -0.036002685020407335 0 0 0 0
8310219 -0.15862047948671573 -0.2868885844570486 0.12436072826029367 -0.036210898094786274 0 0 0 0
