# HZ S RI R 50
3000000 0.9567028048464625 0.048671368745870976 0.04033717791121911 0.004323077567591177 0 0 0 0
3026419 0.9579608887036347 0.05036352952015525 0.04023162325654086 0.00430495868623169 0 0 0 0
3052838 0.9579777499300318 0.04998183266205838 0.0402038980775464 0.0043218831764197585 0 0 0 0
3079257 0.95790119138268 0.051361224360233895 0.04024914435563108 0.004449909880634076 0 0 0 0
3105676 0.9582294008513434 0.051180652910871115 0.04031886250358383 0.004314054702862451 0 0 0 0
3132095 0.9581009426164717 0.05067487587792211 0.0402901486269539 0.004317158526087141 0 0 0 0
3158514 0.9578275478746768 0.05220485522564429 0.04021188501496002 0.0043518909181095074 0 0 0 0
3184933 0.9576808270425355 0.05250122765335267 0.040303133672806635 0.0043956292964331305 0 0 0 0
3211352 0.9582480432731915 0.05218508101970888 0.040241811864051825 0.004392809971994566 0 0 0 0
3237771 0.9578136491428464 0.05235451859431508 0.040286225879102265 0.004336705789968893 0 0 0 0
3264190 0.9581893748798437 0.05410033247241444 0.04024166929865708 0.004457119294699989 0 0 0 0
3290609 0.957693441337792 0.053784980270497114 0.04022578006457936 0.004385626780493467 0 0 0 0
3317028 0.9579610289900397 0.054570239612103846 0.04032447422006862 0.004428183703508036 0 0 0 0
3343447 0.9578617729652533 0.05404792324357484 0.040164729297131774 0.004433549743691952 0 0 0 0
3369866 0.9568601174118668 0.05436477196956126 0.04022616860761998 0.004451151762822359 0 0 0 0
3396285 0.9574035586057672 0.05566692557972218 0.040279853988517966 0.0044511007511439426 0 0 0 0
3422704 0.9571996275188808 0.05517032308244444 0.04020147330971845 0.004481101939602623 0 0 0 0
3449123 0.9584097508683109 0.057017146825145644 0.04029025170642333 0.004601856807208617 0 0 0 0
3475542 0.9576265294711606 0.05636740905403757 0.04031136893681357 0.004501493689462478 0 0 0 0
3501961 0.9574547115385641 0.0559914164129221 0.04031973138937884 0.004508919675340969 0 0 0 0
3528380 0.9570873238752058 0.05723471652657936 0.04021358368421026 0.004617392933710348 0 0 0 0
3554799 0.9571514159901682 0.057885619713112894 0.04017762893447156 0.004644750545355716 0 0 0 0
3581218 0.9578069556571789 0.05757017406949674 0.040245122683762645 0.0044829519329925025 0 0 0 0
3607637 0.9576036555182369 0.058809107066791065 0.04023650453397136 0.004687488682835629 0 0 0 0
3634056 0.9577756297220034 0.05932351197702543 0.04031409210626052 0.0045849004399267975 0 0 0 0
3660475 0.9575413125015075 0.05905500878843855 0.040190660508360385 0.004687058600545309 0 0 0 0
3686894 0.9569302906032677 0.06054744639575927 0.040248090900810184 0.004628901461510267 0 0 0 0
3713313 0.9577380756007945 0.06104038728816849 0.04025191561110554 0.004667529268700324 0 0 0 0
3739732 0.9575095988064656 0.06137004778146632 0.04029290196444515 0.004638225228294413 0 0 0 0
3766151 0.9576305540501867 0.06153527328281374 0.04020764327257161 0.004686024953858903 0 0 0 0
3792570 0.9571570891943592 0.062156179981355426 0.04019074384605959 0.0047368714433896125 0 0 0 0
3818989 0.9570711382096835 0.061508733315161164 0.040303232654079854 0.004682939246272547 0 0 0 0
3845408 0.9573792099437827 0.062477631171924744 0.040253413723602055 0.004699437588214305 0 0 0 0
3871827 0.9573337984014179 0.06319183382441325 0.040161432957108424 0.0048874899808390064 0 0 0 0
3898246 0.9576156482278712 0.06276797835569613 0.04020667254567073 0.004752257748201717 0 0 0 0
3924665 0.9573458323846282 0.06421855346798669 0.04022289786782393 0.004708973432997875 0 0 0 0
3951084 0.9562777048309493 0.06512832282073268 0.04022775270968207 0.004796615004713171 0 0 0 0
3977503 0.9571130431553432 0.06469619638057322 0.04022065743093883 0.004777705218495656 0 0 0 0
4003922 0.9579308171888725 0.0647697946815724 0.04021546863528058 0.0048758333674148654 0 0 0 0
4030341 0.9576925529881055 0.06517797388373997 0.040258248163660186 0.004884785354600116 0 0 0 0
4056760 0.9565276008660105 0.0669042018430756 0.04023307248052661 0.004818628476244754 0 0 0 0
4083179 0.9571233635281036 0.06738877986859414 0.04024631887369712 0.004878343970008735 0 0 0 0
4109598 0.9569108747480949 0.06761579821341812 0.0402237614010921 0.004832304368334568 0 0 0 0
4136017 0.9566708726816676 0.06784495204911421 0.0401282255801739 0.005020186991168426 0 0 0 0
4162436 0.9566620765370443 0.0673897056757031 0.04027408362943569 0.00488605284158967 0 0 0 0
4188855 0.9568594817254337 0.06845145392856809 0.04020428515019926 0.0048857727927447605 0 0 0 0
4215274 0.9570397007692579 0.06901034086975906 0.04026390144745025 0.004894923031265412 0 0 0 0
4241693 0.9568853851988591 0.06812376761085948 0.040201872438678087 0.004910789575631812 0 0 0 0
4268112 0.9570360025721054 0.069382701733113 0.040245146822487386 0.005003301243000149 0 0 0 0
4294531 0.9567536508309493 0.07027240894624091 0.04021695741415224 0.004923765050750299 0 0 0 0
4320950 0.9564189685749277 0.06993263811287066 0.04017357313151393 0.005100515886660832 0 0 0 0
4347369 0.9571303069337216 0.07067127157490748 0.040211952659535415 0.00494872181521083 0 0 0 0
4373788 0.956496628088767 0.07184314875007905 0.040172282847841696 0.00497440145054696 0 0 0 0
4400207 0.9564387990247472 0.07145621274473014 0.04016038134493403 0.005021157046519204 0 0 0 0
4426626 0.9571292093450826 0.07163196108451078 0.040288415497755796 0.0049837352980072955 0 0 0 0
4453045 0.9572549398924273 0.07278307008666497 0.04021839137643105 0.00498556653527159 0 0 0 0
4479464 0.9561885637700598 0.0727788210635205 0.040160211143150895 0.00504086205328918 0 0 0 0
4505883 0.956717706893494 0.07319421981410203 0.04020293577377305 0.0050771086852106516 0 0 0 0
4532302 0.9570003457354479 0.07389469686950959 0.04024900205211328 0.005061358726659914 0 0 0 0
4558721 0.9566042778834637 0.07414697024023291 0.04025206643791868 0.005095611676962027 0 0 0 0
4585140 0.9560594492919483 0.07515581615545737 0.040202755456426535 0.005141796912998223 0 0 0 0
4611559 0.9566448309080609 0.0755386022649637 0.040196182059669586 0.005103059030283371 0 0 0 0
4637978 0.9556859223552495 0.07646387342322963 0.04031021527267924 0.005141495585092055 0 0 0 0
4664397 0.9564366845475564 0.07603830279494225 0.040262886513517386 0.005042099160879993 0 0 0 0
4690816 0.956451608224093 0.07672602752481711 0.04025924338227183 0.005080464691146652 0 0 0 0
4717235 0.9561590271380074 0.07717047712211159 0.040233692961596346 0.0051709949197183405 0 0 0 0
4743654 0.9567375743522091 0.07619934372408646 0.04020327122896783 0.005180024397265773 0 0 0 0
4770073 0.955545212454628 0.0776170410109938 0.040153050038389815 0.005298132724525931 0 0 0 0
4796492 0.9552703426623483 0.07782201893253347 0.040275500926730004 0.005153971617626022 0 0 0 0
4822911 0.9562428468939069 0.07815802207436903 0.04022079905026335 0.0051930703629473095 0 0 0 0
4849330 0.9559437106703856 0.07879581627326004 0.04024254953151129 0.005224560782591458 0 0 0 0
4875749 0.9563841463820143 0.07892298754841229 0.04020474314399555 0.005266304163485881 0 0 0 0
4902168 0.9554449424234535 0.08077196183342604 0.040234840748096586 0.0052397106037574605 0 0 0 0
4928587 0.9547786550821931 0.08050114122339921 0.040277629971644954 0.005318464320448758 0 0 0 0
4955006 0.9560044356038437 0.07938163995748579 0.04014455842435536 0.005312399987620777 0 0 0 0
4981425 0.9554389189300263 0.08095252575067345 0.04025411012342968 0.005246030855439929 0 0 0 0
5007844 0.956049469350786 0.08219725258227409 0.040215435399322014 0.005358044293582539 0 0 0 0
5034263 0.9561128982075089 0.08301694780897881 0.04018466119456154 0.005229397969953253 0 0 0 0
5060682 0.9559002080968356 0.08277729415242044 0.04024866830881484 0.005412957279628704 0 0 0 0
5087101 0.9557046777064897 0.08306415205045796 0.040309008147192134 0.005303159561404786 0 0 0 0
5113520 0.9556489321401267 0.08377146606280458 0.04028757307026745 0.005405260556678805 0 0 0 0
5139939 0.9558212262576421 0.08321575456869788 0.040244869738816996 0.005398376807274081 0 0 0 0
5166358 0.9557513879679731 0.08353466701909895 0.04029130609340994 0.005382623887224777 0 0 0 0
5192777 0.9559779741202108 0.08450661000122504 0.04025502916836007 0.005337608567592371 0 0 0 0
5219196 0.9552313153192641 0.08520032158184068 0.04023209798061742 0.005429231081900989 0 0 0 0
5245615 0.9558689694964674 0.08536350874707138 0.04020268409488244 0.005430124215300045 0 0 0 0
5272034 0.9552401202185788 0.08571411165442912 0.0402277560214592 0.005363147025862138 0 0 0 0
5298453 0.9557335668730677 0.0869553587177586 0.040148704234177636 0.005514419004638208 0 0 0 0
5324872 0.9558537962062358 0.08679881317272276 0.040215275316410795 0.005515291021803473 0 0 0 0
5351291 0.9554235487199978 0.08666772226367479 0.04019887585155544 0.00558466592711082 0 0 0 0
5377710 0.9553913469625488 0.08717968663012991 0.04027393092822621 0.0055066646568383126 0 0 0 0
5404129 0.9547112206605773 0.0879367714365516 0.04020843267556104 0.005393102152409022 0 0 0 0
5430548 0.9557909783256263 0.08865104635264355 0.04025187614217627 0.005603755065620126 0 0 0 0
5456967 0.9558827694170859 0.08811500076453826 0.04018801245060237 0.005502179834512707 0 0 0 0
5483386 0.9551052732844927 0.08843895955047379 0.04022819790786204 0.005495315934432747 0 0 0 0
5509805 0.9554749195219263 0.08967281855045287 0.040235025113092085 0.005502748977437112 0 0 0 0
5536224 0.9546315822383461 0.09003105196553153 0.04025051202437529 0.005588716582743409 0 0 0 0
5562643 0.9558075274525695 0.09046920426502555 0.04020574755638377 0.005581120636084964 0 0 0 0
5589062 0.9550143084739301 0.09045733740358926 0.04021915209631279 0.005579117888606506 0 0 0 0
5615481 0.9545909916321266 0.09186260670565298 0.04027406947879524 0.005621160073899235 0 0 0 0
5641900 0.9555330525409583 0.09147958789932223 0.040221028566317214 0.005543524954907211 0 0 0 0
5668319 0.9543465247612264 0.09083140656614548 0.04015649453935415 0.005743184067742819 0 0 0 0
5694738 0.9548672212080962 0.09351022986785049 0.04023005145201252 0.005678589280613306 0 0 0 0
5721157 0.9548460735726245 0.09375645492097932 0.04017084062302811 0.005652651405335881 0 0 0 0
5747576 0.9549578576253739 0.09392461086860668 0.04028473997218739 0.005624400731556705 0 0 0 0
5773995 0.9546489767250849 0.09313385484900466 0.04025342008803435 0.0057402488783673804 0 0 0 0
5800414 0.9548135668005332 0.0950774687333603 0.04029641386080689 0.005702464634526738 0 0 0 0
5826833 0.9548122984008688 0.095832233165353 0.04024135290386907 0.005686847731828175 0 0 0 0
5853252 0.9539921923869926 0.09602134070699118 0.04022011001487184 0.005716043313044371 0 0 0 0
5879671 0.954318789148658 0.09623855554341638 0.04021333503211747 0.005718840270871181 0 0 0 0
5906090 0.9549142393617516 0.09658124099868617 0.04023154117697771 0.005776764307137122 0 0 0 0
5932509 0.9543352027279579 0.0971057832849814 0.040256808982320265 0.005815871556270849 0 0 0 0
5958928 0.954761956050854 0.09741061515022145 0.040228936793652484 0.005792827622701753 0 0 0 0
5985347 0.9543668933127226 0.09703274885983741 0.04017613079811424 0.005827315869863052 0 0 0 0
6011766 0.9540424523361439 0.0972839777490912 0.040176489063084984 0.005887405315191976 0 0 0 0
6038185 0.9545946994173169 0.09862848389479491 0.040259356264984586 0.005754477711578699 0 0 0 0
6064604 0.9540883833916127 0.09829570550164667 0.04014306121837553 0.005871245647169865 0 0 0 0
6091023 0.9535626914935661 0.09918544056308189 0.04016395838208271 0.005809916579434956 0 0 0 0
6117442 0.9544895263440986 0.0997509632509275 0.040233016446069705 0.005784121664107964 0 0 0 0
6143861 0.9536953837011991 0.09902818288116773 0.04018271646450577 0.005870584638167526 0 0 0 0
6170280 0.9541046343870163 0.09937518663571995 0.04024171119882242 0.005907071096481699 0 0 0 0
6196699 0.9540096576022458 0.10092746254234544 0.04017239413360917 0.005945574190035327 0 0 0 0
6223118 0.9534647787071474 0.10166960307812016 0.040190625835539055 0.005843625514085074 0 0 0 0
6249537 0.9535222935534885 0.10254324931931792 0.04015284683159521 0.005970328219902981 0 0 0 0
6275956 0.9538891808736701 0.10245410924871771 0.04020435829594844 0.005966134227456662 0 0 0 0
6302375 0.9547343808072203 0.10262034998153514 0.0402376848273389 0.00590465119120532 0 0 0 0
6328794 0.9535840660193982 0.10369233331239176 0.04019355141664862 0.0059489057639360386 0 0 0 0
6355213 0.9545030643427018 0.10263827018663287 0.04020188685335847 0.005947942200166601 0 0 0 0
6381632 0.9538290637646308 0.10400095316817079 0.040098452364387936 0.005906927937697563 0 0 0 0
6408051 0.9530939841483331 0.10422423720192531 0.04025104417131209 0.006021268210397899 0 0 0 0
6434470 0.9543688808187024 0.10451105984325272 0.040227751673436854 0.005981363057711124 0 0 0 0
6460889 0.9539399059457961 0.10537889078221568 0.04019148624638415 0.0059565730408349385 0 0 0 0
6487308 0.9538380001596584 0.10579366671875011 0.04018182191168185 0.006109139954483775 0 0 0 0
6513727 0.9536459907039426 0.10601923478827767 0.04017864462704636 0.006009345928895007 0 0 0 0
6540146 0.9535307515383156 0.10668628063558559 0.04024528369855624 0.006007455579349428 0 0 0 0
6566565 0.9536372716128615 0.10740387112506573 0.04026333621040404 0.006103235100026153 0 0 0 0
6592984 0.9532249750022045 0.10666666948162822 0.040142276536438606 0.006061743471918985 0 0 0 0
6619403 0.9523727053336436 0.1083814774918163 0.040154529438024514 0.006008030698185674 0 0 0 0
6645822 0.9521952933884312 0.10868939833071745 0.04010050970268839 0.006034412843077473 0 0 0 0
6672241 0.9535590602391477 0.1081039987546903 0.04020540550437544 0.006138078027161648 0 0 0 0
6698660 0.9532462777260972 0.10737502095954561 0.04019627128273307 0.006087874851215656 0 0 0 0
6725079 0.9531360592338594 0.10959060995891781 0.040182138194120205 0.006133508652111155 0 0 0 0
6751498 0.9526853861347574 0.10949201319408138 0.04010422994131237 0.006197215404927994 0 0 0 0
6777917 0.9525298892266514 0.11059375525967031 0.04024804039419803 0.00610782870652485 0 0 0 0
6804336 0.9526109388668924 0.1114137302945188 0.04021345898791678 0.006197803806825197 0 0 0 0
6830755 0.9531730218556789 0.11029889446585622 0.04011564449880186 0.006205281134720737 0 0 0 0
6857174 0.9529735617346551 0.11231123324778694 0.04021434310785574 0.006180280003597571 0 0 0 0
6883593 0.9526243185643993 0.11261081019939244 0.040113879991197865 0.006177710665700719 0 0 0 0
6910012 0.9525259307291474 0.11189434103034997 0.04010741740462812 0.006219687073872248 0 0 0 0
6936431 0.9529058781299451 0.11299412894760814 0.040155002887815934 0.006202641537444092 0 0 0 0
6962850 0.9525133355139113 0.11236462443215418 0.04014602611706745 0.006227153009758435 0 0 0 0
6989269 0.9524810838360623 0.11382637900875729 0.04015589721086176 0.006283066538843683 0 0 0 0
7015688 0.9525856995201226 0.11314073250197047 0.04016542803224987 0.006262728422466509 0 0 0 0
7042107 0.9520428920296283 0.11468871567270687 0.04011150420015109 0.006167387428042172 0 0 0 0
7068526 0.9520411166935323 0.114945840648045 0.04019242515058911 0.006339660020180675 0 0 0 0
7094945 0.9524609678394809 0.11512087474085349 0.04011007281044265 0.006381114086988185 0 0 0 0
7121364 0.9523587145939785 0.11549288962701594 0.040181948296146686 0.006370504874715189 0 0 0 0
7147783 0.952407952938336 0.1164607904699118 0.04013525990962569 0.006384490536181678 0 0 0 0
7174202 0.9521943465892806 0.11684407850346774 0.04012209129721303 0.006331222492232609 0 0 0 0
7200621 0.9528522174829358 0.11669208516168715 0.04008526556748321 0.006383797845711026 0 0 0 0
7227040 0.9514093334648391 0.11726122853300334 0.04010472258375695 0.00632466884082998 0 0 0 0
7253459 0.9522356929239335 0.11785459963330273 0.04017712494966529 0.006425750020446259 0 0 0 0
7279878 0.9518824431265351 0.11830407799122514 0.0401185758476466 0.006405769322977103 0 0 0 0
7306297 0.9515468764979244 0.11907497834332464 0.04005596902861801 0.00646015957170724 0 0 0 0
7332716 0.9517155372693776 0.11893543623033262 0.04007736645377715 0.006418188565379934 0 0 0 0
7359135 0.9520980902422638 0.11931999984740313 0.04007518813609166 0.006522652552195256 0 0 0 0
7385554 0.9520169674650636 0.12151527634237454 0.0402403874932631 0.006421277537418551 0 0 0 0
7411973 0.9512739833797422 0.12063264262373564 0.04015446380444632 0.0064739778266669264 0 0 0 0
7438392 0.9514718980251226 0.12091047751956005 0.040149592652820136 0.006501474165408114 0 0 0 0
7464811 0.9523194627856709 0.12092283737805419 0.040147739730392366 0.006503672974612345 0 0 0 0
7491230 0.9508168681500913 0.12195225453159779 0.04010085160624413 0.006473490576172229 0 0 0 0
7517649 0.9513547538044254 0.12215342411053251 0.04009096366822537 0.006503396489793422 0 0 0 0
7544068 0.9522113030449401 0.12266645595136898 0.0401105457984146 0.00651782430302269 0 0 0 0
7570487 0.9516400147641827 0.12184591072753223 0.040112734234217545 0.0064677845234636395 0 0 0 0
7596906 0.9509587510985685 0.12425242532345915 0.04006369203143087 0.0065113145480281 0 0 0 0
7623325 0.9515869897374801 0.12370540316081033 0.040118544584361086 0.006527274905951672 0 0 0 0
7649744 0.9510843346447297 0.12282548144215752 0.04011758488120192 0.006510635282653706 0 0 0 0
7676163 0.9507718455085007 0.1247009912271936 0.04013187961759382 0.006532796466853589 0 0 0 0
7702582 0.9512655985872397 0.1254751793686113 0.040275140664282096 0.006582418824322372 0 0 0 0
7729001 0.9520134447323332 0.12472182590688825 0.04009609895407131 0.006611571219090884 0 0 0 0
7755420 0.9510116023277564 0.1263305277199796 0.040066527076506896 0.006622568214143888 0 0 0 0
7781839 0.9510584374049319 0.12718072790214036 0.04009309141601615 0.006619960992984828 0 0 0 0
7808258 0.9513982011265208 0.12644902345678147 0.040114621316454546 0.006587991821105549 0 0 0 0
7834677 0.9511159201692256 0.12671877017483058 0.04012033562043459 0.006623564574430931 0 0 0 0
7861096 0.9501586445209299 0.12682833865832804 0.040040098814519594 0.006649824095522187 0 0 0 0
7887515 0.9510321739309346 0.1276375154420427 0.04003877055216417 0.0066618117571790115 0 0 0 0
7913934 0.9508303038210355 0.12842639411007564 0.04015817545723458 0.0066266358259359824 0 0 0 0
7940353 0.9505570362026567 0.12926694922535262 0.0401221718571424 0.0066264646964145505 0 0 0 0
7966772 0.9508136751616868 0.12914467453630196 0.040072869353875516 0.006848902524641031 0 0 0 0
7993191 0.9499224796754755 0.1293728410807391 0.04013048657337533 0.006767456637948982 0 0 0 0
8019610 0.9501110797907293 0.13023315741704183 0.0400922269324583 0.006723947592710734 0 0 0 0
8046029 0.9500799065362397 0.13143970505810346 0.040007062177447296 0.0067992562687288205 0 0 0 0
8072448 0.951042317668573 0.13117944833059594 0.04013029626235806 0.006782028987817928 0 0 0 0
8098867 0.9511538410367653 0.13005340651265745 0.04010271375500286 0.0067864887705408284 0 0 0 0
8125286 0.9504412195727334 0.13162736888994875 0.040039784134389654 0.006775522415672314 0 0 0 0
8151705 0.9499427574788359 0.1339544444971068 0.04019219519804539 0.006763934494086993 0 0 0 0
8178124 0.9504240507722812 0.13218463315358145 0.04005037099329096 0.00678213921554891 0 0 0 0
8204543 0.9497642439640216 0.13231479795491696 0.04008490813168508 0.0067899395398941425 0 0 0 0
8230962 0.9502221379317164 0.13306783386902069 0.04014854157356312 0.006767882678822613 0 0 0 0
8257381 0.950013168874237 0.1342332818787555 0.04009639968174828 0.0068440173782049136 0 0 0 0
8283800 0.9502290906997977 0.13355936955631648 0.04012890245450828 0.006878453543418635 0 0 0 0
8310219 0.9497960629139408 0.13535143822637122 0.0400170182998284 0.0069435636450677655 0 0 0 0
8336638 0.9494757451946857 0.13624235885741146 0.04008839663554803 0.006890938179334811 0 0 0 0
8363057 0.9492066449170966 0.1368036700077665 0.04001903560570052 0.006910993371463084 0 0 0 0
8389476 0.9493252329342023 0.1358141130961775 0.040020121926637224 0.006952238592519773 0 0 0 0
8415895 0.9504808257858135 0.13505408107748448 0.04003456895702941 0.006896060919254869 0 0 0 0
8442314 0.9491117052246772 0.13703687159118372 0.04002733668170868 0.007005485387886025 0 0 0 0
