# HZ S RI R 50
50000 -0.9986926602938261 0.0038329259962363977
79305 -0.9967754899810825 -0.0009264388308027282
108610 -1.0006359476455202 0.005466295486128924
137915 -1.0171318483497775 0.017711136736667576
167220 -0.9972821612617039 0.004184463545678183
196525 -0.9987753549142631 0.008465071028573764
225830 -0.9993280490003138 0.009769657793565903
255135 -0.9886523530316382 0.0015676431482066016
284440 -0.9978225421436769 0.005180380848709844
313745 -0.9992418513598242 0.013532781051123799
343050 -0.9973337450116423 0.014819017612475156
372355 -0.9963720428406011 0.014763194170581815
401660 -0.9968084322660279 0.016624572737700873
430965 -0.9953331912481179 0.0161377922257458
460270 -0.9960068256125207 0.019765408148510556
489575 -0.9972904668888776 0.020047217506106742
518880 -0.9976158166118494 0.021186737913422234
548185 -0.996838156206804 0.022372768452756427
577490 -0.9972762320244215 0.02306657349571653
606795 -0.9954261494907803 0.024756122374417034
636100 -0.9969658484590711 0.026275978679557315
665405 -0.996651526148539 0.027941346293347484
694710 -0.9959764644391681 0.027972822776100886
724015 -0.9959405301508074 0.028987001833660632
753320 -0.9963696525017096 0.030617472156765177
782625 -0.9972268095074078 0.030803419004051327
811930 -0.996115215965202 0.031786724039821086
841235 -0.9965751245294883 0.034297219826637096
870540 -0.9957746470520741 0.03479816657433719
899845 -0.9975970457933743 0.03619711115643453
929150 -0.9958315947316302 0.03696810076939793
958455 -0.9958750483487031 0.038397808511691105
987760 -0.9960014091981355 0.04013828761398011
1017065 -0.9953068405799306 0.040332720708332784
1046370 -0.9950062288409843 0.04114633809359962
1075675 -0.9956919909819892 0.04235919225577643
1104980 -0.9952476879250353 0.04236839951450446
1134285 -0.9955103070028168 0.04457090848504231
1163590 -0.9953803023424417 0.04541826611170476
1192895 -0.9965096063529822 0.0463607919060039
1222200 -0.994745556777974 0.047826787307389644
1251505 -0.9938767278906655 0.04913296605885689
1280810 -0.9947412382004713 0.04989173320104259
1310115 -0.9949326527680699 0.051239842565364534
1339420 -0.9941022827421813 0.050955770637757455
1368725 -0.9949753139890162 0.05358531197862415
1398030 -0.9939113831178712 0.05483977148193623
1427335 -0.9941284305703789 0.054616974543565844
1456640 -0.9925321465939564 0.05515329901532939
1485945 -0.9935880030687125 0.05786544386175452
1515250 -0.9928723905665363 0.057369641734719215
1544555 -0.993054022736981 0.059875665981414854
1573860 -0.9930528787978805 0.06103886633182513
1603165 -0.9923699940915607 0.06234543552749059
1632470 -0.9930951261363261 0.06255863438328844
1661775 -0.9934756887687262 0.06504301920706038
1691080 -0.9938486576161774 0.06653679734411935
1720385 -0.9934549925321075 0.06513365558370264
1749690 -0.9921399327223763 0.0678012999849915
1778995 -0.9927147170188518 0.0682516265301743
1808300 -0.9927910796724992 0.06938030295469358
1837605 -0.992230716522975 0.06980529609237784
1866910 -0.9916805775270354 0.07194602369220446
1896215 -0.9925883542664581 0.07414785462047756
1925520 -0.9919900133444202 0.07350758047758547
1954825 -0.9919930426383765 0.07413043049035645
1984130 -0.9908045083275998 0.0758760794004213
2013435 -0.9906273014147837 0.07560611363645156
2042740 -0.9910674709248959 0.07834185438887231
2072045 -0.9903096818547438 0.0797061580454432
2101350 -0.9912910939110612 0.07961403306495628
2130655 -0.9909360198255154 0.08077235506590598
2159960 -0.9913067739949979 0.08119149578803146
2189265 -0.9902324832812485 0.08332930034825779
2218570 -0.9903321590455259 0.08339601754654857
2247875 -0.9921122389238152 0.08472525243460521
2277180 -0.9890778928606979 0.08667445033527461
2306485 -0.9896114795328382 0.08819025508055624
2335790 -0.9896291931940246 0.08910900779044759
2365095 -0.9894436980827117 0.09047159470326943
2394400 -0.9905836382911624 0.09062725408130273
2423705 -0.9891462655315035 0.09285923504922552
2453010 -0.9891798370746494 0.09233158638852158
2482315 -0.9889302522450724 0.0935444139067397
2511620 -0.9891011871488599 0.09456722191133915
2540925 -0.9880774854397497 0.09639410977103664
2570230 -0.9878076905192447 0.09652798690367116
2599535 -0.9885853486093008 0.09893313139016209
2628840 -0.9887953189773895 0.09869975016605012
2658145 -0.9886343905106202 0.09974106801627936
2687450 -0.988510248831739 0.10023643536579548
2716755 -0.9871709520074647 0.1019192436381572
2746060 -0.9874161120458752 0.10275768673922368
2775365 -0.986871697075245 0.10394737415215459
2804670 -0.9873988996737348 0.1071589923110717
2833975 -0.987066364114944 0.10667026382656862
2863280 -0.9877893804778882 0.10681182356515548
2892585 -0.9870584361864732 0.10816003343679699
2921890 -0.987068365813234 0.1092305251714605
2951195 -0.9868131419625853 0.11050978222534
2980500 -0.9856419767505835 0.11074182999793518
3009805 -0.9863583156369652 0.11213547084017304
3039110 -0.9866129324016395 0.11314258430949763
3068415 -0.9856030948590886 0.11290747043556276
3097720 -0.9866449696293961 0.11484666341918906
3127025 -0.9853383447862163 0.11678765491376537
3156330 -0.9853559867550448 0.11826606827772834
3185635 -0.9851040586494761 0.12017333300238027
3214940 -0.9855720765580721 0.11925462719178553
3244245 -0.9864935579088453 0.12040706701470483
3273550 -0.9854183836477018 0.1210675010587178
3302855 -0.9851097633670322 0.12257447609979812
3332160 -0.985049578113439 0.12402468586700015
3361465 -0.9841967509562866 0.12482258176654096
3390770 -0.9847190293288031 0.12561336582414737
3420075 -0.9837973651774776 0.12667567117594647
3449380 -0.9839353216747259 0.12777875405963562
3478685 -0.9832736560073988 0.1287555281967889
3507990 -0.9832785932563981 0.13010507459191378
3537295 -0.9832231548206306 0.13392160013515042
3566600 -0.9833321985694026 0.13329366592767977
3595905 -0.9828270019723757 0.13294006432522043
3625210 -0.9824605733485835 0.1359530961457802
3654515 -0.9825636816259212 0.13424598308049157
3683820 -0.9813257122981559 0.1352249425063186
3713125 -0.9809029428371906 0.13738420017572622
3742430 -0.9818696592641395 0.13827388742257699
3771735 -0.9823442285266762 0.14181712482088027
3801040 -0.9809032041784416 0.14160486386993174
3830345 -0.981734733036744 0.14084236441375503
3859650 -0.9813348998720905 0.1422659164046458
3888955 -0.9810729089612702 0.14475209636237127
3918260 -0.9811721561356536 0.14420504952782012
3947565 -0.9805784785245977 0.14492934699010213
3976870 -0.9796109866957896 0.14558394464688723
4006175 -0.9794303281116129 0.14839745561998627
4035480 -0.9806762722716699 0.1491629908219866
4064785 -0.9792074639204761 0.14993056251967377
4094090 -0.9797559356215799 0.15040689181539985
4123395 -0.9795731916427952 0.1515927470420089
4152700 -0.9792757172165578 0.15271084734444385
4182005 -0.9796606613835932 0.15504649982593025
4211310 -0.978461093607064 0.15550761869248575
4240615 -0.9781421976892857 0.1560774252261684
4269920 -0.9782414044917009 0.1572706433789363
4299225 -0.9778543966930188 0.15911112838524108
4328530 -0.977925983002438 0.15837630148919765
4357835 -0.9775072980532992 0.1587796377439025
4387140 -0.9778528632226903 0.1608546890869991
4416445 -0.9768485668175987 0.1615543870578226
4445750 -0.9771878752980598 0.16319165437412583
4475055 -0.9768165980979422 0.1645745818866923
4504360 -0.9779632117816724 0.16427292440519797
4533665 -0.9762144917254326 0.16604224631706616
4562970 -0.9768676429008957 0.16729873362826583
4592275 -0.9758468996272813 0.16806381393172115
4621580 -0.9758176674304068 0.16921375719463583
4650885 -0.9759766593452627 0.17049054950431883
4680190 -0.9758645309888951 0.17215974143343216
4709495 -0.9753499606189988 0.17356514279245283
4738800 -0.9752573389600888 0.17280549477887006
4768105 -0.9746043205666263 0.17455532331828033
4797410 -0.9745698078275982 0.1759411542128353
4826715 -0.9744052042492205 0.17799096329718628
4856020 -0.9743822566496101 0.17695263643760797
4885325 -0.9732216409057474 0.1786556768604888
4914630 -0.9737632140152924 0.17879210725853975
4943935 -0.9730709959796524 0.17922770971518232
4973240 -0.974117594575224 0.18105090971807666
5002545 -0.9731850902688841 0.18214627092618663
5031850 -0.9718605834952991 0.18343305135196192
5061155 -0.9734413046507264 0.1850694441205022
5090460 -0.9722936878833759 0.18530160508814897
5119765 -0.9724849662849825 0.186931196617894
5149070 -0.9717364856043857 0.18702613512835586
5178375 -0.9722141714714899 0.18934768692801798
5207680 -0.9708985546718237 0.18903257885110633
5236985 -0.9721141931066531 0.1892603197456224
5266290 -0.9706041464455701 0.19137582955371688
5295595 -0.9706075843877965 0.19173468602429236
5324900 -0.9709289827779629 0.19359087342023162
5354205 -0.9698821792035839 0.19621814324812736
5383510 -0.9711750740423968 0.19799258934105776
5412815 -0.9696693490662827 0.19780236508884408
5442120 -0.9705832842699992 0.1977966540878506
5471425 -0.9696044950205497 0.1993483012450073
5500730 -0.9702118295248707 0.1998103101776353
5530035 -0.9701364345421345 0.20018381782300962
5559340 -0.9683009138807928 0.20150338984119676
5588645 -0.9684525140462944 0.2020607007946006
5617950 -0.9688392550283114 0.20237552038467393
5647255 -0.9679908433435993 0.2061630250964181
5676560 -0.9669303226456706 0.20682346287036676
5705865 -0.9666338732037622 0.20545521751174842
5735170 -0.9681585994959077 0.20864484824434515
5764475 -0.9662589152324922 0.2081266926760794
5793780 -0.966911762857839 0.2094352332175807
5823085 -0.9666488411343818 0.211495028651333
5852390 -0.9658346144448173 0.21172557908708275
5881695 -0.9655879082197274 0.21235971305515317
5911000 -0.9661040431617594 0.21417964484132027
5940305 -0.9657762478389971 0.2140428946777513
5969610 -0.9650586836523322 0.21470015722389732
5998915 -0.9646992863782853 0.21742225966500492
6028220 -0.96403914081964 0.21779954052357187
6057525 -0.964051177333622 0.21848643647069058
6086830 -0.9648753133678769 0.22242857272529418
6116135 -0.96315584310296 0.21972134699587678
6145440 -0.9632631809858891 0.2206481463171292
6174745 -0.9632155886981033 0.22146038376978194
6204050 -0.9638066716696607 0.2228781977167257
6233355 -0.9627011156117165 0.2243156939122876
6262660 -0.9620556686227355 0.22681084394663845
6291965 -0.9620550460056663 0.22639392184472584
6321270 -0.9616235830512652 0.2279747421762
6350575 -0.9617043926329232 0.2282287021121821
6379880 -0.9610685730219638 0.2299716070292555
6409185 -0.9602552871054731 0.23112646595679687
6438490 -0.9609058007805461 0.23202701537468418
6467795 -0.9611595299083817 0.2327743644026347
6497100 -0.9607745734351426 0.23354142241406364
6526405 -0.9602557228716767 0.23451392321717604
6555710 -0.9588539602878827 0.23476773298369255
6585015 -0.9600716642848491 0.23544100398308535
6614320 -0.9589504073116045 0.23612336073465878
6643625 -0.9593427094938998 0.23883355590214517
6672930 -0.9589797676408327 0.24042392242589947
6702235 -0.9585876242016129 0.24051505775043455
6731540 -0.959307229989059 0.24047161828149308
6760845 -0.9584295698866132 0.24266810570430683
6790150 -0.958108638089297 0.24190815312734357
6819455 -0.9578152234223055 0.24400164658960008
6848760 -0.9580331527590537 0.24629683971285482
6878065 -0.9570458389034724 0.2489189666698237
6907370 -0.9567429232459097 0.2467956378871656
6936675 -0.9566339222957648 0.24831777373068825
6965980 -0.9555548544499515 0.25026362766214083
6995285 -0.9562665739104526 0.2503481460717751
7024590 -0.955093800205029 0.2503714150605955
7053895 -0.9560998868696243 0.25157664009285946
7083200 -0.9548400401076209 0.25245579460242545
7112505 -0.9551877250663284 0.2543488894340169
7141810 -0.9549864727534778 0.2586483063233568
7171115 -0.9541231850327249 0.2556212974872571
7200420 -0.952960093281177 0.25789620578330824
7229725 -0.9531769343026413 0.259557892968531
7259030 -0.9543432898517634 0.2586249577798362
7288335 -0.9525808500182226 0.2596905894040135
7317640 -0.9521042544718319 0.25965313996160727
7346945 -0.9519639346479147 0.2622307326852205
7376250 -0.9509199577294127 0.2659365334832545
7405555 -0.9517528139453711 0.2642117214518194
7434860 -0.9505417248519605 0.26644494125278445
7464165 -0.951828972498751 0.26481359428310947
7493470 -0.951282449099795 0.2664609199173064
7522775 -0.9506654708356473 0.26882263112607885
7552080 -0.9503032477755342 0.267592471963976
7581385 -0.9494310544512106 0.27000470260821496
7610690 -0.9492364865495598 0.26910124239442595
7639995 -0.9493081298537648 0.2717785169905088
7669300 -0.9479257648383431 0.27372886164759247
7698605 -0.9495046373838509 0.274759403354724
7727910 -0.9484586937402922 0.27543323442551676
7757215 -0.947941837541543 0.2746636367802038
7786520 -0.9470482416805907 0.2783259027654681
7815825 -0.9467714033193411 0.2795742935948038
7845130 -0.9468232608493569 0.2781529889105111
7874435 -0.9467840680284483 0.27966073650993317
7903740 -0.9452170243216212 0.27976749082950375
7933045 -0.9461848908057761 0.2796067061536763
7962350 -0.9451794611879768 0.2816225559477574
7991655 -0.9466092079999616 0.28613581751776423
8020960 -0.944816751687917 0.2842613153832651
8050265 -0.9459579899159509 0.28505122585413306
8079570 -0.9436857219205121 0.2846129106358296
8108875 -0.9448283089940326 0.2875650991945755
8138180 -0.9440334674326721 0.2875795207305301
8167485 -0.9442844243097914 0.2890949241852524
8196790 -0.9429079780868074 0.29075963638269525
8226095 -0.942297188708318 0.29228638161986353
8255400 -0.9426055219066207 0.2938164099438452
8284705 -0.9414191190988012 0.2933307237088255
8314010 -0.9414712345217964 0.29366419606479216
8343315 -0.9413326241172324 0.2964210248351809
8372620 -0.9401437888270306 0.29573497976454594
8401925 -0.940693598227455 0.2994731224617217
8431230 -0.9408391010266484 0.296786599802625
8460535 -0.9404540967921339 0.2971625462492306
8489840 -0.9399805029911071 0.29949318351556947
8519145 -0.9395392402370886 0.3008549479098402
8548450 -0.9391684772431173 0.30240878911364566
8577755 -0.9384523534415525 0.30488034592332286
8607060 -0.9390888098830249 0.30391514600106234
8636365 -0.9371369887251276 0.3048866202063412
8665670 -0.9378690460672853 0.3069917892105439
8694975 -0.9378325741240757 0.3072420489741199
8724280 -0.9378087996178486 0.3068715738938328
8753585 -0.9376146725393283 0.3078083139490727
8782890 -0.93521496285785 0.30933408469797286
8812195 -0.9371137723381148 0.30991808389008585
8841500 -0.9371601752153087 0.31267066495949986
8870805 -0.9368217877311539 0.3132390539942633
8900110 -0.9355369519833656 0.313911051790625
8929415 -0.9341973688781562 0.313891806068344
8958720 -0.935080452103521 0.31513344498533424
8988025 -0.9337805969109179 0.3156382365757322
9017330 -0.9344791523693481 0.31704619688562313
9046635 -0.9324494909112155 0.3179375216995448
9075940 -0.9324337351433954 0.3189086702894572
9105245 -0.932215874323236 0.3202853846620748
9134550 -0.9324968278332256 0.3222382745329004
9163855 -0.9314949658107708 0.32186898125173097
9193160 -0.9312877929393688 0.3222677272547428
9222465 -0.9309545216472467 0.3227739180419833
9251770 -0.9309503033613455 0.3247442889571357
9281075 -0.9303706760216323 0.3238093226308052
9310380 -0.9299876563385927 0.32653737505907654
9339685 -0.9296238688477187 0.32778623953416053
9368990 -0.9304867527030616 0.33121426330410875
9398295 -0.9292983496498415 0.33081006165746246
9427600 -0.9291757921766899 0.3308237048647924
9456905 -0.9287449862208759 0.33057030274432103
9486210 -0.9275172544291518 0.33179651930490595
9515515 -0.9267393416512704 0.33397027492954356
9544820 -0.9278065849330964 0.3335691723740592
9574125 -0.9275087257377543 0.3362666869321461
9603430 -0.9271175677014951 0.3360766338977656
9632735 -0.925748150077291 0.3367980943508338
9662040 -0.9252316196104643 0.33755445246250493
9691345 -0.9249009949134037 0.3373562158900832
9720650 -0.925920219576916 0.33979638867480366
9749955 -0.925272323901935 0.34219391976887686
9779260 -0.9233193850072036 0.3443607596059255
9808565 -0.9231892702957404 0.34222619893130485
9837870 -0.9248689038353062 0.3434283505132659
9867175 -0.9224964318407751 0.34355635069194135
9896480 -0.9231205860788871 0.34493410983437367
9925785 -0.9234307192821424 0.34724903964261156
9955090 -0.9215793452125921 0.34963560552856243
9984395 -0.9217035625608386 0.34895272467157074
10013700 -0.9213302997702466 0.35162072558770036
10043005 -0.9207771093428047 0.34880791104602943
10072310 -0.920389117460872 0.3503372186608607
10101615 -0.9186925075332139 0.3526722892846523
10130920 -0.9205497022328779 0.3547106827523434
10160225 -0.9192973098052277 0.3538106274590744
10189530 -0.9194347757852221 0.3566271526985455
10218835 -0.9188426882563393 0.35742034705536513
10248140 -0.9187035520623761 0.35793931228037373
10277445 -0.9182494200823867 0.3596495614611834
10306750 -0.9164951332020309 0.35691924986864715
10336055 -0.9185963583580175 0.36015303927057685
10365360 -0.9177527138309797 0.3619958867538006
10394665 -0.9160703417422337 0.363242277086037
10423970 -0.9153654991644534 0.36429385627928373
10453275 -0.9160368053863495 0.3646266325956911
10482580 -0.915795111468219 0.3630625743837199
10511885 -0.9140465809769017 0.36487216287326113
10541190 -0.9148881852378533 0.36510989449180165
10570495 -0.9131387437674582 0.3666948822813239
10599800 -0.9151365444062478 0.3669823369503526
10629105 -0.9150744166846186 0.36924490704689605
10658410 -0.9137991332546999 0.371194558736903
10687715 -0.9127805862947654 0.37197424154635156
10717020 -0.911909347159548 0.37283022420923123
10746325 -0.9116128988770759 0.3723193586334664
10775630 -0.9129208415675144 0.37300226585164503
10804935 -0.9122412157560505 0.3741961580794559
10834240 -0.9097067795342527 0.3756279546794729
10863545 -0.9098781802682457 0.377833392660643
10892850 -0.9098257314505989 0.37842481874905093
10922155 -0.9109903915298573 0.37747262470195353
10951460 -0.9103964913619925 0.37905483567533477
10980765 -0.9079191754339232 0.3814709937588899
11010070 -0.9079099277336022 0.37961157796964107
11039375 -0.9064268980785425 0.3822414412198866
11068680 -0.9070730999721853 0.3839430138212507
11097985 -0.9067740226760954 0.3814858372260618
11127290 -0.9067807892007829 0.38339913576479767
11156595 -0.9051274272595498 0.38486959748549726
11185900 -0.9069308587374243 0.3853443122265241
11215205 -0.9052663048101249 0.3876160449860037
11244510 -0.9048674144965401 0.38966738942364443
11273815 -0.9039895645270286 0.38695201841067955
11303120 -0.9047101597939197 0.38983629147911397
11332425 -0.9022464845728674 0.38908154329323713
11361730 -0.9025500024476263 0.3921600771356599
11391035 -0.9039333509065207 0.39170108468345
11420340 -0.9019197478686113 0.3943381116773539
11449645 -0.9017519665000022 0.39449808762798594
11478950 -0.900826443231865 0.3952774036130277
11508255 -0.9015930535650847 0.396966440278922
11537560 -0.9012628011873904 0.3990765195082758
11566865 -0.9006137144103369 0.3990755100575957
11596170 -0.8991781733331525 0.4008192928095919
11625475 -0.8996098302276934 0.39889934506161223
11654780 -0.8991043606493936 0.4006526122477065
11684085 -0.8976788149595171 0.40161570818869274
11713390 -0.8980502758882738 0.40212263126210207
11742695 -0.8982690675814212 0.40364203672361004
11772000 -0.8979413216365878 0.4033620328653788
11801305 -0.8970824208647901 0.40617033244743983
11830610 -0.8960038105619347 0.40743544122513825
11859915 -0.8953125921286444 0.40810625513640364
11889220 -0.8951266994476812 0.4079785874037177
11918525 -0.8958605989943813 0.41140660766292825
11947830 -0.8952541360382936 0.4113061828439173
11977135 -0.8931108353731337 0.4098002478851076
12006440 -0.8948234234740005 0.41045176783735665
12035745 -0.892552856045234 0.4136482391110461
12065050 -0.8933988666684152 0.4156289503866536
12094355 -0.8932036018343267 0.41258212666383953
12123660 -0.8917314063943924 0.41541223811353545
12152965 -0.8906154103265481 0.41708216452427727
12182270 -0.8900198048340298 0.41745380733835435
12211575 -0.8917759068252071 0.4170150920219828
12240880 -0.8892064134172787 0.4177187239278721
12270185 -0.892118702630319 0.41919730826229235
12299490 -0.8904337533825384 0.4196764686540571
