# HZ S RI R 50
50000 -0.9882768551836241 0.15730255951939126
79305 -0.975175755118645 0.22778970242160473
108610 -0.9481425738028465 0.3181258237356314
137915 -0.9298205119785768 0.4101613154551059
167220 -0.8704682753437532 0.46495977045561593
196525 -0.8367248702441176 0.5401780433248603
225830 -0.7872362826216786 0.6030112569359158
255135 -0.7436239394120645 0.6625701864818534
284440 -0.6840364551925807 0.7153984463870553
313745 -0.6244042044928473 0.7639675324542919
343050 -0.5716842318203718 0.8065428394817681
372355 -0.512343307795372 0.8404784057011983
401660 -0.4529609193130522 0.8720754481309502
430965 -0.3962142576798849 0.8956855143490587
460270 -0.33682398630534627 0.918060832432925
489575 -0.28281121984808955 0.9353160767697227
518880 -0.22736753705047075 0.9460050474376416
548185 -0.17240285088015705 0.9564989975549224
577490 -0.12100294334771342 0.9629569350946188
606795 -0.07102178894783161 0.9635335303025477
636100 -0.022667959332073228 0.9665135529855964
665405 0.02388328064865083 0.9651638405117381
694710 0.06820227756460528 0.9611368907043709
724015 0.11016974210653531 0.9568963805440246
753320 0.15228129542377952 0.9468703179825073
782625 0.18904465219534808 0.9410985945531233
811930 0.2275719582754502 0.9311628979234299
841235 0.2607775738016413 0.9198430039689854
870540 0.2939123530503261 0.9080294089754181
899845 0.32048014041922634 0.90485748064453
929150 0.3554825379517327 0.8836468346871078
958455 0.38509943512106537 0.868300134154256
987760 0.4105132325643796 0.8540227195615192
1017065 0.4346434695068016 0.8404881455201096
1046370 0.4582712872251606 0.8249976868703723
1075675 0.48086339457136557 0.8087169799338283
1104980 0.5020433901811725 0.7942601514870624
1134285 0.5221744992475007 0.7787492195368938
1163590 0.5411260221603391 0.7631266539596817
1192895 0.5577361725608312 0.7470323659305383
1222200 0.575086387666428 0.7315790288249143
1251505 0.5889171115602824 0.7161173487432444
1280810 0.6021936387501975 0.7005293975047908
1310115 0.6160167277125845 0.6856076419642415
1339420 0.6280668019235235 0.6705466275355845
1368725 0.6397262292272732 0.656762445925125
1398030 0.6492864708187093 0.642290260915698
1427335 0.6588984402228458 0.6276591917142524
1456640 0.6680717276167139 0.6145170976655262
1485945 0.6765536671744069 0.6004477841391753
1515250 0.6836866802084358 0.5879271424564291
1544555 0.690955492156263 0.5753071565262997
1573860 0.6962536259914277 0.5628479237724064
1603165 0.7037655035922273 0.5505277825479113
1632470 0.7097574685109048 0.5392746322307105
1661775 0.7151496862657354 0.5279835301052254
1691080 0.718679749893964 0.5171765326583094
1720385 0.7234835679560869 0.506703318034718
1749690 0.7269138083643714 0.49522660769691784
1778995 0.7322888332955465 0.48604940421143095
1808300 0.7349943076853124 0.4761946918032031
1837605 0.7381484179473619 0.46753476605240213
1866910 0.7412915345107747 0.45896543641201215
1896215 0.7447007897771443 0.44973767059616176
1925520 0.7473906627487296 0.44051888478590945
1954825 0.7507092622566607 0.43184298983588815
1984130 0.7528052599679044 0.4245575978419481
2013435 0.7545375908223507 0.4165683542641976
2042740 0.7553621461210946 0.4097891588836063
2072045 0.7578716904552442 0.4019719779820362
2101350 0.7601026117745129 0.3952265554673793
2130655 0.7627154936858681 0.38696506668692526
2159960 0.7638065730326891 0.3808573041181186
2189265 0.7653443752327563 0.37515741345656445
2218570 0.7665516906422419 0.36879264974484743
2247875 0.770163755899961 0.36401147130286854
2277180 0.7693105761426847 0.35657583083971806
2306485 0.7709219247147496 0.3507896222076797
2335790 0.7731660428931584 0.34375313585590556
2365095 0.7744716131685906 0.33853161786257896
2394400 0.7755303207140023 0.3330334946378679
2423705 0.7771661174007004 0.3280946209905351
2453010 0.7771448064583786 0.32259476424947636
2482315 0.7777537062638077 0.318428610116148
2511620 0.7794150087746724 0.3129022503466907
2540925 0.7803035529012944 0.30822528485638473
2570230 0.7814278132454308 0.3034746982038818
2599535 0.7831309584648828 0.298639622843034
2628840 0.7840387676095991 0.29435490984416146
2658145 0.7837602830906502 0.2902335070030722
2687450 0.7852898324281071 0.28533537760650113
2716755 0.7852634759031418 0.28188292443350704
2746060 0.7854820646268267 0.278102324537724
2775365 0.7863762866229388 0.27313868022483445
2804670 0.78708153612794 0.26885847406038976
2833975 0.7881902111149239 0.26517025775748576
2863280 0.7895094452370196 0.26123463001807873
2892585 0.7906083144122239 0.256879340008966
2921890 0.7900033444598777 0.2539808963699262
2951195 0.790509981731042 0.25056617540109105
2980500 0.7917733185999113 0.246826068997511
3009805 0.7927737573920165 0.242632621276473
3039110 0.7932491317075988 0.23967693285648192
3068415 0.7933475883918759 0.2367518781962557
3097720 0.7935725123541421 0.23301900604700201
3127025 0.7940670252559847 0.2297548004183504
3156330 0.795029035697995 0.22631891292409204
3185635 0.7963973571558903 0.22316766750942818
3214940 0.7970297850504034 0.22011365386686607
3244245 0.7966336380362158 0.21782179108563224
3273550 0.7971321530977352 0.213769256110709
3302855 0.7975674002645285 0.21154109053928633
3332160 0.7982629022145366 0.20826284340141143
3361465 0.7989337104750599 0.2054109653496639
3390770 0.7997676667628167 0.20226738293616617
3420075 0.7993202203795311 0.19945596107972063
3449380 0.7995084640257081 0.19650741915163697
3478685 0.8005211666050638 0.19436434533706412
3507990 0.8009817565055309 0.192109927998125
3537295 0.802199100082554 0.1877248597883645
3566600 0.8013693321259341 0.18707996204407787
3595905 0.8023764314998975 0.18361849835946067
3625210 0.8020766188187134 0.1803114806083273
3654515 0.8029503823732389 0.1786462117265975
3683820 0.8039222163733334 0.17554331360087824
3713125 0.8039359112875128 0.17315033442278024
3742430 0.8035567942517904 0.17171105027683603
3771735 0.8050259666919259 0.1690733627497328
3801040 0.8050561251319444 0.1660661815919264
3830345 0.805948308996271 0.16340931975794348
3859650 0.8064515439624349 0.16183293860846829
3888955 0.8064793316711065 0.1589272313112025
3918260 0.806410637597314 0.1571967502797811
3947565 0.806553545737376 0.15451276936030842
3976870 0.8075676901249125 0.1524912468232909
4006175 0.8083135356899857 0.15040035835173196
4035480 0.8082537907205073 0.14763213028947364
4064785 0.8086186781721592 0.14590605394557307
4094090 0.8092968177133096 0.1433589599865037
4123395 0.8096430543521046 0.14113981633030984
4152700 0.8094037785505409 0.13900136162228618
4182005 0.8096049215062219 0.13692409416812182
4211310 0.8098998855512893 0.13482740911185892
4240615 0.8107477078093488 0.13317851831924118
4269920 0.8107881847714004 0.13091180765010896
4299225 0.811789643051173 0.12860712158704768
4328530 0.8119803708732177 0.12675892854472465
4357835 0.8122359004353541 0.12536150225592727
4387140 0.8119611929098624 0.12267802855004019
4416445 0.8122747011439857 0.12028228176086128
4445750 0.8135383513557943 0.11882338562051092
4475055 0.8136770204395819 0.11704578696738802
4504360 0.8139669198049058 0.11497587389601382
4533665 0.8142172887134054 0.11266923587521421
4562970 0.8143712859182216 0.11143963508982642
4592275 0.8145290760811911 0.10913419565869228
4621580 0.8147795684190593 0.10778381821412458
4650885 0.8151976931075268 0.10540171579839655
4680190 0.8151705306244296 0.10396029839743229
4709495 0.8154714966041522 0.10135531796988435
4738800 0.8160465279453843 0.10030940756491535
4768105 0.8163902128855473 0.09722544877246116
4797410 0.8164772519421848 0.09590677515671538
4826715 0.8173607523442744 0.09427895273840815
4856020 0.8168151910403227 0.09312931810314486
4885325 0.8178672431608457 0.09014018779199502
4914630 0.8173500668656113 0.08826257796863327
4943935 0.8174248741417696 0.08683287968855091
4973240 0.8179676221052641 0.08600527175407262
5002545 0.8187246881274917 0.0836953558796121
5031850 0.8189315545054896 0.08204976287150997
5061155 0.8194397616894799 0.0806523119408585
5090460 0.8192561836891064 0.07859123572067199
5119765 0.8194402032842601 0.07684408444345163
5149070 0.8194840983700162 0.07457025205693316
5178375 0.8192562128930843 0.0740282866538637
5207680 0.8204049638218048 0.07182732578819312
5236985 0.8207313782251401 0.07051564712487911
5266290 0.8203140494187277 0.06832180578425083
5295595 0.8203107064409945 0.06688449575733839
5324900 0.8208375774072517 0.06533820638333596
5354205 0.8216675320481115 0.06383732210328832
5383510 0.8210089231807653 0.06187696673524044
5412815 0.8215604880799193 0.060672903597571715
5442120 0.8212017202080736 0.05876329706250927
5471425 0.8216977161981716 0.05711001564360661
5500730 0.8218032754125862 0.05515283396183971
5530035 0.8223217593346781 0.05397827969278999
5559340 0.8226158979456831 0.05260877952319081
5588645 0.8221758376814561 0.050766400355995445
5617950 0.8225014619917462 0.049476389358539326
5647255 0.8230451048619626 0.047442712154446134
5676560 0.8230764080484393 0.04474364788709643
5705865 0.8229175194175954 0.0450828018412378
5735170 0.8232059313215926 0.04278859782627804
5764475 0.8232343667788747 0.040905291975716476
5793780 0.8237304583802062 0.040135275207641534
5823085 0.8232738664701309 0.038686802053423716
5852390 0.8244557443239591 0.03691562803550566
5881695 0.8251941264361187 0.03526561044585115
5911000 0.8246012692966787 0.03339460142809022
5940305 0.8246400089856103 0.03249228291993966
5969610 0.8249226568248974 0.030652389933724326
5998915 0.8258684790927354 0.029270325736815532
6028220 0.8244884866200491 0.02839544042585982
6057525 0.8248702412020095 0.02720304280921992
6086830 0.8253040860255576 0.024231366038000114
6116135 0.8252400297783726 0.023568636481905082
6145440 0.8256366939219993 0.022259016508817297
6174745 0.8257125960488452 0.020601023362550982
6204050 0.8262764509084918 0.019227579135587626
6233355 0.8263175920681319 0.016896497314314477
6262660 0.8259660028385056 0.016010140364801053
6291965 0.8254288687728302 0.014582145664833183
6321270 0.8267931233688091 0.013688514318525021
6350575 0.8261703203053267 0.012192896395316379
6379880 0.8263224112144073 0.010332043246129836
6409185 0.8270942665689428 0.009209163193724985
6438490 0.8265930918715481 0.007546824609814733
6467795 0.8268683750709586 0.006151355735950584
6497100 0.8265318150610257 0.0053629430820582025
6526405 0.8276555849472699 0.0034553463189982018
6555710 0.8274754132016601 0.002212238081878288
6585015 0.8266801762600616 0.0007324117739029379
6614320 0.8270287926328797 -0.0005842022947692159
6643625 0.8282615312071888 -0.0018254283711609956
6672930 0.8284455631260451 -0.003705152688290727
6702235 0.827875294677819 -0.006317334647289255
6731540 0.8276125396888038 -0.006016331398598863
6760845 0.8282929560808988 -0.008006014108542072
6790150 0.8278301784213238 -0.008511456858076517
6819455 0.8290172077065155 -0.010294223060350568
6848760 0.8283455602213583 -0.012207748801572858
6878065 0.8285254255967064 -0.01260440628319805
6907370 0.8283953350647729 -0.014199601036673561
6936675 0.8289716183184445 -0.015623992147530467
6965980 0.8285240242169855 -0.01750548282064566
6995285 0.8285313038544407 -0.018658307289102324
7024590 0.8289344718173721 -0.020670997803885552
7053895 0.8288991862513742 -0.02111524493570744
7083200 0.828349902103004 -0.022177688149246182
7112505 0.8290328031469826 -0.02478353927008632
7141810 0.8291623460659275 -0.02443284108124506
7171115 0.8291525663413273 -0.027139127550861383
7200420 0.8291915554549945 -0.02876171570366008
7229725 0.8289229542256243 -0.030119701004974967
7259030 0.8288623822007142 -0.030163427906079128
7288335 0.8285892114094773 -0.03156353173221712
7317640 0.8291719016613692 -0.032642629789673076
7346945 0.828623409483798 -0.0329766815769141
7376250 0.8290568897854738 -0.034810553074670327
7405555 0.829121450079471 -0.036059747727859255
7434860 0.8295557139136117 -0.03767745731902518
7464165 0.8303105845960694 -0.03901374446882239
7493470 0.8292737167741022 -0.04000464582986171
7522775 0.8293552562828653 -0.04135819606649995
7552080 0.8290272701358299 -0.04256792489980421
7581385 0.8304681766679758 -0.04417103121280821
7610690 0.8293488379485773 -0.04465125255892022
7639995 0.830180660042588 -0.04670453850367504
7669300 0.8293533281793837 -0.04696970635353889
7698605 0.8302963107990443 -0.048945492266637546
7727910 0.8301891578687619 -0.05025166410618284
7757215 0.8294643360797105 -0.05190995337738319
7786520 0.8300274832132769 -0.05289825891125334
7815825 0.830005759062181 -0.05436076501834689
7845130 0.8297404969901043 -0.05573937999404736
7874435 0.8295352896978326 -0.05593022516432258
7903740 0.8287908094939311 -0.05773965993253194
7933045 0.8288552371136308 -0.05911239586566789
7962350 0.8303957761907422 -0.06013154151808641
7991655 0.8302334383226754 -0.06238412964606866
8020960 0.8292788983866544 -0.06285584486065916
8050265 0.8296177488406657 -0.06378775187799238
8079570 0.8296548892615159 -0.06525571883966942
8108875 0.8297854643880909 -0.06743741129291644
8138180 0.829931797230713 -0.06849888478566693
8167485 0.8297644078582307 -0.07052220305612777
8196790 0.8294142072424453 -0.07056841545090065
8226095 0.8296614352090268 -0.0714651267786252
8255400 0.829593717706529 -0.07207525828286387
8284705 0.8299741598943668 -0.07334924971288628
8314010 0.829445617332418 -0.07516605771965292
8343315 0.8294523512830005 -0.07710967072579906
8372620 0.8290327635697815 -0.07713764471332746
8401925 0.8297305336712113 -0.0779095419623444
8431230 0.8299642317702708 -0.08073246819367812
8460535 0.8299254914506785 -0.08185829020812359
8489840 0.8290985989421946 -0.08218324502588938
8519145 0.8292286420957354 -0.08321082376242646
8548450 0.829058290184359 -0.08418186753193957
8577755 0.8294230042882624 -0.08580676319502564
8607060 0.8299027878699904 -0.08786923419419668
8636365 0.8296670747174066 -0.08903443272587212
8665670 0.8293911404695042 -0.0901637997687711
8694975 0.8291670619610676 -0.0905230505022815
8724280 0.8287983131701241 -0.09113179316830922
8753585 0.828900285693541 -0.09228092870517214
8782890 0.8282679706823992 -0.09372662989642162
8812195 0.8286801093998745 -0.0948601240870566
8841500 0.8288740988470618 -0.09635477529619088
8870805 0.8293738070134642 -0.09752629256680931
8900110 0.8289372056198188 -0.09836895610720951
8929415 0.8292276370752996 -0.10083569828259546
8958720 0.8285015359656065 -0.10245702353367635
8988025 0.8279880283670807 -0.10228442854181373
9017330 0.8275125157818591 -0.10271329291273504
9046635 0.8286730673861672 -0.10408636250695985
9075940 0.828327445860068 -0.10560990466275189
9105245 0.8287827077013978 -0.10745820625458898
9134550 0.8277980007043791 -0.10763152050096653
9163855 0.8274998150711387 -0.1083985309447124
9193160 0.8272732339992102 -0.10932773695987714
9222465 0.8275001818745383 -0.11081968389537154
9251770 0.8277257609923321 -0.1122694922788715
9281075 0.8272772265948097 -0.11296887726128728
9310380 0.8285894989990472 -0.11524389656178034
9339685 0.8277371632511927 -0.11662694812112376
9368990 0.8277719915494977 -0.1169371661807389
9398295 0.8280583807400029 -0.1185066365522469
9427600 0.8273783786522124 -0.11886267902332552
9456905 0.8274558146197228 -0.12025229473023308
9486210 0.8275073272508574 -0.12121525039413067
9515515 0.8269385622599005 -0.12238856937901021
9544820 0.8278111349039355 -0.12330213611849611
9574125 0.8275406549084993 -0.12669081384806474
9603430 0.8263128999934205 -0.12592269551632998
9632735 0.8269170665490867 -0.12731801806300747
9662040 0.8259233142355256 -0.12838845300205526
9691345 0.8269024993317142 -0.12933054860777543
9720650 0.8272043347620328 -0.130283720628839
9749955 0.8262373695878561 -0.13223023821935895
9779260 0.8258562090719869 -0.13317704317903425
9808565 0.8261145027357343 -0.13503768040388553
9837870 0.8259510489947152 -0.13448393736078332
9867175 0.8254332199164198 -0.13600421872956941
9896480 0.825609781596016 -0.13717993069969217
9925785 0.826227879161757 -0.14023700349230994
9955090 0.8263013422784913 -0.14088427740798995
9984395 0.8256339035176209 -0.1418274348014499
10013700 0.8250188759463105 -0.1418180102689413
10043005 0.8248585110715139 -0.14244223153638405
10072310 0.8251186669818317 -0.14308831088893906
10101615 0.8253535013795509 -0.14517919942866023
10130920 0.8251717762333111 -0.1466655406435204
10160225 0.8238342266224781 -0.1462690551713747
10189530 0.8245251614304383 -0.14804725370943125
10218835 0.8243626345394908 -0.14882930053326543
10248140 0.8239124867000774 -0.15064957078718325
10277445 0.8237474386962932 -0.15090962070195618
10306750 0.8242111225189306 -0.1533270853442873
10336055 0.8242918457454622 -0.15527762026913627
10365360 0.8230078699696148 -0.15437436213714664
10394665 0.8236598611783601 -0.15780429369136553
10423970 0.8227964355037083 -0.15688830898104317
10453275 0.8231207283427395 -0.1575841007616597
10482580 0.8230171961303436 -0.15867578596669618
10511885 0.8228158273045338 -0.15991603094511153
10541190 0.8235600419731861 -0.16230363664582337
10570495 0.8236662432047098 -0.1631380490156056
10599800 0.8228640192115697 -0.16358497048922388
10629105 0.8230251350040221 -0.16556819945440934
10658410 0.8213896817098708 -0.16521291092098778
10687715 0.8215223074278013 -0.166285738681512
10717020 0.8213330237159684 -0.1675602892433096
10746325 0.822064250969066 -0.1696137358681291
10775630 0.82264671282811 -0.17165092646263924
10804935 0.8205626805538523 -0.17008135532627755
10834240 0.8205281481146259 -0.17189598067855308
10863545 0.8212224489124581 -0.1726008297197516
10892850 0.8208760593142358 -0.17374886830140462
10922155 0.8216006012255661 -0.17638558276045144
10951460 0.8204867240823448 -0.17629672632629087
10980765 0.8205242852896708 -0.17781040251644467
11010070 0.8193914485386987 -0.17823562752312078
11039375 0.8197064413210033 -0.17915693520726275
11068680 0.8202190463406034 -0.18099909111127782
11097985 0.8205678520419457 -0.18211252655463506
11127290 0.8199831924961867 -0.18364167920916794
11156595 0.8204984680733529 -0.1848187167136705
11185900 0.820235445556561 -0.1865945746191842
11215205 0.8190439789618753 -0.18575995720437088
11244510 0.8194675400685107 -0.18774520626297037
11273815 0.8190810415563168 -0.1879630490564301
11303120 0.8188209616887528 -0.18980426567257447
11332425 0.8189302320142785 -0.19046474414543013
11361730 0.8190302932072693 -0.19254525348994248
11391035 0.8182358634461523 -0.1930028339986602
11420340 0.8180590938134131 -0.1936856663362208
11449645 0.8173527379149212 -0.19396711502734476
11478950 0.8170344017524506 -0.1951996540361159
11508255 0.8169654030105843 -0.19609913710991744
11537560 0.8172238457082925 -0.1977233693183653
11566865 0.8165817089295532 -0.19807889147441587
11596170 0.8163662676541138 -0.19865045917978089
11625475 0.8163778938343841 -0.20076461621011515
11654780 0.8160574688068459 -0.2021361739627773
11684085 0.815970292929064 -0.2034662555294249
11713390 0.8167476599788599 -0.20335181763125945
11742695 0.8160140700336138 -0.20541327870804083
11772000 0.8157983482175826 -0.20670206942641908
11801305 0.8145413769955973 -0.20636488699613417
11830610 0.8159147652980961 -0.20777240808138583
11859915 0.8144093577541517 -0.20851836648446426
11889220 0.8145411356019259 -0.20908971655340125
11918525 0.8148694266734717 -0.2120684850094268
11947830 0.8148334447441736 -0.21388286759583516
11977135 0.8143268133910008 -0.21377917921928116
12006440 0.8141302949671021 -0.2153991561718806
12035745 0.8142930213522998 -0.21669842338248774
12065050 0.8133299440766208 -0.21762484061812587
12094355 0.8121127179348515 -0.21626997720927665
12123660 0.8132778507223148 -0.21814988905478142
12152965 0.8132007152838436 -0.21952952597785513
12182270 0.8134560545044285 -0.22179592549047186
12211575 0.812932563320442 -0.22189894679037658
12240880 0.811408507928788 -0.22217517815021498
12270185 0.8116269067259712 -0.22315123860386443
12299490 0.8115964378220123 -0.22529730294469852
12328795 0.8112786174956338 -0.22604251775764297
12358100 0.8110055818194066 -0.22684628826874276
