Freq (MHz),re(S11),im(S11),re(Z),im(Z)
0.050,-0.97133,0.17975,0.309,4.587
0.100,-0.94343,0.32633,0.044,8.403
0.150,-0.85193,0.49881,0.345,13.560
0.200,-0.77383,0.61612,0.306,17.473
0.250,-0.67331,0.72351,0.349,21.770
0.300,-0.50814,0.82550,1.021,27.927
0.350,-0.44461,0.87471,0.652,30.670
0.400,-0.33052,0.91985,0.853,35.157
0.450,-0.21928,0.95138,0.978,39.777
0.500,-0.11756,0.96619,1.206,44.270
0.550,-0.01837,0.96628,1.673,49.030
0.600,0.08892,0.95359,2.379,54.823
0.650,0.15465,0.94778,2.412,58.762
0.700,0.22928,0.92940,2.869,63.754
0.750,0.28704,0.91638,2.888,67.977
0.800,0.35469,0.87909,4.263,73.921
0.850,0.40746,0.84784,5.381,79.242
0.900,0.45417,0.82250,6.015,84.408
0.950,0.49449,0.78838,7.636,89.887
1.000,0.53136,0.75790,9.020,95.450
1.050,0.56110,0.73329,10.095,100.402
1.100,0.58997,0.69886,12.454,106.447
1.150,0.61123,0.66973,14.829,111.682
1.200,0.63052,0.64347,17.108,116.873
1.250,0.64901,0.61720,19.623,122.429
1.300,0.66530,0.59288,22.206,127.905
1.350,0.67831,0.57294,24.511,132.703
1.400,0.69051,0.54899,27.924,138.224
1.450,0.70145,0.52878,30.964,143.401
1.500,0.71375,0.51089,33.467,148.969
1.550,0.71839,0.49161,37.734,153.156
1.600,0.72551,0.47468,41.295,157.877
1.650,0.72969,0.45788,45.611,161.955
1.700,0.73832,0.44318,48.790,167.311
1.750,0.74450,0.42852,52.647,172.161
1.800,0.75147,0.41551,56.020,177.252
1.850,0.75319,0.40210,60.877,180.640
1.900,0.75792,0.39004,64.872,185.088
1.950,0.76175,0.37819,69.247,189.293
2.000,0.76486,0.36661,73.959,193.263
2.050,0.76918,0.35612,78.162,197.733
2.100,0.77331,0.34588,82.552,202.245
2.150,0.77404,0.33639,87.600,204.843
2.200,0.77664,0.32669,92.613,208.594
2.250,0.77873,0.31727,97.890,212.049
2.300,0.78137,0.30948,102.274,215.552
2.350,0.78369,0.30091,107.506,219.106
2.400,0.78730,0.29302,112.236,223.505
2.450,0.78851,0.28514,117.806,226.245
2.500,0.79063,0.27815,122.741,229.494
2.550,0.79189,0.27122,128.074,232.067
2.600,0.79364,0.26351,134.218,235.231
2.650,0.79604,0.25696,139.504,238.744
2.700,0.79674,0.25063,145.195,240.688
2.750,0.79975,0.24409,150.894,244.874
2.800,0.80026,0.23760,157.309,246.604
2.850,0.80190,0.23124,163.663,249.407
2.900,0.80270,0.22595,169.273,251.107
2.950,0.80489,0.22020,175.420,254.404
3.000,0.80660,0.21447,181.887,257.152
3.050,0.80776,0.20922,188.134,259.164
3.100,0.80862,0.20454,193.906,260.684
3.150,0.80974,0.19856,201.587,262.554
3.200,0.81098,0.19404,207.595,264.436
3.250,0.81205,0.18942,213.950,266.021
3.300,0.81271,0.18374,222.077,266.918
3.350,0.81452,0.17956,228.315,269.431
3.400,0.81510,0.17500,235.286,270.014
3.450,0.81633,0.17088,241.842,271.526
3.500,0.81670,0.16538,250.746,271.344
3.550,0.81804,0.16127,257.795,272.797
3.600,0.81947,0.15731,264.855,274.361
3.650,0.82023,0.15301,272.581,274.560
3.700,0.82047,0.14876,280.254,273.656
3.750,0.82143,0.14496,287.552,274.026
3.800,0.82235,0.14061,296.085,273.935
3.850,0.82277,0.13679,303.603,272.910
3.900,0.82430,0.13362,310.596,274.231
3.950,0.82569,0.12921,320.245,274.454
4.000,0.82571,0.12566,327.518,272.181
4.050,0.82718,0.12148,337.287,272.222
4.100,0.82686,0.11816,344.038,268.928
4.150,0.82765,0.11410,353.404,267.060
4.200,0.82862,0.11086,361.361,266.109
4.250,0.82977,0.10727,370.476,264.967
4.300,0.82988,0.10396,377.989,261.547
4.350,0.83015,0.10041,386.286,257.924
4.400,0.83172,0.09726,395.448,257.465
4.450,0.83238,0.09367,404.601,254.048
4.500,0.83303,0.09034,413.276,250.667
4.550,0.83329,0.08657,422.451,245.343
4.600,0.83388,0.08300,431.724,240.692
4.650,0.83452,0.07990,440.057,236.600
4.700,0.83551,0.07721,448.170,233.831
4.750,0.83533,0.07411,454.991,227.261
4.800,0.83670,0.07062,465.894,223.102
4.850,0.83701,0.06778,473.072,217.520
4.900,0.83746,0.06449,481.559,210.897
4.950,0.83795,0.06063,491.331,202.532
5.000,0.83843,0.05803,498.204,196.907
5.050,0.83894,0.05546,505.066,191.129
5.100,0.83922,0.05139,514.321,180.368
5.150,0.83923,0.04826,520.599,171.297
5.200,0.84043,0.04613,528.337,167.205
5.250,0.84030,0.04368,532.586,159.322
5.300,0.84064,0.03999,540.324,148.138
5.350,0.84195,0.03732,549.304,141.501
5.400,0.84203,0.03396,555.081,130.066
5.450,0.84271,0.03134,561.505,121.836
5.500,0.84208,0.02884,562.799,111.927
5.550,0.84297,0.02595,569.901,102.439
5.600,0.84321,0.02254,574.897,89.819
5.650,0.84352,0.02017,578.629,81.020
5.700,0.84431,0.01737,584.405,70.794
5.750,0.84438,0.01487,586.794,60.857
5.800,0.84499,0.01203,591.246,49.774
5.850,0.84551,0.00936,594.922,39.089
5.900,0.84494,0.00610,593.907,25.333
5.950,0.84592,0.00384,598.611,16.173
6.000,0.84557,0.00068,597.538,2.856
6.050,0.84607,-0.00205,599.543,-8.634
6.100,0.84628,-0.00381,600.149,-16.095
6.150,0.84653,-0.00750,600.056,-31.752
6.200,0.84661,-0.00951,599.455,-40.253
6.250,0.84752,-0.01221,601.654,-52.204
6.300,0.84778,-0.01456,600.965,-62.284
6.350,0.84734,-0.01777,596.282,-75.228
6.400,0.84792,-0.01995,596.423,-84.806
6.450,0.84764,-0.02358,590.991,-99.199
6.500,0.84845,-0.02512,592.199,-106.449
6.550,0.84853,-0.02829,587.944,-119.161
6.600,0.84804,-0.02962,583.982,-123.568
6.650,0.84898,-0.03254,582.772,-136.343
6.700,0.84856,-0.03581,575.354,-147.871
6.750,0.84924,-0.03783,574.025,-156.582
6.800,0.84901,-0.03999,568.876,-163.886
6.850,0.84917,-0.04266,563.875,-173.641
6.900,0.84880,-0.04561,556.215,-182.888
6.950,0.84921,-0.04786,552.463,-191.230
7.000,0.84956,-0.05105,546.081,-202.279
7.050,0.84896,-0.05292,539.696,-206.625
7.100,0.84979,-0.05555,535.641,-216.576
7.150,0.84960,-0.05786,529.152,-222.813
7.200,0.84993,-0.05955,525.697,-228.439
7.250,0.84993,-0.06357,514.977,-239.323
7.300,0.84984,-0.06485,511.274,-242.383
7.350,0.85014,-0.06726,505.389,-249.278
7.400,0.84960,-0.06983,496.993,-253.948
7.450,0.85009,-0.07161,493.117,-259.453
7.500,0.84986,-0.07451,484.443,-265.219
7.550,0.84976,-0.07682,477.657,-269.798
7.600,0.84994,-0.07981,469.450,-276.288
7.650,0.85000,-0.08237,462.212,-281.270
7.700,0.85004,-0.08400,457.584,-284.317
7.750,0.85008,-0.08620,451.303,-288.235
7.800,0.85006,-0.08862,444.260,-292.134
7.850,0.84969,-0.09091,437.111,-294.605
7.900,0.84904,-0.09326,429.449,-296.207
7.950,0.84898,-0.09543,423.223,-299.028
8.000,0.84966,-0.09868,414.894,-305.143
8.050,0.84911,-0.10055,408.948,-305.824
8.100,0.84983,-0.10218,405.174,-309.721
8.150,0.84952,-0.10550,395.544,-312.367
8.200,0.84901,-0.10726,390.163,-312.692
8.250,0.84857,-0.10922,384.385,-313.305
8.300,0.84931,-0.11138,379.145,-317.208
8.350,0.84902,-0.11429,371.064,-318.729
8.400,0.84781,-0.11668,363.830,-317.283
8.450,0.84829,-0.11837,359.727,-319.683
8.500,0.84872,-0.12124,352.494,-322.579
8.550,0.84843,-0.12296,347.895,-322.784
8.600,0.84821,-0.12587,340.375,-323.714
8.650,0.84766,-0.12755,335.902,-323.099
8.700,0.84824,-0.12988,330.348,-325.527
8.750,0.84801,-0.13228,324.357,-325.815
8.800,0.84719,-0.13462,318.448,-324.594
8.850,0.84661,-0.13623,314.459,-323.689
8.900,0.84707,-0.13870,308.788,-325.385
8.950,0.84717,-0.14143,302.480,-326.170
9.000,0.84616,-0.14316,298.363,-324.182
9.050,0.84683,-0.14541,293.389,-326.005
9.100,0.84626,-0.14750,288.700,-324.941
9.150,0.84531,-0.14959,284.059,-323.055
9.200,0.84525,-0.15166,279.623,-323.044
9.250,0.84600,-0.15432,274.011,-324.681
9.300,0.84546,-0.15659,269.274,-323.518
9.350,0.84441,-0.15838,265.654,-321.304
9.400,0.84483,-0.16083,260.689,-322.027
9.450,0.84434,-0.16276,256.888,-320.884
9.500,0.84376,-0.16499,252.597,-319.548
9.550,0.84368,-0.16692,248.907,-319.171
9.600,0.84355,-0.16916,244.685,-318.624
9.650,0.84313,-0.17109,241.147,-317.537
9.700,0.84263,-0.17332,237.142,-316.250
9.750,0.84311,-0.17608,232.082,-316.589
9.800,0.84228,-0.17761,229.538,-314.786
9.850,0.84292,-0.17990,225.398,-315.402
9.900,0.84214,-0.18220,221.619,-313.509
9.950,0.84091,-0.18501,217.210,-310.735
10.000,0.84115,-0.18596,215.562,-310.900
10.050,0.84122,-0.18899,210.596,-310.189
10.100,0.83960,-0.18998,209.455,-307.303
10.150,0.84062,-0.19259,205.038,-308.183
10.200,0.83987,-0.19456,202.190,-306.421
10.250,0.83852,-0.19636,199.837,-303.811
10.300,0.83948,-0.19861,196.155,-304.556
10.350,0.83910,-0.20213,191.065,-302.832
10.400,0.83765,-0.20273,190.667,-300.530
10.450,0.83727,-0.20471,187.957,-299.342
10.500,0.83788,-0.20762,183.642,-299.218
10.550,0.83786,-0.20932,181.288,-298.581
10.600,0.83604,-0.21095,179.698,-295.514
10.650,0.83613,-0.21392,175.665,-294.591
10.700,0.83618,-0.21671,171.982,-293.642
10.750,0.83592,-0.21832,169.991,-292.706
10.800,0.83528,-0.21929,168.979,-291.530
10.850,0.83406,-0.22086,167.437,-289.408
10.900,0.83456,-0.22276,164.877,-289.332
10.950,0.83385,-0.22664,160.386,-286.990
11.000,0.83267,-0.22730,160.044,-285.315
11.050,0.83184,-0.22970,157.499,-283.436
11.100,0.83241,-0.23205,154.540,-283.216
11.150,0.83221,-0.23478,151.492,-281.938
11.200,0.83054,-0.23555,151.252,-279.751
11.250,0.83086,-0.23819,148.185,-279.094
11.300,0.83073,-0.23999,146.266,-278.258
11.350,0.82979,-0.24161,144.871,-276.615
11.400,0.82992,-0.24414,142.113,-275.770
11.450,0.82928,-0.24615,140.248,-274.308
11.500,0.82785,-0.24704,139.878,-272.482
11.550,0.82811,-0.25004,136.699,-271.592
11.600,0.82705,-0.25212,135.016,-269.717
11.650,0.82645,-0.25408,133.310,-268.366
11.700,0.82533,-0.25604,131.825,-266.531
11.750,0.82538,-0.25760,130.293,-265.982
11.800,0.82580,-0.26083,127.073,-265.129
11.850,0.82562,-0.26242,125.658,-264.346
11.900,0.82361,-0.26391,125.055,-261.916
11.950,0.82294,-0.26511,124.218,-260.853
12.000,0.82332,-0.26832,121.185,-259.970
12.050,0.82266,-0.27001,119.941,-258.745
12.100,0.82261,-0.27305,117.310,-257.534
12.150,0.82081,-0.27339,117.701,-255.862
12.200,0.82152,-0.27536,115.756,-255.728
12.250,0.82076,-0.27822,113.635,-254.007
12.300,0.82040,-0.27981,112.459,-253.109
12.350,0.81956,-0.28220,110.827,-251.529
12.400,0.81794,-0.28436,109.688,-249.425
12.450,0.81746,-0.28556,108.914,-248.600
12.500,0.81795,-0.28803,106.800,-248.078
12.550,0.81629,-0.29008,105.825,-246.045
12.600,0.81673,-0.29131,104.722,-245.937
12.650,0.81555,-0.29422,102.957,-243.988
12.700,0.81425,-0.29549,102.486,-242.570
12.750,0.81435,-0.29789,100.685,-241.782
12.800,0.81354,-0.29970,99.663,-240.556
12.850,0.81254,-0.30019,99.659,-239.662
12.900,0.81260,-0.30366,97.176,-238.485
12.950,0.81150,-0.30417,97.205,-237.534
13.000,0.81074,-0.30726,95.328,-235.935
13.050,0.81003,-0.30860,94.656,-234.993
13.100,0.80955,-0.31087,93.292,-233.895
13.150,0.80889,-0.31317,91.986,-232.669
13.200,0.80773,-0.31511,91.105,-231.250
13.250,0.80734,-0.31692,90.057,-230.389
13.300,0.80642,-0.31809,89.615,-229.410
13.350,0.80654,-0.32094,87.766,-228.542
13.400,0.80494,-0.32217,87.515,-227.134
13.450,0.80461,-0.32469,86.067,-226.104
13.500,0.80360,-0.32739,84.746,-224.615
13.550,0.80338,-0.32836,84.228,-224.166
13.600,0.80189,-0.33105,83.103,-222.416
13.650,0.80151,-0.33191,82.715,-221.918
13.700,0.80181,-0.33456,81.067,-221.255
13.750,0.79981,-0.33669,80.472,-219.431
13.800,0.79960,-0.33796,79.810,-218.918
13.850,0.79860,-0.33922,79.404,-217.963
13.900,0.79803,-0.34209,77.975,-216.761
13.950,0.79686,-0.34295,77.857,-215.852
14.000,0.79672,-0.34556,76.469,-214.991
14.050,0.79635,-0.34759,75.483,-214.177
14.100,0.79466,-0.34836,75.572,-213.040
14.150,0.79396,-0.35054,74.622,-212.022
14.200,0.79361,-0.35282,73.528,-211.167
14.250,0.79343,-0.35490,72.500,-210.468
14.300,0.79198,-0.35743,71.629,-208.989
14.350,0.79102,-0.35872,71.252,-208.129
14.400,0.79049,-0.36034,70.588,-207.405
14.450,0.79044,-0.36280,69.380,-206.680
14.500,0.78956,-0.36460,68.745,-205.734
14.550,0.78877,-0.36655,68.024,-204.802
14.600,0.78678,-0.36629,68.700,-203.912
14.650,0.78561,-0.36901,67.708,-202.608
14.700,0.78565,-0.37136,66.588,-201.986
14.750,0.78424,-0.37382,65.817,-200.660
14.800,0.78364,-0.37499,65.434,-200.068
14.850,0.78248,-0.37770,64.503,-198.818
14.900,0.78225,-0.37885,64.039,-198.411
14.950,0.78081,-0.38047,63.689,-197.337
15.000,0.78014,-0.38193,63.206,-196.661
15.050,0.77939,-0.38469,62.183,-195.616
15.100,0.77897,-0.38615,61.651,-195.060
15.150,0.77802,-0.38850,60.875,-194.048
15.200,0.77698,-0.38807,61.324,-193.710
15.250,0.77596,-0.39178,59.992,-192.343
15.300,0.77434,-0.39372,59.578,-191.185
15.350,0.77440,-0.39385,59.506,-191.177
15.400,0.77341,-0.39676,58.540,-190.054
15.450,0.77244,-0.39812,58.215,-189.324
15.500,0.77122,-0.40096,57.353,-188.149
15.550,0.77100,-0.40331,56.462,-187.497
15.600,0.76926,-0.40332,56.870,-186.804
15.650,0.76831,-0.40618,55.959,-185.756
15.700,0.76809,-0.40873,55.014,-185.078
15.750,0.76640,-0.40993,54.934,-184.146
15.800,0.76550,-0.41202,54.337,-183.323
15.850,0.76527,-0.41369,53.756,-182.857
15.900,0.76354,-0.41430,53.915,-182.063
15.950,0.76281,-0.41724,52.970,-181.133
16.000,0.76225,-0.41823,52.727,-180.708
16.050,0.76079,-0.42093,52.049,-179.576
16.100,0.75970,-0.42302,51.525,-178.721
16.150,0.75904,-0.42457,51.107,-178.148
16.200,0.75842,-0.42636,50.598,-177.543
16.250,0.75738,-0.42701,50.587,-177.034
16.300,0.75630,-0.42964,49.886,-176.095
16.350,0.75497,-0.43141,49.542,-175.260
16.400,0.75425,-0.43306,49.120,-174.669
16.450,0.75278,-0.43459,48.893,-173.846
16.500,0.75158,-0.43612,48.612,-173.122
16.550,0.75105,-0.43743,48.273,-172.679
16.600,0.74986,-0.44045,47.494,-171.671
16.650,0.74883,-0.44205,47.166,-171.010
16.700,0.74783,-0.44397,46.729,-170.298
16.750,0.74705,-0.44564,46.334,-169.719
16.800,0.74618,-0.44694,46.079,-169.179
16.850,0.74468,-0.44941,45.569,-168.219
16.900,0.74348,-0.45067,45.396,-167.593
16.950,0.74311,-0.45256,44.862,-167.119
17.000,0.74181,-0.45363,44.768,-166.506
17.050,0.74043,-0.45565,44.389,-165.695
17.100,0.73932,-0.45748,44.027,-165.011
17.150,0.73858,-0.45953,43.529,-164.408
17.200,0.73750,-0.46187,43.009,-163.648
17.250,0.73611,-0.46279,42.979,-163.063
17.300,0.73440,-0.46492,42.641,-162.167
17.350,0.73422,-0.46741,41.931,-161.673
17.400,0.73260,-0.46769,42.133,-161.140
17.450,0.73205,-0.46950,41.693,-160.662
17.500,0.73109,-0.47233,41.031,-159.892
17.550,0.72945,-0.47388,40.863,-159.148
17.600,0.72801,-0.47542,40.662,-158.471
17.650,0.72746,-0.47757,40.139,-157.952
17.700,0.72576,-0.47890,40.046,-157.246
17.750,0.72507,-0.48037,39.746,-156.807
17.800,0.72416,-0.48277,39.225,-156.158
17.850,0.72330,-0.48284,39.345,-155.907
17.900,0.72213,-0.48567,38.752,-155.122
17.950,0.72065,-0.48571,38.978,-154.709
18.000,0.71916,-0.48930,38.235,-153.731
18.050,0.71799,-0.49087,37.995,-153.167
18.100,0.71658,-0.49244,37.794,-152.542
18.150,0.71609,-0.49414,37.417,-152.148
18.200,0.71483,-0.49526,37.315,-151.639
18.250,0.71419,-0.49733,36.867,-151.152
18.300,0.71212,-0.49815,36.964,-150.485
18.350,0.71093,-0.50088,36.435,-149.766
18.400,0.70886,-0.50299,36.198,-148.919
18.450,0.70837,-0.50476,35.816,-148.531
18.500,0.70671,-0.50553,35.862,-147.997
18.550,0.70566,-0.50751,35.515,-147.446
18.600,0.70394,-0.50911,35.358,-146.784
18.650,0.70381,-0.51149,34.783,-146.413
18.700,0.70255,-0.51325,34.527,-145.851
18.750,0.70103,-0.51446,34.441,-145.306
18.800,0.69929,-0.51565,34.391,-144.715
18.850,0.69844,-0.51773,34.003,-144.221
18.900,0.69713,-0.51958,33.736,-143.651
18.950,0.69597,-0.52173,33.378,-143.083
19.000,0.69531,-0.52256,33.270,-142.812
19.050,0.69328,-0.52484,33.003,-142.027
19.100,0.69216,-0.52599,32.878,-141.612
19.150,0.69017,-0.52736,32.820,-140.966
19.200,0.69062,-0.52966,32.226,-140.770
19.250,0.68819,-0.53009,32.442,-140.154
19.300,0.68724,-0.53320,31.847,-139.537
19.350,0.68605,-0.53430,31.749,-139.127
19.400,0.68406,-0.53560,31.704,-138.511
19.450,0.68329,-0.53767,31.333,-138.078
19.500,0.68171,-0.53938,31.146,-137.513
19.550,0.68116,-0.54106,30.841,-137.184
19.600,0.67855,-0.54194,30.963,-136.497
19.650,0.67772,-0.54281,30.873,-136.211
19.700,0.67643,-0.54579,30.374,-135.572
19.750,0.67520,-0.54788,30.066,-135.055
19.800,0.67342,-0.54871,30.095,-134.574
19.850,0.67269,-0.55119,29.649,-134.129
19.900,0.67133,-0.55301,29.417,-133.628
19.950,0.66855,-0.55312,29.714,-133.025
20.000,0.66858,-0.55553,29.202,-132.758
20.050,0.66798,-0.55643,29.080,-132.529
20.100,0.66489,-0.55902,28.885,-131.595
20.150,0.66444,-0.56017,28.697,-131.376
20.200,0.66359,-0.56184,28.447,-131.015
20.250,0.66152,-0.56307,28.421,-130.455
20.300,0.66065,-0.56437,28.250,-130.137
20.350,0.65866,-0.56551,28.233,-129.610
20.400,0.65679,-0.56772,27.986,-128.998
20.450,0.65673,-0.56994,27.547,-128.751
20.500,0.65456,-0.57197,27.370,-128.108
20.550,0.65328,-0.57293,27.314,-127.754
20.600,0.65160,-0.57385,27.304,-127.329
20.650,0.65013,-0.57548,27.135,-126.874
20.700,0.64882,-0.57712,26.946,-126.451
20.750,0.64737,-0.57925,26.680,-125.956
20.800,0.64572,-0.58032,26.636,-125.533
20.850,0.64414,-0.58295,26.288,-124.971
20.900,0.64351,-0.58396,26.157,-124.752
20.950,0.64132,-0.58526,26.123,-124.212
21.000,0.63970,-0.58596,26.148,-123.838
21.050,0.63844,-0.58779,25.922,-123.427
21.100,0.63655,-0.58980,25.725,-122.884
21.150,0.63600,-0.59172,25.420,-122.603
21.200,0.63410,-0.59366,25.239,-122.074
21.250,0.63310,-0.59414,25.243,-121.845
21.300,0.63033,-0.59611,25.135,-121.159
21.350,0.62940,-0.59884,24.725,-120.744
21.400,0.62775,-0.59904,24.837,-120.430
21.450,0.62608,-0.60061,24.702,-119.990
21.500,0.62525,-0.60244,24.448,-119.681
21.550,0.62371,-0.60442,24.231,-119.235
21.600,0.62157,-0.60596,24.145,-118.724
21.650,0.62019,-0.60674,24.126,-118.415
21.700,0.61942,-0.60844,23.892,-118.135
21.750,0.61653,-0.60997,23.870,-117.502
21.800,0.61542,-0.61186,23.636,-117.154
21.850,0.61364,-0.61367,23.470,-116.698
21.900,0.61360,-0.61489,23.266,-116.590
21.950,0.61055,-0.61640,23.258,-115.947
22.000,0.60896,-0.61684,23.309,-115.642
22.050,0.60755,-0.61907,23.046,-115.227
22.100,0.60581,-0.62157,22.765,-114.736
22.150,0.60440,-0.62173,22.848,-114.489
22.200,0.60341,-0.62263,22.775,-114.254
22.250,0.60132,-0.62620,22.347,-113.633
22.300,0.59941,-0.62706,22.350,-113.254
22.350,0.59750,-0.62872,22.225,-112.816
22.400,0.59591,-0.62914,22.274,-112.527
22.450,0.59409,-0.63023,22.232,-112.149
22.500,0.59331,-0.63310,21.827,-111.812
22.550,0.59055,-0.63345,21.972,-111.344
22.600,0.58965,-0.63557,21.698,-111.048
22.650,0.58774,-0.63754,21.522,-110.605
22.700,0.58646,-0.63860,21.445,-110.327
22.750,0.58474,-0.63848,21.584,-110.064
22.800,0.58234,-0.64226,21.159,-109.425
22.850,0.58157,-0.64280,21.127,-109.268
22.900,0.57933,-0.64444,21.027,-108.809
22.950,0.57794,-0.64609,20.868,-108.483
23.000,0.57644,-0.64771,20.719,-108.145
23.050,0.57491,-0.64744,20.863,-107.929
23.100,0.57301,-0.64976,20.635,-107.486
23.150,0.57117,-0.65259,20.326,-107.023
23.200,0.56925,-0.65193,20.550,-106.776
23.250,0.56789,-0.65447,20.257,-106.409
23.300,0.56568,-0.65558,20.232,-106.009
23.350,0.56388,-0.65827,19.945,-105.573
23.400,0.56245,-0.65870,19.971,-105.335
23.450,0.56097,-0.66014,19.850,-105.028
23.500,0.55927,-0.66152,19.752,-104.696
23.550,0.55758,-0.66297,19.644,-104.361
23.600,0.55494,-0.66470,19.552,-103.875
23.650,0.55424,-0.66560,19.462,-103.720
23.700,0.55208,-0.66576,19.567,-103.399
23.750,0.54937,-0.66856,19.323,-102.849
23.800,0.54814,-0.67044,19.127,-102.565
23.850,0.54672,-0.67128,19.089,-102.317
23.900,0.54431,-0.67307,18.974,-101.876
23.950,0.54256,-0.67318,19.056,-101.623
24.000,0.54150,-0.67589,18.735,-101.325
24.050,0.53866,-0.67599,18.877,-100.924
24.100,0.53825,-0.67811,18.606,-100.753
24.150,0.53616,-0.67941,18.540,-100.394
24.200,0.53367,-0.68112,18.439,-99.961
24.250,0.53221,-0.68271,18.298,-99.678
24.300,0.52967,-0.68335,18.345,-99.299
24.350,0.52956,-0.68443,18.204,-99.228
24.400,0.52722,-0.68552,18.178,-98.855
24.450,0.52507,-0.68827,17.918,-98.426
24.500,0.52380,-0.68817,17.995,-98.262
24.550,0.52064,-0.69062,17.826,-97.719
24.600,0.51909,-0.69201,17.719,-97.445
24.650,0.51653,-0.69176,17.877,-97.120
24.700,0.51565,-0.69435,17.579,-96.879
24.750,0.51368,-0.69549,17.525,-96.567
24.800,0.51200,-0.69703,17.403,-96.276
24.850,0.51036,-0.69671,17.522,-96.078
24.900,0.50849,-0.69831,17.402,-95.762
24.950,0.50569,-0.69983,17.335,-95.331
25.000,0.50484,-0.70195,17.102,-95.126
25.050,0.50218,-0.70381,16.985,-94.704
25.100,0.50035,-0.70430,17.006,-94.450
25.150,0.49863,-0.70544,16.937,-94.182
25.200,0.49715,-0.70697,16.809,-93.929
25.250,0.49488,-0.70820,16.753,-93.591
25.300,0.49237,-0.70967,16.677,-93.215
