# HZ S RI R 50
50000 -0.9986726505803384 0.014800363871403136
59736 -0.9489663394340314 0.015539909008463065
69472 -1.0160132809306877 0.020622160077253367
79208 -1.008175866471082 0.03202726889455705
88944 -1.0003506933842858 0.03324957927660286
98680 -1.0004260614683642 0.03395469307781561
108416 -0.9973507046948291 0.03352842783338438
118152 -0.9981840296671287 0.04135066554911716
127888 -0.997840302468412 0.04538991036397005
137624 -0.9785259352868476 0.038320424225034566
147360 -0.9938227881519582 0.057745303398259555
157096 -0.9961460172955111 0.05521294434003438
166832 -0.98608680465856 0.05715137256434472
176568 -0.9975960061027158 0.062387712449292386
186304 -0.995748756650363 0.06550162732013996
196040 -0.9961619129797309 0.06763011655888257
205776 -0.9965714298192203 0.07021348975089414
215512 -0.9918654250198227 0.0717925452694562
225248 -0.9970504100270132 0.07908224519540369
234984 -0.9992327879380657 0.08172656143304914
244720 -0.9914605957324423 0.08317822809825777
254456 -1.0036592309612158 0.08321665193817823
264192 -0.9938307599484563 0.09030185151212244
273928 -0.9950549426559729 0.0926272651361257
283664 -0.9945339209698354 0.09770800181830833
293400 -0.9855831078107508 0.09209853042729263
303136 -0.9777329172081413 0.1280316975179285
312872 -0.995295925935738 0.10855067226832657
322608 -0.9931192191276657 0.11070681057844513
332344 -0.9938660993465235 0.11438295474002193
342080 -0.9900997788111404 0.11913446634556646
351816 -0.9910347275253069 0.12163643004730038
361552 -0.9927368125709499 0.12518561805029924
371288 -0.9885681325139555 0.1280269856253482
381024 -0.9889939006529354 0.13083650608579167
390760 -0.9872907028364757 0.13371099060850283
400496 -0.9902063541008169 0.13783095593531175
410232 -0.988498704404075 0.14257610280300193
419968 -0.9890047777718709 0.14552807906135792
429704 -0.9889436457276334 0.14714866405725965
439440 -0.9870703007572694 0.15176835196168303
449176 -0.986466412993777 0.15421786412683697
458912 -0.9858634484857718 0.15683111876615752
468648 -0.9865398666683456 0.16071441217455804
478384 -0.984512475577092 0.16394352457272937
488120 -0.9847119433308447 0.1681249823017152
497856 -0.9849135014164159 0.17108746054414523
507592 -0.9832265817326197 0.17327519529053645
517328 -0.9827113518140247 0.17726593509862573
527064 -0.9820800481815709 0.1800436799040763
536800 -0.9825024371652997 0.1830148117749924
546536 -0.9803890736225885 0.1878997622194957
556272 -0.9786569831202103 0.1909796047831306
566008 -0.9792303107739744 0.1933732067972563
575744 -0.9780108107649826 0.19755683449797506
585480 -0.976272692156087 0.1995328765813346
595216 -0.9774881530606103 0.20474061841948207
604952 -0.9756591178857951 0.2059303201724996
614688 -0.9815510653072717 0.21241374675444322
624424 -0.9742307575013968 0.2135893460103184
634160 -0.9737588084791414 0.2162664838982442
643896 -0.9736350797901153 0.22088292084690606
653632 -0.9738687660188838 0.22203423273952033
663368 -0.9722895688219418 0.22772564660637748
673104 -0.9705600364143834 0.22919390478919058
682840 -0.9703077601084102 0.23246365618542453
692576 -0.9689565295087934 0.2367018256630724
702312 -0.9684156593916193 0.2392150746452148
712048 -0.9678531278575938 0.24362414688935646
721784 -0.9683058926468504 0.24585267535045874
731520 -0.9656200290912407 0.24898225499825452
741256 -0.9655609037922459 0.251808684730257
750992 -0.9388555175669617 0.23853389745222434
760728 -0.9621123036505901 0.25792953520687684
770464 -0.9633850105715156 0.26092480219169956
780200 -0.9613102905496417 0.26662168975753797
789936 -0.9608207885606191 0.2686844195981479
799672 -0.9568325386983829 0.271234374223029
809408 -0.9589303556518879 0.27356665626401494
819144 -0.9579663527945002 0.2784858612604846
828880 -0.9569591151298394 0.28170340588480536
838616 -0.9559174843941464 0.28566415585578675
848352 -0.9549083854417985 0.2879198171913505
858088 -0.9539908343527155 0.29036366287491444
867824 -0.9538313633212416 0.29520627869958793
877560 -0.9515247038285196 0.2976115922428104
887296 -0.9503167575797773 0.30092159660263346
897032 -0.9448826618661089 0.30293999036928193
906768 -0.9482911267559911 0.3063990516944375
916504 -0.9481506494245863 0.310232153381611
926240 -0.9472290309722732 0.3127060287018725
935976 -0.9461407037219154 0.3175903559846873
945712 -0.9443759873141971 0.321070938485414
955448 -0.9426724213654316 0.32342479185353235
965184 -0.9424865440820698 0.3272655823275896
974920 -0.9420992654655618 0.3291241254372145
984656 -0.9403912714831248 0.333664930009838
994392 -0.9394998745297665 0.3341867577234662
1004128 -0.9389048625972868 0.3399524060811662
1013864 -0.9359574849806853 0.34330517050035203
1023600 -0.9348218899536419 0.3459570205728026
1033336 -0.9347418445165044 0.3503554992860127
1043072 -0.9324197149458807 0.3499629717534957
1052808 -0.9330588482195289 0.3561585284448128
1062544 -0.9301908074403935 0.35641983725599635
1072280 -0.9295961556530316 0.3609446055775423
1082016 -0.9275414770709933 0.3646663588241535
1091752 -0.9264240966153153 0.36728124853085425
1101488 -0.9263951404837099 0.37084998305288003
1111224 -0.9234411271145657 0.3725015004081423
1120960 -0.923288389616353 0.37785135571890993
1130696 -0.921714305613481 0.37977953035899314
1140432 -0.919972299402429 0.3833538299705609
1150168 -0.9184975944552757 0.3859756685406745
1159904 -0.9172914279184127 0.38872165474650217
1169640 -0.9162578862882732 0.39401734555241047
1179376 -0.9155461129622136 0.39392582134608517
1189112 -0.9148433376615374 0.39896378028512836
1198848 -0.9204513706670232 0.4061599869301744
1208584 -0.9111282016263897 0.40316570788629813
1218320 -0.9103370947974908 0.40824487891286676
1228056 -0.907756632126667 0.4104052141695794
1237792 -0.9079241665738855 0.414253565807656
1247528 -0.9037300894720086 0.4162764528612791
1257264 -0.9049199748656214 0.4208334452622649
1267000 -0.9010633172071086 0.4228433650762992
1276736 -0.9010779971667671 0.427508033663522
1286472 -0.8993654176252185 0.4301314325569108
1296208 -0.8984258204126416 0.43156192409767774
1305944 -0.8965698287240496 0.4361349779469668
1315680 -0.8950119379752628 0.4367781396796638
1325416 -0.8944317487054613 0.44281898642781353
1335152 -0.8917936819883105 0.443988445519886
1344888 -0.8903100505326813 0.4466689191003661
1354624 -0.8891803742752209 0.45194477863228977
1364360 -0.8874487782898662 0.45343106730088145
1374096 -0.8864315239154447 0.45665269536897174
1383832 -0.8833783897562484 0.45890166331116955
1393568 -0.8830485721550413 0.46324041520782067
1403304 -0.8801671053342033 0.4669408586220601
1413040 -0.8789571814043712 0.4677474511603853
1422776 -0.8782413994829797 0.4718383012430867
1432512 -0.8760429150063069 0.47253657976555824
1442248 -0.8746756176529573 0.4784157397199172
1451984 -0.8719236731332399 0.48044429962821017
1461720 -0.8717297811552144 0.4832427496416236
1471456 -0.8694997230135805 0.4873873780981779
1481192 -0.868257578225981 0.48917419244574817
1490928 -0.8669722527728505 0.493415585101521
1500664 -0.863548097360295 0.49408336225580846
1510400 -0.8639264603778587 0.4997852228491596
1520136 -0.8613075044717801 0.5023084136273146
1529872 -0.8590425988844067 0.5046155019642099
1539608 -0.8569609066550781 0.5073987070944301
1549344 -0.8560607734834751 0.5089957032788898
1559080 -0.8552333450839743 0.5137638550183986
1568816 -0.8522540433741177 0.5159346211746632
1578552 -0.8504932294743733 0.5192545702217723
1588288 -0.8482762957221408 0.5221864157877845
1598024 -0.8474029426625069 0.5239200284724539
1607760 -0.845270392888875 0.5286845034772751
1617496 -0.8426843617649288 0.5301979095072682
1627232 -0.8416779481418601 0.5342356000754801
1636968 -0.8394498287285702 0.5377303182494658
1646704 -0.8372910179462082 0.5388377499732745
1656440 -0.8359130182335118 0.5436126118476319
1666176 -0.8334681762186091 0.5448042749510434
1675912 -0.8321788445223605 0.5473884418783941
1685648 -0.8305047376011396 0.5511909971187222
1695384 -0.8277188170757667 0.5530153809504988
1705120 -0.8269329915556896 0.5572564081126928
1714856 -0.8244063904908078 0.5588329347155885
1724592 -0.8229861260120457 0.5621552230163763
1734328 -0.8204417135053815 0.5658963867304903
1744064 -0.8182728949429184 0.5673727578686651
1753800 -0.8164250028273276 0.5716635148934213
1763536 -0.8135467599239353 0.5735125051998267
1773272 -0.8122364805312374 0.5774164207121323
1783008 -0.809394067890203 0.5782408036601954
1792744 -0.8080074327292612 0.5824688701709623
1802480 -0.8060752040329967 0.5854579283806196
1812216 -0.8044961031421352 0.5865117815083428
1821952 -0.8037330160278395 0.5911576167404197
1831688 -0.7987290674163926 0.5924968430277008
1841424 -0.7981678466444212 0.5959445113179814
1851160 -0.7954476676643211 0.599318914080732
1860896 -0.7932114159248722 0.6013751225365999
1870632 -0.7927069274283417 0.6049237240141226
1880368 -0.7884628357101462 0.6068654421233566
1890104 -0.7884470511085784 0.6112961603715331
1899840 -0.7849238882113491 0.6116388797467494
1909576 -0.7831201256153993 0.6150148252614445
1919312 -0.7813164031234893 0.6175847154343438
1929048 -0.7780028375071742 0.6213422748440821
1938784 -0.7768476622355605 0.6244661095239546
1948520 -0.7714944063383686 0.6259458944831958
1958256 -0.7733129591421145 0.6306362114321742
1967992 -0.770572269542013 0.6307430938398686
1977728 -0.7675633065069206 0.6339315414109785
1987464 -0.7656496148464326 0.6380499571154301
1997200 -0.7625317838253505 0.6393139962657428
2006936 -0.7608641773646776 0.642967147754414
2016672 -0.7568643197480576 0.6448681107245898
2026408 -0.7569258184617853 0.6479942654791214
2036144 -0.7542349645253088 0.6498046565918166
2045880 -0.750942439760323 0.6534163808748878
2055616 -0.7493818330490499 0.6566314761240104
2065352 -0.7471987126460213 0.6573448240540307
2075088 -0.7449203121284609 0.6618896858166126
2084824 -0.7420536297619221 0.6634234641413777
2094560 -0.7395444590634427 0.6660964114205035
2104296 -0.7362273034991261 0.6691762020213072
2114032 -0.7353386119924296 0.6715858689305716
2123768 -0.7340296965806057 0.674143726764772
2133504 -0.7296047523539864 0.6752271101036648
2143240 -0.728088085940561 0.6801148283174693
2152976 -0.7252685818809051 0.6810675199955758
2162712 -0.7219811294058149 0.6840226664560178
2172448 -0.7217136644169138 0.6858208924696978
2182184 -0.7183920867433267 0.6874342039687046
2191920 -0.7165545231390037 0.691721303302539
2201656 -0.7132783709185421 0.6941082910344621
2211392 -0.7102107169097978 0.6976539154287438
2221128 -0.7080485659689071 0.6981548539415176
2230864 -0.7057359832213055 0.7018626902537578
2240600 -0.7039315812013943 0.7034562392950152
2250336 -0.7011295602873372 0.7049089192834106
2260072 -0.698858764231275 0.7101889154869578
2269808 -0.6960439228653685 0.7112291735502451
2279544 -0.6935905532643178 0.7144030579477343
2289280 -0.6912238164399894 0.7163840673955443
2299016 -0.6879113118349575 0.7191158824631535
2308752 -0.6853555035724058 0.7216156466317332
2318488 -0.6837323533521398 0.7226036322515467
2328224 -0.6807725783871523 0.7268322408358503
2337960 -0.6769876163416662 0.728234450076544
2347696 -0.6750015589858904 0.7312929729970348
2357432 -0.6724900892064156 0.7326379478423682
2367168 -0.6695075070121677 0.7357922335324961
2376904 -0.6685271942374765 0.7388063161811239
2386640 -0.6645291768493709 0.7408891365915353
2396376 -0.6626402452948955 0.7434508671791034
2406112 -0.6587432044443589 0.7450506574529
2415848 -0.6562920662475313 0.7470306056772202
2425584 -0.6545813652418397 0.7506681883609203
2435320 -0.6516053035943297 0.7513155898604893
2445056 -0.6493218799585742 0.7554809222225748
2454792 -0.6457145578002578 0.7568097449557952
2464528 -0.6432055602160909 0.7589827118114719
2474264 -0.6400640892892381 0.7617424791252022
2484000 -0.6376516621901448 0.7638071889085741
2493736 -0.6347316609712113 0.7659995182097512
2503472 -0.6321772233326927 0.7677887697079367
2513208 -0.6293127721260531 0.770717948298016
2522944 -0.6269158336624352 0.772385468995858
2532680 -0.6244443511283493 0.7753455472110415
2542416 -0.6209598009738733 0.7770936358030475
2552152 -0.6198166621234771 0.7798363762822009
2561888 -0.6161598578509252 0.7802716947628614
2571624 -0.6127872684424108 0.7843232648624507
2581360 -0.6108952807645734 0.7856048029228168
2591096 -0.6055382642587801 0.7884824539317975
2600832 -0.6053413892805071 0.7908440258233436
2610568 -0.6009351286465427 0.7925893776141599
2620304 -0.5985692100749396 0.7957139192824174
2630040 -0.5951699276691284 0.7971918406831222
2639776 -0.5923604055913804 0.7996665866952809
2649512 -0.5898042914630683 0.8005579710278239
2659248 -0.5862613905789841 0.8029200228256799
2668984 -0.5840421702657653 0.8060706118011982
2678720 -0.5805474491661543 0.8079781642637778
2688456 -0.5784462530616395 0.8095915075799501
2698192 -0.5755303839181718 0.8115520493225971
2707928 -0.5712769354975228 0.8132869955025885
2717664 -0.5676605683014372 0.8155394851702346
2727400 -0.5653753523331846 0.8171943455271866
2737136 -0.564331398367967 0.8206367635423573
2746872 -0.5605904098231415 0.8220174855807142
2756608 -0.5571956503256996 0.8226701294242561
2766344 -0.5531000569693431 0.8248177195892045
2776080 -0.5508277953366504 0.8276370875928164
2785816 -0.5481856665786845 0.831116027675762
2795552 -0.545398027076835 0.8310891229075845
2805288 -0.5411691031752124 0.8333899128653854
2815024 -0.538543852071704 0.8354006981671888
2824760 -0.5356975122496667 0.8371726359390029
2834496 -0.5325793324130509 0.8405168827948993
2844232 -0.5287439238183542 0.8413864481757393
2853968 -0.5270788965674698 0.8435664263925228
2863704 -0.5239654438367426 0.8455662115022107
2873440 -0.5202571588006513 0.8470178595626078
2883176 -0.5165397465448539 0.8487074132325916
2892912 -0.5137193903786896 0.8504855821317437
2902648 -0.5111598516586469 0.8538351822784991
2912384 -0.5095748071411766 0.8543757577574148
2922120 -0.5056154767393596 0.8570892371178446
2931856 -0.5021299176135935 0.8576023496373714
2941592 -0.4992660887046595 0.8595244173236032
2951328 -0.4959658276213765 0.8632545822666171
2961064 -0.49289914195308093 0.863126267939523
2970800 -0.4891222950201217 0.8664617809847143
2980536 -0.4857097894606667 0.86807879254055
2990272 -0.48252504109637123 0.8685652854613221
3000008 -0.4823279847846273 0.8713407814738695
3009744 -0.47517289552794334 0.8729012912620677
3019480 -0.4727221180048036 0.8738899717116652
3029216 -0.46922806739555456 0.8766853383126156
3038952 -0.46571789307910627 0.8783248126463826
3048688 -0.46323306969156014 0.8795335570128425
3058424 -0.46015599943659913 0.8816790555661909
3068160 -0.4573353461766617 0.8815012344581554
3077896 -0.45302652267511323 0.8849026553398746
3087632 -0.45023774851871845 0.8868461623945247
3097368 -0.44698255606113285 0.8871370539218632
3107104 -0.4435148019184278 0.8900609462185611
3116840 -0.4411879724964155 0.8921344996938974
3126576 -0.43585258223894713 0.8926452054488286
3136312 -0.43334218881539166 0.895701863593132
3146048 -0.42973498242104663 0.8962391636291035
3155784 -0.42628742995380786 0.8978647031610882
3165520 -0.4236381922365642 0.899187208378036
3175256 -0.4200904864174907 0.9008944249301721
3184992 -0.41737630737421105 0.9025772895138018
3194728 -0.4138222697320118 0.9039634771467125
3204464 -0.4105132937576919 0.9058689812196736
3214200 -0.4069333401103427 0.9064754312338262
3223936 -0.4019143935753987 0.9086902778291299
3233672 -0.4012524861597899 0.9093352582429691
3243408 -0.39752856956093036 0.9111282101659676
3253144 -0.393726273535114 0.9131726652369445
3262880 -0.39006482750319077 0.9142842100516095
3272616 -0.3865161297420184 0.9165224047716176
3282352 -0.383500153587305 0.9172518354886845
3292088 -0.3789393303823928 0.9191910897118
3301824 -0.376379650920736 0.9207680826942778
3311560 -0.3719244691042857 0.9207268722835809
3321296 -0.36964897328830776 0.9234982889700425
3331032 -0.3660986450207117 0.9250776687629052
3340768 -0.3629655495260557 0.9251952896333555
3350504 -0.35951922696774974 0.9268871652009756
3360240 -0.35488366040552904 0.9279389825131313
3369976 -0.3514088342493245 0.9298009059591498
3379712 -0.3474425886338104 0.9298562720332693
3389448 -0.3448075682118201 0.9326114424226167
3399184 -0.34159373738639964 0.9320162733567234
3408920 -0.338724011947529 0.936401746502735
3418656 -0.33249420888075754 0.9355629613107872
3428392 -0.3309688285933911 0.9390255341720757
3438128 -0.3271599916354041 0.9378294522515338
3447864 -0.3223842394384639 0.9392427397759441
3457600 -0.32089020491920583 0.9408733904708497
3467336 -0.3164566784172733 0.9411226776347155
3477072 -0.31273953500563245 0.944750688252211
3486808 -0.30939520805855675 0.9441307761028315
3496544 -0.3055955506908926 0.9450869959412896
3506280 -0.30265642621413524 0.9464330355937676
3516016 -0.29916559000046644 0.9474536570273101
3525752 -0.2949500857626094 0.950695578960146
3535488 -0.2904604038861985 0.9493279543973905
3545224 -0.2873798468197653 0.9505454922222485
3554960 -0.28373806950489444 0.9522999002223749
3564696 -0.2804698331563339 0.9536976136372487
3574432 -0.27652609885705204 0.9554009805578013
3584168 -0.27350696127709256 0.9542106498114781
3593904 -0.2692114767012005 0.956084665365544
3603640 -0.2662911404536857 0.9586529683122335
3613376 -0.2617454367550138 0.9580382448140917
3623112 -0.2580447012582304 0.9595127119758671
3632848 -0.2549038869308159 0.9607506342595462
3642584 -0.25114524937734545 0.9614338306232066
3652320 -0.24699738017330775 0.9621746084529794
3662056 -0.24374764671568427 0.9625771868866698
3671792 -0.23986514321086116 0.9639594232811065
3681528 -0.23684747680158372 0.963909220314309
3691264 -0.23271969738862686 0.967055903949728
3701000 -0.22812248929495657 0.9653326729110763
3710736 -0.2246639898487821 0.9688387524593797
3720472 -0.22180281207219096 0.9668208655026048
3730208 -0.21751706166030296 0.9691607459782086
3739944 -0.2148128112582677 0.9706492889018326
3749680 -0.21026615304598711 0.9709607508887421
3759416 -0.20602979357350085 0.9727243402833539
3769152 -0.20309879805944805 0.9713552079501504
3778888 -0.19921381913285327 0.9726193843596224
3788624 -0.19691443710705844 0.9745333466075305
3798360 -0.19070060375831607 0.9748107006314265
3808096 -0.1882460202831677 0.9754027788113201
3817832 -0.1850835033382194 0.9745428005320738
3827568 -0.18013845266313522 0.977354327158815
3837304 -0.17705199689424478 0.9767785182891456
3847040 -0.17264533898461756 0.9784948685958751
3856776 -0.16853408287504631 0.9796591098898416
3866512 -0.16492648880861943 0.978777242650757
3876248 -0.1625587577522473 0.9817069369139255
3885984 -0.15661886225763252 0.9801301361337006
3895720 -0.15419463601424863 0.9812188204851175
3905456 -0.15055029386029936 0.9818979486774656
3915192 -0.1465365248372623 0.9816509992206737
3924928 -0.1424557528002274 0.9827138690588872
3934664 -0.13851999461596273 0.9831299774204398
3944400 -0.13438973092718842 0.9838880469232315
3954136 -0.13129024653972143 0.9848459340513314
3963872 -0.1269812571597129 0.9845148977337735
3973608 -0.12394459665132225 0.9852949684531224
3983344 -0.11919222894998927 0.9844196119118999
3993080 -0.11618035816447057 0.9866625602329584
4002816 -0.11185204946311234 0.9878594770313497
4012552 -0.10785460588150216 0.9867747059702329
4022288 -0.10485693888721856 0.9869991304551518
4032024 -0.10058354862343277 0.9884716141058127
4041760 -0.09614934172503635 0.9876935064700845
4051496 -0.09253348885868187 0.98873660721196
4061232 -0.0882593528748487 0.9891757691643537
4070968 -0.08545965954226145 0.9893410805274817
4080704 -0.08252551384851756 0.9913378503827345
4090440 -0.0770686115110014 0.9883556454176453
4100176 -0.07375160227245961 0.989552838240245
4109912 -0.07001629026348533 0.9903194294561479
4119648 -0.06612017518037633 0.990523240172132
4129384 -0.06272626198869488 0.9916387346512696
4139120 -0.05750207628466375 0.9916694252389096
4148856 -0.054540862132975924 0.9903926564374017
4158592 -0.04976715752814492 0.9905776868346876
4168328 -0.0456389707928918 0.9926271695491462
4178064 -0.04214806035945223 0.990702532740919
