# HZ S RI R 50
3000000 0.9567401029018827 -0.0009088071074315718 0.04011410221276675 0.0028959622207046436 0 0 0 0
3026419 0.960817249270171 -0.000992814260699594 0.04013688134776023 0.002938174951939992 0 0 0 0
3052838 0.9604914326180407 -0.0008904344930270991 0.04006405476186469 0.0029173474320432534 0 0 0 0
3079257 0.9600368033172192 -7.891973983397735e-05 0.04014399246510477 0.002964519597339191 0 0 0 0
3105676 0.9598618331992643 -0.00032954416368421416 0.04019510089636001 0.002910224774808922 0 0 0 0
3132095 0.9596077532577235 -0.0015729818834938124 0.040062435823625814 0.002857078579410822 0 0 0 0
3158514 0.9599205150359197 -0.00024747458167927183 0.0401400979704331 0.003017921873250149 0 0 0 0
3184933 0.9607791603605385 -0.0007635598933182897 0.04013377671322725 0.002906128669587102 0 0 0 0
3211352 0.9600357312654656 -0.0014988585096390524 0.04017373113553046 0.0028780950435163535 0 0 0 0
3237771 0.9598423343771787 -0.0007502196145351289 0.04015471375284121 0.002895863256646817 0 0 0 0
3264190 0.9602577274466978 -0.0001497860105423225 0.04006649603489265 0.0029825489367602967 0 0 0 0
3290609 0.9604421929866769 -0.001166393917719777 0.04014903724153216 0.002930308587633802 0 0 0 0
3317028 0.9599833359240962 -0.0017807225421385027 0.04016252334010593 0.0029690554479496673 0 0 0 0
3343447 0.9607080879575445 -0.0006815308776511878 0.04006397347916468 0.0028974715845360532 0 0 0 0
3369866 0.9597794021373947 -0.002028908269930073 0.04012199612087905 0.002989563065444881 0 0 0 0
3396285 0.9596874340976717 -0.0012581108518909764 0.04008728955868115 0.0029636243477160753 0 0 0 0
3422704 0.9597978532083956 -0.0011062886783721152 0.040139820236522135 0.002962690653222422 0 0 0 0
3449123 0.9596652268067472 -0.00014702003183080808 0.04012475057004056 0.003035080119997356 0 0 0 0
3475542 0.9596613580011498 -0.002080669735756461 0.040143452807468165 0.003004462101253386 0 0 0 0
3501961 0.9595846794986559 -0.0013467002573147393 0.04011431163154693 0.002965626411929113 0 0 0 0
3528380 0.9599818016463766 -0.0013269269193993873 0.04019229135136551 0.003020061761100125 0 0 0 0
3554799 0.9599487839855578 -0.0018174701551649946 0.04007620594524063 0.002940745253357001 0 0 0 0
3581218 0.9598798321945391 -0.0010469587917683678 0.04017595340070806 0.0029708066360228493 0 0 0 0
3607637 0.9598776819338517 -0.0011020809667155347 0.040014364708149106 0.003029112621089137 0 0 0 0
3634056 0.9608348241039383 -0.0007600442786308807 0.040127291073676415 0.0029400956843195956 0 0 0 0
3660475 0.9605972194449766 -0.0011482140493928982 0.04013860416963562 0.00305799480468832 0 0 0 0
3686894 0.9597567379786515 -0.001278262773300684 0.040111499894069036 0.0030445743369853836 0 0 0 0
3713313 0.9601013225021037 -0.0012891137123981014 0.04017004095414099 0.0030026924689902897 0 0 0 0
3739732 0.960484686291452 -0.0014114665460848337 0.040090438456452555 0.0029513463638727406 0 0 0 0
3766151 0.9599053742077939 -0.00144190945201978 0.04006181472729787 0.00297225778907628 0 0 0 0
3792570 0.9603028462894084 -0.0014043428700119245 0.04014566457720911 0.003020419268347892 0 0 0 0
3818989 0.9603288051641439 -0.001256012708693959 0.04022107528382598 0.0030067779428746425 0 0 0 0
3845408 0.9602669325922277 -0.0020869045707075534 0.04007781521210122 0.003022405375210851 0 0 0 0
3871827 0.9599896755489202 -0.0011149582069554782 0.04008191852271867 0.0030941412076699554 0 0 0 0
3898246 0.9609739544054097 -0.001133448600233626 0.040130222218381334 0.0030306658869464443 0 0 0 0
3924665 0.9608827531977175 -0.0011785497213964709 0.0401825502431278 0.002988535642275935 0 0 0 0
3951084 0.9597838106011163 -0.0013942711612708527 0.04008615828590341 0.003052454932220692 0 0 0 0
3977503 0.9594887677397755 -0.001309029703224128 0.04008200947929855 0.0029401564841847875 0 0 0 0
4003922 0.9601416488199773 -0.0014379320361921778 0.04009879610286465 0.003049662324027941 0 0 0 0
4030341 0.9603455536482938 -0.002176849842157549 0.04012633179635009 0.0029683930879425575 0 0 0 0
4056760 0.9595393463375312 -0.0007344257190882474 0.040081517504419475 0.0030435783302569827 0 0 0 0
4083179 0.9604702119202765 0.00013155818446374196 0.04014361096308927 0.0031111523534018562 0 0 0 0
4109598 0.9603704078223309 -0.0009910133118668258 0.04018018096534443 0.0030241001054034334 0 0 0 0
4136017 0.9601349038571774 -0.0009746279426390018 0.0401220736766004 0.003119082237390245 0 0 0 0
4162436 0.96043977892486 -0.0020520132788451554 0.040196030264222964 0.0030061028916744804 0 0 0 0
4188855 0.9600331305626127 -0.0005945090129652734 0.04010745688122918 0.0030844189240344525 0 0 0 0
4215274 0.9606042408889989 -0.0008518758886724934 0.0402089820419632 0.0030096127980912264 0 0 0 0
4241693 0.960352823341568 -0.0022983301440131876 0.04011745959969644 0.003106634907612755 0 0 0 0
4268112 0.960756458876628 -0.002136746155497946 0.04013442977315186 0.0030245845875378203 0 0 0 0
4294531 0.9596899276846762 -0.000857982161665201 0.04013606445600899 0.0030441803986948827 0 0 0 0
4320950 0.9606464807794988 -0.001804380490851934 0.04014999720335548 0.0029937566077441677 0 0 0 0
4347369 0.9605061359615622 -0.002440396759951644 0.04010240028118415 0.0030378094680411135 0 0 0 0
4373788 0.9591308633030723 -0.0007718495650472436 0.040096508050421184 0.003057113970776518 0 0 0 0
4400207 0.9602949211655307 -0.000835142919496901 0.04014017202627751 0.0030517717262929385 0 0 0 0
4426626 0.9604289229744581 -0.0026848429523560753 0.04012012033062952 0.0031002478978291795 0 0 0 0
4453045 0.9598784222048342 -0.0009213740332332204 0.04012629018291431 0.0030408613664958326 0 0 0 0
4479464 0.9600646841024532 -0.0011245131140794197 0.040171055819246106 0.0029870231773289533 0 0 0 0
4505883 0.9601134136789223 -0.0019960246495350164 0.04017290152980066 0.003077137724202317 0 0 0 0
4532302 0.9602578471699725 -0.002042840436733206 0.04011652036365643 0.0030598106038874765 0 0 0 0
4558721 0.9601478969940288 -0.0009624290235583374 0.04018796194870532 0.0030476310672700423 0 0 0 0
4585140 0.9597534633588961 -0.0018233312618143854 0.040144979561655504 0.003089824289502507 0 0 0 0
4611559 0.95983055875442 -0.0019326722930708886 0.04006232392602391 0.0030152556728252696 0 0 0 0
4637978 0.9591245851583617 -0.0005969684746554162 0.040194585631482684 0.003003994757544946 0 0 0 0
4664397 0.9602082705394182 -0.0009670891275761866 0.04010684735923971 0.002998170502937491 0 0 0 0
4690816 0.9599428621986408 -0.0009334970410850173 0.040094416274744075 0.003007105184835851 0 0 0 0
4717235 0.9604711771276172 -0.0015028296449808665 0.04019734164338116 0.003045904850360501 0 0 0 0
4743654 0.9604650134849786 -0.0032417890151757575 0.04013815367997074 0.003001779794664965 0 0 0 0
4770073 0.9595089767448055 -0.0010790973503913667 0.0401264463354014 0.0031087428137113616 0 0 0 0
4796492 0.9592801145930508 -0.0010090467318872528 0.0400904012526231 0.00304066573895718 0 0 0 0
4822911 0.9608142710801306 -0.0015863690273125364 0.04019629189723046 0.0030620232939575693 0 0 0 0
4849330 0.9601085342101234 -0.0013905699167345465 0.040192784645465794 0.0030347689774172723 0 0 0 0
4875749 0.960319619281934 -0.002935221868186994 0.0401095789496323 0.003133170160175479 0 0 0 0
4902168 0.95934276030475 -0.0012676806283979602 0.04013407759914235 0.003076648436315955 0 0 0 0
4928587 0.9589382943749616 -0.0010878414523418033 0.040114832257997675 0.0030884985009724886 0 0 0 0
4955006 0.9601447741248484 -0.002045082708636562 0.04004778232112093 0.003069381186674296 0 0 0 0
4981425 0.9601593832898808 -0.0026670580696843845 0.04008145664058858 0.003034824615781286 0 0 0 0
5007844 0.9598100107553985 -0.0009913295509869212 0.04020084887739527 0.003111819436913136 0 0 0 0
5034263 0.9605491059389345 -0.0010170974350465626 0.04014203720701029 0.0030004451185814823 0 0 0 0
5060682 0.9604924369586525 -0.000805432141808784 0.040101495854801175 0.0031570597948159303 0 0 0 0
5087101 0.9600631938939825 -0.00225526346187616 0.04016689065253268 0.0030215903512798414 0 0 0 0
5113520 0.9606591691111285 -0.0012151367054666665 0.040185295219810145 0.003154932910443888 0 0 0 0
5139939 0.9606276162991246 -0.002620386684151643 0.040143578509780106 0.0030948193793536834 0 0 0 0
5166358 0.9596237938359811 -0.002162816929776909 0.04015219698596059 0.003081022895965214 0 0 0 0
5192777 0.9601942594953915 -0.0010301771167338864 0.04010359591944235 0.0030868385539097364 0 0 0 0
5219196 0.9604814662666442 -0.0010778047595312913 0.04016998925138685 0.0031048078955095045 0 0 0 0
5245615 0.960258695711372 -0.002726676693469453 0.04011121590634081 0.003178313068264083 0 0 0 0
5272034 0.9597708120709036 -0.0019323809353504833 0.04010839907800522 0.0030978465968796625 0 0 0 0
5298453 0.960316559004428 -0.0012864782018616448 0.040120910741844505 0.00308146639546035 0 0 0 0
5324872 0.9602198559000829 -0.002392843532052929 0.04008733936609696 0.00322224981732581 0 0 0 0
5351291 0.9600763745710947 -0.002945277481590947 0.04005388598875737 0.0031811842105185922 0 0 0 0
5377710 0.9596400685600395 -0.0008714649439350412 0.0402100704654945 0.0030673343169248047 0 0 0 0
5404129 0.9599032027475148 -0.0008822016687137119 0.040149264762656976 0.0031015233731716734 0 0 0 0
5430548 0.960349133813861 -0.002723188822294245 0.040176034369190074 0.0031560763944400824 0 0 0 0
5456967 0.9602457238252373 -0.0028750864585094533 0.040136324261551566 0.0031515714195500125 0 0 0 0
5483386 0.9597693428669646 -0.0009499435278348344 0.040141746717912166 0.003135808379066239 0 0 0 0
5509805 0.9603991528504943 -0.001622889448881225 0.04014797044131842 0.003041839193689981 0 0 0 0
5536224 0.9599768672661463 -0.0017402211008467397 0.040217336094514854 0.00309078782586031 0 0 0 0
5562643 0.9599888519508103 -0.002469677997715328 0.040164915686560686 0.0030932996396056817 0 0 0 0
5589062 0.960144776691941 -0.0023703988688203977 0.04017688265718512 0.0031058696971820047 0 0 0 0
5615481 0.9598948408638165 -0.0015639528000780827 0.04021708991107907 0.0031060457180635418 0 0 0 0
5641900 0.9604453632237545 -0.0027844398884238567 0.040145831836802585 0.0031077013486719924 0 0 0 0
5668319 0.9593391793220656 -0.002449960758063954 0.04009986606335186 0.0030956115581080223 0 0 0 0
5694738 0.9602510446734458 -0.0013432281098637456 0.040199514247041206 0.0031958573226770026 0 0 0 0
5721157 0.9601069996827365 -0.001272905002355834 0.04013604982681855 0.0032005646310405466 0 0 0 0
5747576 0.9603419709680744 -0.0013497086482868923 0.040250506551782646 0.003125888161734404 0 0 0 0
5773995 0.9603131454041977 -0.003518264381191825 0.040198347184823686 0.0032031058278824804 0 0 0 0
5800414 0.9598518497244146 -0.0010660025058708432 0.040259713590486156 0.00310485658120858 0 0 0 0
5826833 0.9606711721837342 -0.0005901483572934255 0.040193127650217216 0.0032050184110936613 0 0 0 0
5853252 0.9603159451142529 -0.001533307489645887 0.04021390980993308 0.003116826310665243 0 0 0 0
5879671 0.959939336743885 -0.0013907243036435546 0.040122854311910094 0.0031045946347688595 0 0 0 0
5906090 0.9607438782576938 -0.00196148562179505 0.04009908068383924 0.003188268545552692 0 0 0 0
5932509 0.9594845586203441 -0.0017129738648426938 0.04024172278620481 0.0031917328632051324 0 0 0 0
5958928 0.9602499293649627 -0.002142721676114496 0.04013821507628362 0.003124510589633843 0 0 0 0
5985347 0.9599901045837885 -0.003610450157760357 0.0401106855691954 0.0031664822624975384 0 0 0 0
6011766 0.9599520375041072 -0.0020179599424513884 0.040120602058035665 0.003172933201878828 0 0 0 0
6038185 0.9604977881662861 -0.001724293072560081 0.040155308699528575 0.0031152287945681763 0 0 0 0
6064604 0.9601370290927751 -0.0027079306913724115 0.040106182761740876 0.0031589187845571295 0 0 0 0
6091023 0.9599364014328415 -0.0016156827389427163 0.040151488254962654 0.0031451923331200053 0 0 0 0
6117442 0.9600662464150888 -0.0014602888946275484 0.04023420925142434 0.003149682515442644 0 0 0 0
6143861 0.960657628681602 -0.002519194342597116 0.04012247103238674 0.0032070997218995533 0 0 0 0
6170280 0.9595476121755446 -0.0021047554943250542 0.04018697121249385 0.0032457675243636264 0 0 0 0
6196699 0.9598783614536426 -0.0014116540349869713 0.04009364063241763 0.0031997170137842805 0 0 0 0
6223118 0.9599436898786952 -0.0013236981773321818 0.04012894382238823 0.0031265159699100167 0 0 0 0
6249537 0.9593440870227034 -0.0015523742760636492 0.04017555893688423 0.003214475780524871 0 0 0 0
6275956 0.9607066651263658 -0.003057605602796435 0.04018190533089005 0.003211217034481522 0 0 0 0
6302375 0.9605054930556849 -0.00166602176350634 0.040194193812584454 0.0031638271826114005 0 0 0 0
6328794 0.9603056055835487 -0.0019700490486899923 0.04014056096873043 0.003224024732809352 0 0 0 0
6355213 0.9605044604406047 -0.0032571323833817663 0.04008550299586267 0.0031896119283650157 0 0 0 0
6381632 0.960570907392974 -0.002978879008589462 0.04009104025120898 0.0031544779847806747 0 0 0 0
6408051 0.9599984963573385 -0.0017846783401659018 0.0401858112048119 0.0031832028328302713 0 0 0 0
6434470 0.960443202382268 -0.0023871728484889635 0.040163983824497276 0.003158828416121118 0 0 0 0
6460889 0.9603739721831324 -0.002391810556834452 0.04019277763075771 0.0031732709152537345 0 0 0 0
6487308 0.9604582693268644 -0.00303307340445072 0.04011167136639738 0.0032615496591078237 0 0 0 0
6513727 0.9603492185851844 -0.002546086351965083 0.04018016210317752 0.0031825283290032825 0 0 0 0
6540146 0.9602607738113769 -0.001130955869862274 0.04026336159150068 0.003239185707779738 0 0 0 0
6566565 0.9602484136668971 -0.002781614834710036 0.040187956159526264 0.0031991013750798554 0 0 0 0
6592984 0.960162746466504 -0.002225183410483783 0.04012773792237 0.0032114066989024906 0 0 0 0
6619403 0.959119143551387 -0.002018456159467661 0.04012913341470602 0.0032002258427640306 0 0 0 0
6645822 0.959253259064289 -0.001173041127354516 0.04012081838368164 0.0031480976464834513 0 0 0 0
6672241 0.9602412369170483 -0.0029536005138433136 0.040128802428845686 0.0032506767211913775 0 0 0 0
6698660 0.9596615291916302 -0.0031855891932289367 0.04017251882229906 0.0032125600462482636 0 0 0 0
6725079 0.9595672655587418 -0.0013029291172460883 0.04020995589419822 0.003183033045341557 0 0 0 0
6751498 0.9593034947535372 -0.002871819803065771 0.04019892091750156 0.0031962902616908834 0 0 0 0
6777917 0.9599428966307041 -0.0030907982136422012 0.040182805683345285 0.003168419736960475 0 0 0 0
6804336 0.9598048059212521 -0.0029450326550150385 0.040135795041553575 0.003209469022187117 0 0 0 0
6830755 0.9597399174410968 -0.0021422666246676586 0.04012385955700358 0.0032448711292046954 0 0 0 0
6857174 0.9596589100814644 -0.0008954127020872443 0.040163255822421966 0.0032069591724793265 0 0 0 0
6883593 0.9598164485438088 -0.0021116554892015925 0.040182300843070735 0.0030523277152226763 0 0 0 0
6910012 0.9595559763197886 -0.0019467713495987294 0.04013256391930404 0.0032953274075774525 0 0 0 0
6936431 0.9599620819839806 -0.0017936212698313027 0.04020104218382927 0.003262309052187184 0 0 0 0
6962850 0.9605098467799792 -0.0030521974048186937 0.040109065090240086 0.0032418503784525194 0 0 0 0
6989269 0.9598573326841776 -0.002748930645810278 0.04011561833891781 0.0033055441342838615 0 0 0 0
7015688 0.9599423916126121 -0.0022734066372153906 0.04014311516380709 0.003280347687150069 0 0 0 0
7042107 0.9605239429097772 -0.0020543337516378346 0.0401690800011309 0.003132944800971065 0 0 0 0
7068526 0.9602982326684508 -0.0028136824291377645 0.040132927017509756 0.003289788505427383 0 0 0 0
7094945 0.9602497147509911 -0.0024922245861672687 0.04012264221671722 0.00325097091160199 0 0 0 0
7121364 0.9609389128549921 -0.002420382996378474 0.040193679958458614 0.0032386658081198757 0 0 0 0
7147783 0.9599479761947053 -0.003513165099332796 0.04015050981496578 0.0032084674662384892 0 0 0 0
7174202 0.9595726940534849 -0.0031843421974348278 0.04016275067648832 0.003312552861233815 0 0 0 0
7200621 0.960765763934687 -0.0025100550918460258 0.040162229382101636 0.003207097298988882 0 0 0 0
7227040 0.9599576381094048 -0.002093513984177463 0.040187905836581286 0.0032659643999280097 0 0 0 0
7253459 0.9612261278864705 -0.002214050784517873 0.040205714127360584 0.0032191649460197756 0 0 0 0
7279878 0.9601370763989623 -0.0035595370761065982 0.040146908792090395 0.003192901253216052 0 0 0 0
7306297 0.9596617401663669 -0.0026006244996270703 0.0401111419927249 0.0032454079914523122 0 0 0 0
7332716 0.9599395348212392 -0.0033435011718508383 0.04013007716656547 0.0032101192879011925 0 0 0 0
7359135 0.9601148343697491 -0.0027482974767415284 0.040152646648119086 0.0033142448577684665 0 0 0 0
7385554 0.9599799724665579 -0.0011501399662736775 0.040239414226517195 0.0031908217515515085 0 0 0 0
7411973 0.9599822575335291 -0.00310009705242269 0.04024540401021279 0.0031908863826368558 0 0 0 0
7438392 0.9602837834697603 -0.003293001080750317 0.04022295342855205 0.003297904903268518 0 0 0 0
7464811 0.9604742676358679 -0.0030848726860450556 0.04016943015011679 0.003199500185879468 0 0 0 0
7491230 0.9602127147122411 -0.0019042667975778175 0.04018459422139855 0.0032367871578168166 0 0 0 0
7517649 0.960346368510581 -0.002444203104875065 0.04015375187017454 0.0032482331257173485 0 0 0 0
7544068 0.9602028096471986 -0.0025607624686433883 0.04016911572018787 0.003279137124234984 0 0 0 0
7570487 0.9593892849977754 -0.002195604061351943 0.04018500288458212 0.0032585153233245573 0 0 0 0
7596906 0.9594026810002361 -0.0016809156255135952 0.04018669453645802 0.003249961288306645 0 0 0 0
7623325 0.959767115019332 -0.0034229652919512887 0.04015639565284431 0.0031219849534082126 0 0 0 0
7649744 0.9595348019569493 -0.00359126032388316 0.040183543955669206 0.0031585687366186754 0 0 0 0
7676163 0.9603206440360176 -0.0031252693300071713 0.04017331388905145 0.0032623157452423613 0 0 0 0
7702582 0.9603570692228078 -0.001955953811313055 0.04028295882969007 0.003367108437799019 0 0 0 0
7729001 0.9603842045882884 -0.0025929503421930505 0.04019646598481153 0.0032907110443185666 0 0 0 0
7755420 0.9607457978253663 -0.00207185217099202 0.04017765568265039 0.003224137194190668 0 0 0 0
7781839 0.9605199564183469 -0.001886487498413669 0.040192414293624704 0.003243777954930592 0 0 0 0
7808258 0.9601873701446545 -0.003333362800008682 0.04019537872603159 0.003203471947237116 0 0 0 0
7834677 0.9607719438321514 -0.003418387407430676 0.04014765243950784 0.0032918370052852372 0 0 0 0
7861096 0.9597050175905024 -0.0033344342327974318 0.04017677895806799 0.003237618169085149 0 0 0 0
7887515 0.9605944851194398 -0.0024840715796198747 0.04020314130090493 0.003274926861223233 0 0 0 0
7913934 0.9605629362707594 -0.002985954685956981 0.04014539617455923 0.0032717191725467713 0 0 0 0
7940353 0.9605851141812742 -0.0023604317073564612 0.04017975844680312 0.003196026367733272 0 0 0 0
7966772 0.960134752902353 -0.0032644747242871904 0.040139242952625186 0.003229809417831001 0 0 0 0
7993191 0.9597877387151681 -0.002497994579118939 0.04022506087074373 0.0032619603850933265 0 0 0 0
8019610 0.9600448203564219 -0.002056612509701564 0.04022918188494987 0.003337014139478777 0 0 0 0
8046029 0.9601709981658494 -0.0014986904112334275 0.04012854579090118 0.0032470467068670397 0 0 0 0
8072448 0.960338476671293 -0.003223290125699519 0.04020827813739086 0.0032573993433783564 0 0 0 0
8098867 0.9602436846799807 -0.0035365152578919856 0.04017287078842746 0.0032252634347681207 0 0 0 0
8125286 0.9595081871061573 -0.0026304461700449463 0.04015236939610376 0.0032766496708404344 0 0 0 0
8151705 0.9602554724258904 -0.0014621295128277299 0.04023233955372383 0.0032226517101920467 0 0 0 0
8178124 0.9612030384146718 -0.0037696193190014018 0.04022355926848985 0.003265446419758687 0 0 0 0
8204543 0.9595116134089334 -0.0024768979954558307 0.040119772797501264 0.0033203717037580726 0 0 0 0
8230962 0.9598233148183116 -0.002267269076041619 0.04019980168303349 0.0032323815157850122 0 0 0 0
8257381 0.959733182382711 -0.0030791722454311015 0.04014335390327159 0.003308079919208346 0 0 0 0
8283800 0.9608866144351017 -0.003862503203651414 0.04023548904178352 0.003290915287586003 0 0 0 0
