# HZ S RI R 50
3000000 -0.9242821071682449 0.2717273477563784 -0.007551171774224156 -0.036293811478830686 0 0 0 0
3026419 -0.9223947932909189 0.27436407617920955 -0.007671824463413564 -0.036587519166314565 0 0 0 0
3052838 -0.9226555654308656 0.27724170350800276 -0.007915938508849122 -0.036908995195025274 0 0 0 0
3079257 -0.9197663081782179 0.27698451161748705 -0.00788451510488646 -0.03712875230017995 0 0 0 0
3105676 -0.9182941667767223 0.2796123374985145 -0.008188268216615207 -0.037436781276416226 0 0 0 0
3132095 -0.9168514534700258 0.2828482686920686 -0.008341518734668495 -0.037681137703527615 0 0 0 0
3158514 -0.9155462548254407 0.28556727219174516 -0.008401288062776017 -0.038022227576784 0 0 0 0
3184933 -0.9147650314311452 0.2876262526895979 -0.00861340285784994 -0.03833463760880975 0 0 0 0
3211352 -0.912652567336381 0.2892639184648928 -0.008898071688787364 -0.038638484152958355 0 0 0 0
3237771 -0.9121008387992405 0.29153933435821594 -0.00900972957184388 -0.03884371651074103 0 0 0 0
3264190 -0.9113397280553266 0.2937052045070457 -0.009168128887910321 -0.03921990420032214 0 0 0 0
3290609 -0.9096710238143536 0.2968960549461446 -0.009346448754924252 -0.03948147046190303 0 0 0 0
3317028 -0.9065977323477844 0.2976817477401199 -0.009556973075970535 -0.03973630814210156 0 0 0 0
3343447 -0.9068507245849227 0.3006519500362716 -0.009713276315607977 -0.03988611160373794 0 0 0 0
3369866 -0.9057137198625889 0.3014557403310939 -0.009692629477605887 -0.0402019250102232 0 0 0 0
3396285 -0.9040723478557159 0.30297494088107657 -0.009988140667272638 -0.04057632838975601 0 0 0 0
3422704 -0.9033926172666537 0.30654686975362583 -0.01021326029562248 -0.04095208372596712 0 0 0 0
3449123 -0.9007348475810544 0.3068035799476846 -0.010193415448907285 -0.041099365671061414 0 0 0 0
3475542 -0.898917165489593 0.3096168199644304 -0.010465724384687665 -0.041446614397358555 0 0 0 0
3501961 -0.8997619801317637 0.3116731208713292 -0.010676918943903454 -0.04174361518794057 0 0 0 0
3528380 -0.897820661407142 0.31369210446157897 -0.011011872248355111 -0.04209316430016346 0 0 0 0
3554799 -0.8957676876083908 0.31365288037833144 -0.011027171890643213 -0.04225926074996816 0 0 0 0
3581218 -0.8932820083955119 0.31703026689442104 -0.011070333316331662 -0.04248760037967374 0 0 0 0
3607637 -0.892046503583245 0.31955449166614 -0.01132282144934977 -0.04280105880048938 0 0 0 0
3634056 -0.8914245356055283 0.3216626704051823 -0.011631483373788425 -0.0430628336066881 0 0 0 0
3660475 -0.8898923273575164 0.32387178912761033 -0.01175546277695724 -0.0433156859217016 0 0 0 0
3686894 -0.8884182448985664 0.32525363983449146 -0.011930022413484218 -0.04357094366889113 0 0 0 0
3713313 -0.8864413832268747 0.3268997121379864 -0.012143426860525964 -0.043815486416489115 0 0 0 0
3739732 -0.8857034039404537 0.3298285692830597 -0.01235530399929375 -0.044166838076361375 0 0 0 0
3766151 -0.8836069972153606 0.33046721852665784 -0.012471397779848254 -0.044264689573709264 0 0 0 0
3792570 -0.8816699332314573 0.3336714222878888 -0.012805400811377923 -0.04464547362618407 0 0 0 0
3818989 -0.8815372868726397 0.33557350220990817 -0.012962378831259485 -0.045049301972967075 0 0 0 0
3845408 -0.8779754833366972 0.3364151159028106 -0.013010025954618351 -0.04517552516530713 0 0 0 0
3871827 -0.8772018481351084 0.33855057799383875 -0.013246231434805815 -0.04542449071085982 0 0 0 0
3898246 -0.8763666514990253 0.3411642730419384 -0.013590334021663437 -0.045682947763656986 0 0 0 0
3924665 -0.8752762812295808 0.34319306132191746 -0.013734194738571603 -0.045981402017504815 0 0 0 0
3951084 -0.8725975965634756 0.3449169298138888 -0.013844309107817627 -0.04622613516927661 0 0 0 0
3977503 -0.8707799546131201 0.34580382201695625 -0.014024641507075188 -0.04645741986288542 0 0 0 0
4003922 -0.8700949074469844 0.3494277698843238 -0.01428242999760025 -0.046682962905467036 0 0 0 0
4030341 -0.867221085298044 0.3502767032945132 -0.014416483307271143 -0.046972940835625025 0 0 0 0
4056760 -0.865705882658969 0.35191486389367116 -0.014650023567317327 -0.04727355732588275 0 0 0 0
4083179 -0.8648485912001809 0.35439888546734155 -0.014875162386487496 -0.047467668753390695 0 0 0 0
4109598 -0.8633737315563618 0.3558877448206175 -0.015170605828191134 -0.04776434914669046 0 0 0 0
4136017 -0.8618556853316307 0.3573996511217348 -0.015397917647907208 -0.04806150666966448 0 0 0 0
4162436 -0.8589689350806093 0.35952525373615996 -0.015476242958725624 -0.04817998507620881 0 0 0 0
4188855 -0.8575398667136768 0.36138263702492185 -0.015757806419131375 -0.04848872411003022 0 0 0 0
4215274 -0.8569510628620053 0.3650739254298442 -0.01605311166399907 -0.048717021068820754 0 0 0 0
4241693 -0.8547388097552431 0.36444630401769085 -0.016091081507223957 -0.04902552328956294 0 0 0 0
4268112 -0.8527990272545612 0.36578992377059544 -0.016252466650943015 -0.049215138820380956 0 0 0 0
4294531 -0.8505013885741518 0.3689641494245166 -0.016640171449528306 -0.04943329294903097 0 0 0 0
4320950 -0.8501863529628014 0.37075494466524794 -0.016809100223417254 -0.049751853593257025 0 0 0 0
4347369 -0.847797266276096 0.37151855425709 -0.016979642106089446 -0.05002832399837404 0 0 0 0
4373788 -0.8452734236538294 0.37313817945699224 -0.017168684659449054 -0.05020584936613231 0 0 0 0
4400207 -0.8447900612690414 0.37593220667702826 -0.017385304815809802 -0.05048643682597434 0 0 0 0
4426626 -0.8422108756698593 0.37667511486488503 -0.01753028166915403 -0.05072714095316297 0 0 0 0
4453045 -0.8412235388173037 0.3791696056536781 -0.01787593055499827 -0.050973492478013 0 0 0 0
4479464 -0.8390229659112483 0.3819561262078894 -0.018155399330014046 -0.051208777940007756 0 0 0 0
4505883 -0.8383842864914394 0.3819440488188457 -0.018341920973104185 -0.05145500072341838 0 0 0 0
4532302 -0.8363782042114132 0.38313816304727377 -0.0183780731519751 -0.051648129164568804 0 0 0 0
4558721 -0.8337994137977373 0.38556401854730227 -0.01867981047422262 -0.05191504545646476 0 0 0 0
4585140 -0.8319611861270004 0.38897000027696294 -0.019037223031104732 -0.05214351502722793 0 0 0 0
4611559 -0.8296143331994216 0.38919801976183244 -0.01925761685045803 -0.05218194942399518 0 0 0 0
4637978 -0.8283205899891648 0.39005813752650986 -0.01959044570552181 -0.05258654185714523 0 0 0 0
4664397 -0.8254741186322959 0.39314923295672166 -0.019566005411320822 -0.05276861890779098 0 0 0 0
4690816 -0.824632724932407 0.39428274765664423 -0.01977179331122513 -0.053109853453647514 0 0 0 0
4717235 -0.8234639673189605 0.39674433327891817 -0.020066775904639258 -0.05337797140600975 0 0 0 0
4743654 -0.8204025868676276 0.39842141433643125 -0.020419475333591768 -0.053473514389478755 0 0 0 0
4770073 -0.8198751498389406 0.3990818192319313 -0.020525284749352557 -0.05365970679537011 0 0 0 0
4796492 -0.8177367620285655 0.40107161985367373 -0.020845502579838193 -0.05397213011226943 0 0 0 0
4822911 -0.8161593129896744 0.40263763049374107 -0.021077011842941876 -0.05416036667808456 0 0 0 0
4849330 -0.8141169949567862 0.4042063045645797 -0.021261962025022847 -0.05443925344654408 0 0 0 0
4875749 -0.8116277973819422 0.40645254766124883 -0.021569208120996226 -0.05448342076752877 0 0 0 0
4902168 -0.8100240287686358 0.40717401491466493 -0.021717480523040667 -0.05489716786875594 0 0 0 0
4928587 -0.8081896727192392 0.4077752347215857 -0.021991079010096157 -0.05514232998858083 0 0 0 0
4955006 -0.8059857206353181 0.411188060817059 -0.022131985672953422 -0.0551754785880172 0 0 0 0
4981425 -0.804159095895635 0.4126629637909082 -0.02251391649941402 -0.055376192182660246 0 0 0 0
5007844 -0.8031750092481865 0.41340592315821106 -0.022740413861705583 -0.05571137848067417 0 0 0 0
5034263 -0.8007041515847373 0.4156760786709774 -0.022953892813678732 -0.05585840542125376 0 0 0 0
5060682 -0.7989595855567811 0.41673585049815404 -0.023268514203001994 -0.05611909771917564 0 0 0 0
5087101 -0.796459493991284 0.41864873021751664 -0.023372030125002205 -0.05638554949210269 0 0 0 0
5113520 -0.7949196938781662 0.419849455984711 -0.023719118130271426 -0.05667632657860781 0 0 0 0
5139939 -0.7940514668388328 0.4204412298673231 -0.023928601527755406 -0.05688979423250942 0 0 0 0
5166358 -0.7906728944943333 0.4236012676372943 -0.024214788780414935 -0.05703770264704316 0 0 0 0
5192777 -0.788717541184041 0.42244321189845974 -0.024399207987648587 -0.05720932387803171 0 0 0 0
5219196 -0.787102469267429 0.42600777180342475 -0.024653131740532457 -0.05749254251592698 0 0 0 0
5245615 -0.785986548163958 0.4276100952765705 -0.024911199261155013 -0.05760397202707653 0 0 0 0
5272034 -0.7830095914829922 0.42844838169011007 -0.025193185648732956 -0.05766919840218291 0 0 0 0
5298453 -0.7814459706125857 0.42932987825794744 -0.025411614078528422 -0.058026166077372245 0 0 0 0
5324872 -0.7800948931058082 0.43048726423677475 -0.025652739631018877 -0.058071168096090274 0 0 0 0
5351291 -0.7769851706872934 0.43167426638626955 -0.02588959671942466 -0.058369209039163907 0 0 0 0
5377710 -0.7755244191974943 0.43382311842877336 -0.026209633903649977 -0.05861174602132682 0 0 0 0
5404129 -0.7747954263930555 0.43432041343030936 -0.026429434905963008 -0.05880917653261845 0 0 0 0
5430548 -0.7718009430980299 0.4372164746295817 -0.02670302365597367 -0.05901579140950722 0 0 0 0
5456967 -0.7689943404721461 0.4367160092097691 -0.027014067570485578 -0.05911636503056439 0 0 0 0
5483386 -0.7678859228717902 0.43951748652083633 -0.02719234551008038 -0.059408828537759445 0 0 0 0
5509805 -0.766540156230268 0.440312417748999 -0.027399394229200562 -0.05959915390469864 0 0 0 0
5536224 -0.7651965784445788 0.4415205166917315 -0.02781246679217418 -0.05983178887619732 0 0 0 0
5562643 -0.7620080216957761 0.44335524184659186 -0.02792998306209718 -0.05992204218426248 0 0 0 0
5589062 -0.759289661383629 0.44527699689233224 -0.02828212709148493 -0.060256256007657334 0 0 0 0
5615481 -0.7581839305570051 0.4464118381508827 -0.028491049468101548 -0.06036478860946442 0 0 0 0
5641900 -0.7560506931997685 0.44750459815983307 -0.02890571052301192 -0.06058590299879512 0 0 0 0
5668319 -0.7528605387407945 0.4481925004183102 -0.029069158656820436 -0.06054563093921554 0 0 0 0
5694738 -0.7522926584951861 0.45091166060147847 -0.02954669928267242 -0.06093932083579855 0 0 0 0
5721157 -0.7499614835697864 0.452970421293266 -0.029800670399934233 -0.06121177400253794 0 0 0 0
5747576 -0.7484845254889727 0.4528514338015544 -0.029961710368920952 -0.06124994794336097 0 0 0 0
5773995 -0.7452146731509255 0.45319508342465287 -0.030014920527968728 -0.061426409118150255 0 0 0 0
5800414 -0.7432408976197509 0.45532469307606194 -0.03038445995990706 -0.061590132670102604 0 0 0 0
5826833 -0.7417950113320164 0.4565356334384533 -0.030730861354505055 -0.06179670463631845 0 0 0 0
5853252 -0.7398310641972211 0.45755938566476567 -0.031031265842467484 -0.06199153308882548 0 0 0 0
5879671 -0.7384109230368029 0.4585392233585174 -0.03128416951348899 -0.06226763487227861 0 0 0 0
5906090 -0.7354642321077154 0.46032114740733193 -0.03319371316952954 -0.06195919146753181 0 0 0 0
5932509 -0.7323399499263953 0.4603690030945902 -0.033329675825495286 -0.062315485777364406 0 0 0 0
5958928 -0.7305353466802159 0.4629427478062527 -0.033823762875622505 -0.06234072085835201 0 0 0 0
5985347 -0.7290983989035522 0.46378473892654853 -0.03406614246384107 -0.06263313660674809 0 0 0 0
6011766 -0.7267219734153303 0.46467670649093734 -0.03434643297741466 -0.06288230353765181 0 0 0 0
6038185 -0.7248812070853573 0.46644544119735404 -0.03464291335795322 -0.0628845878629613 0 0 0 0
6064604 -0.7234055781129055 0.4660060222681411 -0.03493383626483249 -0.06313947775149205 0 0 0 0
6091023 -0.7206467777114488 0.4676239327836642 -0.03523947066689941 -0.06325992737810758 0 0 0 0
6117442 -0.7180283843663346 0.46952485418675727 -0.03550969967440275 -0.06351588718007016 0 0 0 0
6143861 -0.7163068695709233 0.4694612351355932 -0.03564684311974028 -0.06353612128016352 0 0 0 0
6170280 -0.7128054589946424 0.47080280110986816 -0.035931573622025696 -0.06377409050582272 0 0 0 0
6196699 -0.7114559118952427 0.47283724496550855 -0.036437957643006974 -0.06388302065663892 0 0 0 0
6223118 -0.709932806552209 0.47219052188661614 -0.03659177316065301 -0.06405464517910321 0 0 0 0
6249537 -0.7085935800273891 0.47462870344526314 -0.03705360671525069 -0.06426100966363905 0 0 0 0
6275956 -0.7057958495747124 0.4756777532916928 -0.03724104147394896 -0.06444261500998458 0 0 0 0
6302375 -0.7038829144310991 0.4761350788482177 -0.037516424817850745 -0.06456577083187441 0 0 0 0
6328794 -0.7019807833246378 0.4789791358769237 -0.03795310578983117 -0.06473011587376129 0 0 0 0
6355213 -0.7005369327045251 0.47918804118688496 -0.037932015877936674 -0.06478041369389846 0 0 0 0
6381632 -0.6977517109143622 0.4794519669861372 -0.03840448589567523 -0.06499337442468646 0 0 0 0
6408051 -0.6945834127161442 0.48113895883398794 -0.0387532047920682 -0.06512677125628086 0 0 0 0
6434470 -0.6935727836468669 0.48204693345391336 -0.0391050635992727 -0.06539010633623175 0 0 0 0
6460889 -0.6916357408121243 0.4835581206882002 -0.03941999217726473 -0.06530270784625981 0 0 0 0
6487308 -0.6899398190508899 0.48346224254411435 -0.03945439862346517 -0.06552205946375547 0 0 0 0
6513727 -0.6864274827661844 0.48479660272817493 -0.03983536331154821 -0.06562583826895552 0 0 0 0
6540146 -0.6844223314147139 0.48569206288673566 -0.04010119901481916 -0.06587115236524675 0 0 0 0
6566565 -0.6835146636372386 0.4858496080964842 -0.040327231927506264 -0.06608673124709483 0 0 0 0
6592984 -0.6800241423366072 0.4882285744168432 -0.04068721452102614 -0.06611841932569412 0 0 0 0
6619403 -0.677755317928761 0.48833850482024627 -0.04095803579597664 -0.0662841343242433 0 0 0 0
6645822 -0.675299293482638 0.4894558124976798 -0.04143675816056161 -0.06626704636038136 0 0 0 0
6672241 -0.672584621645333 0.4909541241850147 -0.04161994632643108 -0.0664120853701225 0 0 0 0
6698660 -0.6709382705329777 0.4914622741815654 -0.04199954571248054 -0.06652932895630082 0 0 0 0
6725079 -0.6686563233747098 0.4920212512428057 -0.04221372643545877 -0.06675722833206181 0 0 0 0
6751498 -0.6678283319860049 0.49349840658315 -0.04266106426194849 -0.06700741789698134 0 0 0 0
6777917 -0.6661957538868857 0.49406104805836054 -0.04281447334836688 -0.06688852897945273 0 0 0 0
6804336 -0.6638019774044015 0.4954879009606467 -0.04310262174037672 -0.06718913715675397 0 0 0 0
6830755 -0.6600535377199177 0.49611685051632637 -0.04328542473879833 -0.06706571498551905 0 0 0 0
6857174 -0.6575664614199511 0.4963789461789258 -0.043657371886155344 -0.06733646496584512 0 0 0 0
6883593 -0.6569282315226666 0.4974312940802503 -0.04414453822977433 -0.06752613825083575 0 0 0 0
6910012 -0.6535815679049226 0.49800019266179646 -0.04428960489574013 -0.06769802276749819 0 0 0 0
6936431 -0.6508948530869527 0.4984665429678513 -0.044485861357542365 -0.06772834293155322 0 0 0 0
6962850 -0.6502566572654561 0.4992086250062747 -0.04506686336162681 -0.0676967871523013 0 0 0 0
6989269 -0.6482235421074888 0.5007522146416801 -0.04544555689809686 -0.06792987750833734 0 0 0 0
7015688 -0.643949295540591 0.5019612520330993 -0.045586800703477946 -0.067891948424304 0 0 0 0
7042107 -0.642805216527723 0.5022318427353533 -0.04583749658061955 -0.06827417067684043 0 0 0 0
7068526 -0.6410786079669571 0.502551743049297 -0.046204465379678594 -0.06825834805820165 0 0 0 0
7094945 -0.6377317740228485 0.5036045808035294 -0.04644820940840105 -0.06843047411987137 0 0 0 0
7121364 -0.6353110660883978 0.5031039260464578 -0.04657315315964476 -0.06840206851444942 0 0 0 0
7147783 -0.6341699157006581 0.5048380426275384 -0.047080388341860235 -0.0685475103315666 0 0 0 0
7174202 -0.6312327914309117 0.5055357314708346 -0.04743128038561678 -0.06877300976723814 0 0 0 0
7200621 -0.6286996059295844 0.5071254645683895 -0.047721003043908895 -0.06867953637324924 0 0 0 0
7227040 -0.6266708379500955 0.5071567389633093 -0.047863421713535845 -0.06896828298712308 0 0 0 0
7253459 -0.6241183655374987 0.5073352711663273 -0.04833905622579233 -0.06891156891709525 0 0 0 0
7279878 -0.6233764335614275 0.5084831600258142 -0.04871155194812059 -0.06916475394749326 0 0 0 0
7306297 -0.6215498313884192 0.5092276524340646 -0.04883762217668551 -0.06928585839201558 0 0 0 0
7332716 -0.6190888113759437 0.5093578560505487 -0.0491991058710469 -0.06928017175437465 0 0 0 0
7359135 -0.6158858481787624 0.5102576813413273 -0.04957897033950364 -0.06925871824723259 0 0 0 0
7385554 -0.6135962912996191 0.510057697931181 -0.049784225457600396 -0.06934448531876165 0 0 0 0
7411973 -0.6108374996585441 0.5109307448453881 -0.05020468939224185 -0.06953625021988646 0 0 0 0
7438392 -0.610363054373648 0.5118141817793918 -0.050433702276566135 -0.06987311550881069 0 0 0 0
7464811 -0.6061983875023216 0.5129121285397257 -0.05083770386002222 -0.06958651269586465 0 0 0 0
7491230 -0.6044751370828699 0.5127891022099282 -0.05109358093765484 -0.06977326337072534 0 0 0 0
7517649 -0.6029605933833032 0.5136436945596748 -0.05153468038712676 -0.0699716298900569 0 0 0 0
7544068 -0.6003432758586342 0.514268856802499 -0.051810019681986785 -0.07006924142600104 0 0 0 0
7570487 -0.5975388578309682 0.5146136677054718 -0.05193694434679716 -0.07009364599935436 0 0 0 0
7596906 -0.5953796871908659 0.5158906657835003 -0.0523663984619036 -0.07022729228621327 0 0 0 0
7623325 -0.593357611495669 0.5158134035120943 -0.05248959544636969 -0.07028025369057604 0 0 0 0
7649744 -0.590924132726373 0.5171451854949545 -0.052969050486668 -0.0703708796673441 0 0 0 0
7676163 -0.5894389761879455 0.5165593025148738 -0.05341352540325267 -0.07039064521637517 0 0 0 0
7702582 -0.587095917900218 0.5178054121279376 -0.053527445155355916 -0.07078890139752411 0 0 0 0
7729001 -0.583264085754389 0.5183559391849315 -0.05394369971669177 -0.07041895176381012 0 0 0 0
7755420 -0.5818266800072467 0.517826648982219 -0.05422985206117879 -0.07054368357124415 0 0 0 0
7781839 -0.5796866030763183 0.5180743256537118 -0.05444368828884554 -0.07058890074309454 0 0 0 0
7808258 -0.5783543563292517 0.5189825751649383 -0.054718683497368144 -0.07075814847727505 0 0 0 0
7834677 -0.5746523616005955 0.519163153290639 -0.055191908229235115 -0.07076651073146184 0 0 0 0
7861096 -0.5727706573071543 0.5204728681704146 -0.055457885549564455 -0.07076685025620474 0 0 0 0
7887515 -0.570549277521752 0.520386406990167 -0.05588076302132281 -0.07091932364544175 0 0 0 0
7913934 -0.5686288560871829 0.5199381745125986 -0.05612203905896677 -0.07097447657265592 0 0 0 0
7940353 -0.5665995153342729 0.5205147466732863 -0.05645624527936633 -0.07102676767134583 0 0 0 0
7966772 -0.5640000914665021 0.5218278797957265 -0.056696482595366623 -0.07130875455467377 0 0 0 0
7993191 -0.5614912377729411 0.5224711409023092 -0.05682546678641207 -0.07112428303823624 0 0 0 0
8019610 -0.5591352018612473 0.5219925984868746 -0.0573900512690293 -0.07122655802733609 0 0 0 0
8046029 -0.5572221788070233 0.5222267848427466 -0.05755457872263417 -0.07135014674261117 0 0 0 0
8072448 -0.5555097183985004 0.5231896129940338 -0.05802802141397111 -0.07125311182564988 0 0 0 0
8098867 -0.5532695797177478 0.5235478971567945 -0.05817468402324498 -0.07144176992529803 0 0 0 0
8125286 -0.5501809940862487 0.5238124154042698 -0.058813442013977965 -0.07129166557049448 0 0 0 0
8151705 -0.5478683764139718 0.523279592994855 -0.05890705641891531 -0.07146351289132531 0 0 0 0
8178124 -0.5465014369332157 0.5242743125338581 -0.05917901839199828 -0.07174680377910056 0 0 0 0
8204543 -0.54329237240539 0.5253592740210422 -0.059608391497843735 -0.07156317594351101 0 0 0 0
8230962 -0.5412909227529458 0.52509726706368 -0.05976723798151886 -0.07155187216503099 0 0 0 0
8257381 -0.5388294752581778 0.525020848217879 -0.06026024466765883 -0.07167559181668198 0 0 0 0
8283800 -0.5370707664500435 0.5262663157431803 -0.06042396602050946 -0.07173318079692324 0 0 0 0
8310219 -0.5345019318793068 0.5259092743862085 -0.06084188378810197 -0.07159812975785367 0 0 0 0
8336638 -0.5317336656011369 0.5259119011892732 -0.06116884307358403 -0.07175052713247976 0 0 0 0
8363057 -0.5295737651092376 0.5263707086694399 -0.06144017512023197 -0.07189429474408773 0 0 0 0
