# HZ S RI R 50
50000 -0.9995091747692997 0.0010384221678087107
74413 -1.0041200452707557 -0.0034325652520695864
98826 -0.9736410763743555 0.00489946567693518
123239 -0.9862963545342865 0.023772874226414317
147652 -1.0008216399613432 0.0002853180913067524
172065 -0.998684717432156 0.0020943230307941115
196478 -1.0000478591260342 0.0019570434489658284
220891 -0.9992132344185432 0.0017429385365773152
245304 -1.0018681488611727 0.0014355623672749477
269717 -1.021665575167388 -0.0037591157099033535
294130 -1.0025735849530715 0.02419497555839886
318543 -0.9942961073611748 0.016618650757987418
342956 -1.0029940184081358 0.002953308271870652
367369 -0.9989905733670721 0.0027654508367496687
391782 -1.0000898731269627 0.0031334118241567502
416195 -0.9991605408377172 0.002517361531503846
440608 -0.9989379631045443 0.004211838771051515
465021 -1.0001592410710698 0.0038457519104828767
489434 -0.9998822704275399 0.004985970191671163
513847 -0.9993608136335981 0.004782794214043718
538260 -0.9999543149762393 0.004680965479499155
562673 -0.9988595796849409 0.004898397798067756
587086 -0.9998356680154343 0.0051733360216239125
611499 -1.0011077384944207 0.006134272092037138
635912 -0.9993369143539179 0.005560064561833855
660325 -0.9998089286949091 0.006319247014164532
684738 -0.9994793187768426 0.006291839415504398
709151 -0.9988522209815419 0.005906112240211978
733564 -0.9992071989649906 0.006091868447766016
757977 -0.9986031796943415 0.00645142070412303
782390 -0.9989662493068475 0.006597692748739003
806803 -0.9982687378809997 0.006668050970281448
831216 -0.9992195254251528 0.006744723663603128
855629 -1.0006516599347022 0.007028062246495064
880042 -1.001221357802491 0.008012318577543785
904455 -0.9989617226288516 0.007845980473910162
928868 -0.9990352720278146 0.007769983460165827
953281 -0.999014617553392 0.0089307918231475
977694 -1.0000457650706338 0.007830987511931078
1002107 -0.9982615055111383 0.007748719575258667
1026520 -1.0000687525551557 0.008243808843616968
1050933 -0.9951582470623848 0.006301071779757344
1075346 -0.9993302754884502 0.009141349791752039
1099759 -0.9989748777111294 0.009348931648728893
1124172 -0.9986876030007323 0.009273377846816224
1148585 -0.9990310092773704 0.00942006919299564
1172998 -0.9985682121408979 0.008935454140402423
1197411 -0.9993511606245349 0.009090814283518583
1221824 -0.9989722588275409 0.01119749182323164
1246237 -0.9981456900907956 0.009722657513588938
1270650 -0.9997379480930777 0.010305087154600994
1295063 -0.9979992718980052 0.010156173029723449
1319476 -0.9990291779435663 0.010626622041979648
1343889 -0.9985347380288614 0.01067789662948152
1368302 -0.999528221672453 0.010997568420591752
1392715 -0.9994729562622594 0.010662357416586282
1417128 -0.9987832320923895 0.010737686847693795
1441541 -0.9999912729448686 0.011288524297132552
1465954 -0.9996494537027969 0.012274445281393178
1490367 -0.9996093954500925 0.012871162373454613
1514780 -0.9983744211824079 0.012927861382773754
1539193 -0.9989162796957014 0.011939103725354106
1563606 -0.9984887532503474 0.013201226835759855
1588019 -0.9988436281186563 0.013223816995725902
1612432 -0.9985009224950782 0.012611178942024697
1636845 -0.99911470915935 0.012919563654445177
1661258 -0.9984923842101127 0.014205865840240717
1685671 -0.9987785487947614 0.013978200634434777
1710084 -0.9980474894074636 0.01405980562375102
1734497 -0.998658390321381 0.014461007896322643
1758910 -0.9990854021885774 0.013649985368520605
1783323 -0.9987564107691094 0.014997174655111722
1807736 -0.9984759376001772 0.014739923139735456
1832149 -0.9995882089045548 0.014644087198341062
1856562 -0.997648164260351 0.016335171486900665
1880975 -0.9980269147132829 0.015384466162097985
1905388 -0.9979656080710144 0.015260829208603775
1929801 -0.9986094229263502 0.0157059393693618
1954214 -0.998491363313846 0.015974396121629653
1978627 -0.999167449218036 0.014125901818249008
2003040 -0.9978123967609787 0.016088068400785086
2027453 -0.9983718895435452 0.016591171528256395
2051866 -0.9981625208783143 0.016908715227388748
2076279 -0.9986191628952958 0.017290729209297882
2100692 -0.9976768117788771 0.01626671324019358
2125105 -0.998745752620387 0.01703063671951429
2149518 -0.998376113411775 0.01784445307695694
2173931 -0.9988322304765058 0.01771028355359748
2198344 -0.9985842358192724 0.017219676488989297
2222757 -0.9986359879104256 0.01702722040850171
2247170 -0.9980933556602911 0.017885363489238942
2271583 -0.9990738900550812 0.017372795589745173
2295996 -0.9979322828240983 0.019459340175694614
2320409 -0.9976517984637772 0.017695087715809382
2344822 -0.9981536715478566 0.01975543148647199
2369235 -0.9986769827826898 0.01830106393567399
2393648 -0.9981769781138634 0.018633936296202268
2418061 -0.998328958708396 0.019393976109307806
2442474 -0.9985598937594051 0.019211655656656026
2466887 -0.9984132897198892 0.018478060743957466
2491300 -0.9978279875332916 0.020949550727747936
2515713 -0.9990719806345584 0.019585963480709408
2540126 -0.9978542605313891 0.020649997474252457
2564539 -0.9984357939027858 0.020101047021889355
2588952 -0.9983584891854395 0.02069406990326341
2613365 -0.9989108361703197 0.020756910389352796
2637778 -0.998332395025611 0.021607580224528678
2662191 -0.9983723379668158 0.021675484057388294
2686604 -0.9978270900771373 0.02199181278564977
2711017 -0.9985542533136627 0.020748737185346196
2735430 -0.9968831173806241 0.021524895338464193
2759843 -0.9985984386876543 0.02151718005888051
2784256 -0.9985205248419283 0.022560397422425736
2808669 -0.9979128552819682 0.02225233974916373
2833082 -0.998239151840354 0.022659248192305012
2857495 -0.9988756781706056 0.021947060061190914
2881908 -0.9973302749973062 0.02317714207858295
2906321 -0.9987506304320632 0.02166097349301999
2930734 -0.9978157808392661 0.023357086736532924
2955147 -0.9981331493495896 0.023246211848403617
2979560 -0.9981508888761498 0.023858926780583076
3003973 -0.9986442265882447 0.023614577680559603
3028386 -0.9974530152718761 0.024492095300535827
3052799 -0.999448958244286 0.023826381741238675
3077212 -0.9986746377678891 0.02544359018385196
3101625 -0.9978220326460465 0.0240532721097133
3126038 -0.9988328286456759 0.025023623642202474
3150451 -0.9969161039835649 0.024771486586264838
3174864 -0.9988419801735101 0.025690291127245038
3199277 -0.9981992608572555 0.026137266722704545
3223690 -0.9987303763098403 0.024722874709977295
3248103 -0.9983192265882566 0.02605190383675061
3272516 -0.9987460874044555 0.02565905051344208
3296929 -0.997781590259732 0.026458111556558226
3321342 -0.9988428426390509 0.025717861452154683
3345755 -0.9977661511536888 0.02620274585712305
3370168 -0.9989488239151217 0.027431700494034768
3394581 -0.9980767866689422 0.027131271971973143
3418994 -0.9977947628507556 0.026108938212433028
3443407 -0.997443297733121 0.027828391965224547
3467820 -0.9986836394374793 0.02786273900441663
3492233 -0.9980957265199158 0.028485099289506145
3516646 -0.997149243442396 0.028013590146256966
3541059 -0.9979613267268109 0.028399808122648126
3565472 -0.997602267252968 0.028169983540612124
3589885 -0.997999342770292 0.02819743001607067
3614298 -0.9978722561533925 0.028493179043627522
3638711 -0.9973297746534323 0.029555473129701124
3663124 -0.9977175531973368 0.029217707026026954
3687537 -0.9973608161867556 0.029121708156077175
3711950 -0.9974493830016944 0.028897243326001895
3736363 -0.9969296013715667 0.029967917949684987
3760776 -0.9983871058858794 0.031247216608340914
3785189 -0.9975653281014648 0.03002086166424326
3809602 -0.9971285526761284 0.0298466849407605
3834015 -0.9982802935097921 0.029249329915206693
3858428 -0.9970684392762855 0.030734129294625843
3882841 -0.998167734798698 0.02949948018713087
3907254 -0.9989593252200102 0.03201654501436751
3931667 -0.9978897723938761 0.030745928388025742
3956080 -0.9974588142510127 0.031551861699285956
3980493 -0.9980036952319083 0.03067341427061838
4004906 -0.9970558349548003 0.029940071426254086
4029319 -0.9971946889792948 0.03232490889794854
4053732 -0.9966418539839662 0.03204024626757831
4078145 -0.9984017407321426 0.030887479386784444
4102558 -0.9971842044038635 0.033029481164279076
4126971 -0.9976826451572791 0.032244776916601915
4151384 -0.9982762272267915 0.03364206215548692
4175797 -0.9980064269478066 0.03290956275540481
4200210 -0.9962691748200931 0.03275312660324376
4224623 -0.9974356034647387 0.033350818095479226
4249036 -0.9992214195948461 0.034223261046341415
4273449 -0.9970525446461229 0.034338652355849014
4297862 -0.998491888287676 0.033443918519166935
4322275 -0.9980810329187053 0.034169515186450346
4346688 -0.9982668588844664 0.03350458525611397
4371101 -0.9975616730049495 0.034511881668811924
4395514 -0.998082303061128 0.03495564766201816
4419927 -0.9972454172758399 0.03649416168146425
4444340 -0.9979036070676477 0.03489150005312327
4468753 -0.9974320248755493 0.03485662309721444
4493166 -0.9980336295198177 0.03556148328138291
4517579 -0.997370170207922 0.03537420970800802
4541992 -0.9977905230845115 0.035924477477341205
4566405 -0.9979900439154937 0.03609686316209815
4590818 -0.9975008486641523 0.036236859457612354
4615231 -0.9971591611022957 0.0361463200656256
4639644 -0.9972551191060816 0.036130392602687744
4664057 -0.9975476333480284 0.03637269468226013
4688470 -0.9967402092914875 0.03589879752165105
4712883 -0.9967409372490116 0.037606727441507386
4737296 -0.9979494635641974 0.037672217629855696
4761709 -0.9984582530633995 0.038457276851088754
4786122 -0.9973477934638119 0.03730766652016518
4810535 -0.9978555156495167 0.03823625378219737
4834948 -0.9968263738230131 0.03671375757597186
4859361 -0.9974514632285921 0.036996432903559494
4883774 -0.9976605878146397 0.03801339733820105
4908187 -0.99847531537359 0.039743434039643394
4932600 -0.9979951158564373 0.03845009745252919
4957013 -0.9967515022773343 0.038273086873401176
4981426 -0.9974788683432204 0.040431638928474366
5005839 -0.9960042619981518 0.03903925421644777
5030252 -0.9963464759977503 0.03935891615351151
5054665 -0.9961635116694187 0.039504408483149164
5079078 -0.9961576833837462 0.039203275122282236
5103491 -0.9970481192960028 0.0410709590341784
5127904 -0.9974152497683937 0.04037436483901138
5152317 -0.9965453444276371 0.04069807767696284
5176730 -0.9972228479693954 0.040627009938343034
5201143 -0.9981020982877737 0.04066975455593206
5225556 -0.9962450437094442 0.04155140614424434
5249969 -0.9986056432013405 0.04173359805976288
5274382 -0.9986526508781054 0.03990702633912432
5298795 -0.9972546529560372 0.04219610653185194
5323208 -0.9964701770938973 0.040855778978979296
5347621 -0.9972392930782887 0.041332827068097495
5372034 -0.9971849065231849 0.040778289520561506
5396447 -0.996394909197995 0.041876239494481424
5420860 -0.99722361622165 0.04258624439292575
5445273 -0.9971496750102298 0.04415150855716652
5469686 -0.9981273215574064 0.04316038534083747
5494099 -0.997086221612595 0.04327997898815746
5518512 -0.9985395367375899 0.04364144353415472
5542925 -0.9971526987884651 0.04289050793830768
5567338 -0.9978468660959202 0.0441001509047308
5591751 -0.9970938166492475 0.043443098807714284
5616164 -0.9965664828272345 0.04487412103934152
5640577 -0.9967291132331425 0.04315347468201527
5664990 -0.9970089661676315 0.04472194624027508
5689403 -0.9964198024542941 0.04395046531341719
5713816 -0.997135157622955 0.04419607874846235
5738229 -0.9970702674532419 0.0445178383459048
5762642 -0.996779933878085 0.04488548533762657
5787055 -0.9966063624053185 0.04561548599986062
5811468 -0.9960778950263768 0.04510647872353407
5835881 -0.9961049542114763 0.04564075903540271
5860294 -0.9970273455791755 0.0458040350739694
5884707 -0.9964991988057849 0.04688548133201247
5909120 -0.996575398925907 0.04611843102837309
5933533 -0.9963801612334797 0.04734508539184478
5957946 -0.9976142631261123 0.04545540130892486
5982359 -0.9970551134300644 0.04590760199892145
6006772 -0.996821214764016 0.04557953375939392
6031185 -0.9974201984354902 0.04746755127702092
6055598 -0.9954599611495749 0.046479054509903577
6080011 -0.9971121071531508 0.04675206427581315
6104424 -0.9971241794827015 0.04870402363992361
6128837 -0.99665734480475 0.04787805457487618
6153250 -0.9973670929725881 0.048696767708806814
6177663 -0.9973601226227421 0.0478489129028433
6202076 -0.9970367903817067 0.048644531752280895
6226489 -0.9953363944979493 0.04820035621990394
6250902 -0.9965686419246154 0.04796921222589785
6275315 -0.9969845397025431 0.04958744906712179
6299728 -0.9958455496092942 0.04956964259621991
6324141 -0.9964448436218974 0.05013571066485443
6348554 -0.9957419719297053 0.04833254003881414
6372967 -0.996748212002225 0.05091164231558514
6397380 -0.996633468384928 0.04931031744687706
6421793 -0.9968996622373021 0.050968549770827556
6446206 -0.996226693777551 0.04920118969683735
6470619 -0.9966332748243132 0.05065315314174594
6495032 -0.9961824581705105 0.04993028572559287
6519445 -0.9960303724559229 0.050812540535853906
6543858 -0.9963635798804501 0.0503669508655482
6568271 -0.9961582820444822 0.05127559203373546
6592684 -0.997117805968894 0.0516957352118336
6617097 -0.9955967607729492 0.05149144342360532
6641510 -0.9966623179172304 0.052501739713680017
6665923 -0.9957173533410454 0.051650553760626605
6690336 -0.9965622416836258 0.052060597453402184
6714749 -0.9960513465828166 0.05131071845640304
6739162 -0.9960014981270181 0.05256821354175334
6763575 -0.9965220482176924 0.05216406416333149
6787988 -0.9960245735506545 0.05303557122593191
6812401 -0.9965820197318118 0.053520784607811324
6836814 -0.9969209048563279 0.05346561521481847
6861227 -0.9960230173609687 0.05276835722175696
6885640 -0.9965782757273228 0.05225305983446849
6910053 -0.9968560951489398 0.05385792384227715
6934466 -0.996532412552699 0.05401854822052377
6958879 -0.9963173692310502 0.054331696081996186
6983292 -0.9959728199944573 0.05368067496467168
7007705 -0.9962368889158195 0.05539558457751551
7032118 -0.9962492586724845 0.05281981458362604
7056531 -0.9964281876846006 0.055458343522709806
7080944 -0.9962066595619846 0.055020398397319016
7105357 -0.9969074294727949 0.055914912820194215
7129770 -0.9970686941945937 0.05687745160078027
7154183 -0.9960948239777637 0.05505807271194559
7178596 -0.9963391873492632 0.05586696248969892
7203009 -0.9967484624780657 0.056572664521316714
7227422 -0.9961552428763362 0.05624311263812079
7251835 -0.9952621850369039 0.056155286286328376
7276248 -0.9961320496182675 0.055863849473848495
7300661 -0.9962080943336316 0.05582238097860895
7325074 -0.9955405242357876 0.05713142136737679
7349487 -0.9949071368615697 0.05597821521402382
7373900 -0.9958798067743729 0.05780362486676734
7398313 -0.9955165048961894 0.05791724262179634
7422726 -0.995346261903282 0.058408700991169384
7447139 -0.9967897937523565 0.05730527845046682
7471552 -0.9953079580560473 0.0575225688447918
7495965 -0.9959079000369288 0.05821172371995649
7520378 -0.9965473920168427 0.059172552098186816
7544791 -0.9955193342175871 0.05833535403400139
7569204 -0.9962112715272491 0.059392520172797475
7593617 -0.9959707403283099 0.0585310674163871
7618030 -0.9950527392479163 0.05938829786383519
7642443 -0.9967126602426498 0.05964330159332751
7666856 -0.9966410285121852 0.05969417513616633
7691269 -0.9963532351136527 0.06091742454493502
7715682 -0.9961344340999586 0.05903835032374068
7740095 -0.995368876696233 0.059308462244917724
7764508 -0.9953513420141458 0.06101186387710088
7788921 -0.9957287881293002 0.06028630334642382
7813334 -0.9952972141548485 0.06114785811118066
7837747 -0.9956598706380447 0.060093232055582944
7862160 -0.995793260443286 0.06174144325937061
7886573 -0.9956863469030955 0.06215162138918508
7910986 -0.9960409931061724 0.06267810104238324
7935399 -0.9951234961445431 0.06164459104320274
7959812 -0.9960658274736746 0.062093087478038864
7984225 -0.9955527685320827 0.062128063287816414
8008638 -0.9961369032139575 0.06280896952982358
8033051 -0.9947525761765915 0.06213811688871389
8057464 -0.9957480373184322 0.06241153837152221
8081877 -0.9957455279943985 0.06228722679850593
8106290 -0.9952245555452433 0.0621791395908154
8130703 -0.9952902253916822 0.06167271051046678
8155116 -0.9960400915614632 0.06321666064556361
8179529 -0.9948436316556643 0.06204647089413205
8203942 -0.9952311809369031 0.06348945237183444
8228355 -0.9961833677740448 0.06405567989932313
8252768 -0.9951675572039906 0.06280206483832851
8277181 -0.9960524299703148 0.06373818002296165
8301594 -0.9950113128752904 0.06340756110217766
8326007 -0.9962155759099565 0.06507951894560456
8350420 -0.9961645927156316 0.06524403118031359
8374833 -0.9949215510995667 0.06495044024708715
8399246 -0.9943961011260412 0.0647608222223049
8423659 -0.9952305091450739 0.06552487851730497
8448072 -0.9951786656700713 0.06524253072759964
8472485 -0.9954986373289355 0.06637616726103247
8496898 -0.9948746658610358 0.0655593711172449
8521311 -0.9956768293070398 0.06719065448210794
8545724 -0.9954898218707835 0.06575719257808488
8570137 -0.9954551047387198 0.06658760016574287
8594550 -0.9950047633693442 0.06544595828477888
8618963 -0.9962313418001412 0.06792358288897664
8643376 -0.9953557198463505 0.0669569069870891
8667789 -0.995308047782624 0.06707479941474352
8692202 -0.9955139301576591 0.06772389036039676
8716615 -0.99475533975436 0.06663563374773557
8741028 -0.9948250842778145 0.06836257549249426
8765441 -0.9945904069971556 0.06733869333306768
8789854 -0.9947719671441138 0.06834449476199633
8814267 -0.9945369296308509 0.06796451077087862
8838680 -0.9954792767258412 0.06897230725115952
8863093 -0.9948723392065887 0.06828639062232614
8887506 -0.9943146328363912 0.06774538817262038
8911919 -0.9957887734513503 0.06926355804305297
8936332 -0.9940170541338689 0.0680881662450083
8960745 -0.9944131264769821 0.06902227945945057
8985158 -0.9944621367362325 0.06941039877665134
9009571 -0.9937821522525188 0.06918403428533793
9033984 -0.9952267261453196 0.07041718576009103
9058397 -0.9957012304563138 0.07080020839850218
9082810 -0.9943113543544808 0.07055260321719468
9107223 -0.9946732357379026 0.07082251391060547
9131636 -0.9945561888910214 0.0687552539406597
9156049 -0.9947027765549125 0.07118748621420128
9180462 -0.9949691445857344 0.07132635295986968
9204875 -0.9944244567176664 0.07078797894197561
9229288 -0.9946373975949068 0.07185002057547571
9253701 -0.99493829334893 0.07224345902234977
9278114 -0.9956152390073112 0.07305502002004328
9302527 -0.9947892225250702 0.07050966953673245
9326940 -0.9948645510204028 0.07172450127276961
9351353 -0.9940276904433589 0.07142611123743874
9375766 -0.9951237947097109 0.07331202632099088
9400179 -0.9957076896601504 0.0741686715845961
9424592 -0.994850717239255 0.07310109217810289
9449005 -0.9951059576828011 0.07456017536288997
9473418 -0.994754152640155 0.07285065762582257
9497831 -0.9945320015472677 0.07373465250630266
9522244 -0.9954424331119208 0.07380138435225658
9546657 -0.9942867562305581 0.0734646727375885
9571070 -0.9944852459552964 0.07497999008075201
9595483 -0.994506808177532 0.07314979048346924
9619896 -0.9947895193399511 0.07471051740849136
9644309 -0.9949589283483564 0.07543103985399204
9668722 -0.9939091795966039 0.0742228760224216
9693135 -0.9945889880048623 0.0754813225614429
9717548 -0.9938854205897872 0.07475855174279465
9741961 -0.9948570408443138 0.0741057117702854
9766374 -0.9928954010753629 0.07413499233687026
9790787 -0.9950398461538609 0.07646787462267138
9815200 -0.9943485985986689 0.07453122686618249
9839613 -0.9954177315568422 0.07718636536939374
9864026 -0.9941826204909457 0.07564360242140836
9888439 -0.9950526017031479 0.07654820376114414
9912852 -0.9935939344046052 0.07585884889322127
9937265 -0.9945267427375728 0.0779965236462546
9961678 -0.9943139517476146 0.07687441979127026
9986091 -0.9944591299240205 0.07741936399200466
10010504 -0.9939002625432111 0.07765289742973543
10034917 -0.9953363216699153 0.07812601501081026
10059330 -0.9944683843935737 0.07792678792206258
10083743 -0.9946802717372057 0.07812580196472341
10108156 -0.9948463395260859 0.07921707897514595
10132569 -0.9933843854373184 0.0775690037943129
