# HZ S RI R 50
50000 -1.0031467209054936 -0.0018740484266239056
59736 -0.9721356639829339 0.004501993185499139
69472 -0.9932212544062311 0.003550199614614506
79208 -0.9787445354791677 0.008442272030053105
88944 -0.9980537015129584 0.0031103684594289273
98680 -1.0003585217783784 0.0009829863880432064
108416 -0.9932700220529532 0.00023397618928610325
118152 -0.9930847604581723 0.0009590858027106622
127888 -0.9987765122613803 0.0062407708725316525
137624 -0.9887391153464746 -0.0014806286485905013
147360 -0.9968574157999294 0.017385001436502436
157096 -0.9983000070165514 0.002475540370854601
166832 -0.9977571099398408 0.0012745894163471172
176568 -0.9956115404031299 0.002414467211985053
186304 -0.9983342101432524 0.002017055599188166
196040 -0.9979150804987637 0.0020997381817121686
205776 -1.0001991571180155 0.002898042158702694
215512 -0.9807834738580443 0.0019091561177968334
225248 -0.9996061045439241 0.0035855444908885936
234984 -0.9977296672899668 0.0022038419572707763
244720 -0.9943308198882305 0.0011655047862126325
254456 -1.0076559318936857 0.0008766772551011681
264192 -1.0014293905494098 0.0032629530028668364
273928 -0.9988418176267073 0.0020501116871963904
283664 -0.9986666812460248 0.0033375404097042796
293400 -0.9848627334552793 0.02874029727982993
303136 -1.0009697692273751 0.03567016904303797
312872 -0.9995536674180219 0.00422097915472665
322608 -1.0065672465278366 0.011409991391520715
332344 -0.9988454597082336 0.005056158913482014
342080 -0.9936494609725428 0.004546043875435091
351816 -0.9984015985676682 0.004859689204472117
361552 -0.9994264684472508 0.0041513444091102825
371288 -1.0005417445396985 0.0057891232564889795
381024 -0.998560130971353 0.0046885278017451395
390760 -0.9968628680885703 0.004461271910239235
400496 -1.0004770253774293 0.005353853294000426
410232 -0.9992692055881082 0.005362943247707802
419968 -0.9995834112342536 0.0055961751921006254
429704 -0.9990648544372464 0.004114801371898604
439440 -0.9988894579633664 0.0060792588046777755
449176 -0.9975303639744807 0.005193357034337717
458912 -0.9982491491945725 0.004920574052471112
468648 -0.9984567610587877 0.005492512781770162
478384 -0.9986339105164911 0.005079822543821833
488120 -0.999149781334011 0.0064256798123437835
497856 -0.9992772273531555 0.006733014488087154
507592 -0.9981190236359058 0.00556527977616377
517328 -0.9989700770197953 0.0064492816105900875
527064 -0.9996105288471596 0.006845505795566872
536800 -0.999314579853747 0.006810497570946934
546536 -0.9982711520841507 0.006099264844426662
556272 -0.9980851951789866 0.006550475272297859
566008 -0.9984507796533985 0.006282900866875071
575744 -0.9983903390109079 0.007044678356937535
585480 -0.9977590942257981 0.005721896800747044
595216 -1.0009432644981988 0.0073578063812788
604952 -1.0021774302759325 0.006585373127469482
614688 -1.0039426260216848 0.007000644628731225
624424 -0.9986871304860506 0.008040786535426982
634160 -0.9977040663337368 0.007752163180262503
643896 -0.9977576565182747 0.007992093572716385
653632 -0.9991254977011051 0.007602222985378685
663368 -0.9979101814383688 0.007704549290638514
673104 -0.9976702396424094 0.007477719189227215
682840 -0.9979022096155701 0.008016713363613827
692576 -0.9981952801453499 0.008433963556252318
702312 -0.9978211991924728 0.008506712455628162
712048 -0.9980885866078265 0.007720873845937175
721784 -0.9980553290016532 0.008398411966562694
731520 -0.9975370001804283 0.0075015084369107286
741256 -0.9989470508263055 0.008216693156510652
750992 -0.9920860100938302 0.003988505827202358
760728 -0.997759775922577 0.008785125434779722
770464 -0.998830812317107 0.008855394751219275
780200 -0.9971694180675934 0.009094017230801553
789936 -0.9980925081467743 0.00930013504336399
799672 -0.9942703769810092 0.009364870726985526
809408 -0.9981872808508667 0.007651222392697269
819144 -0.9974742393807112 0.010822981192294176
828880 -0.9992142324095873 0.009574479820413545
838616 -0.9973325192500252 0.009264697126741547
848352 -0.9983557240745206 0.009595220075419334
858088 -0.9979926125487788 0.009907838229324267
867824 -0.9968181159730052 0.010083886048868711
877560 -0.9980764305560006 0.01005870589930173
887296 -0.9973664544383061 0.01027956250745031
897032 -0.9990182028443155 0.010468676112430573
906768 -0.9989722838090291 0.010669587294297938
916504 -0.997424915183639 0.00932421860475726
926240 -0.998412996833859 0.010084945818873908
935976 -0.9973612004771413 0.011226695650398502
945712 -0.9992743754756629 0.010820418742912716
955448 -0.9966609537179488 0.011476833683007046
965184 -0.9981303047120724 0.011470132941436008
974920 -0.9969913070802854 0.011241177395842156
984656 -0.9976300350980312 0.011106661577995156
994392 -0.9974751696776968 0.010193631246781742
1004128 -0.9982860590851719 0.01214397924134061
1013864 -0.9988772822109067 0.012348780396065762
1023600 -0.9968274799647354 0.012566509116464718
1033336 -0.9979528267979981 0.01214848760201453
1043072 -0.9981878080276807 0.01110734076613388
1052808 -0.9992003677791501 0.012025001953455997
1062544 -0.9976897955845201 0.010827106592463045
1072280 -0.9967761102721552 0.011230077224813366
1082016 -0.9981860588627113 0.01259021715182682
1091752 -0.9975189694450668 0.011679901667696108
1101488 -0.9981394096382235 0.012081896754125476
1111224 -0.9972418990979653 0.012490469043124139
1120960 -0.998112465078668 0.012527781889245474
1130696 -0.9987013631900932 0.011514895889977637
1140432 -0.9975299012508819 0.012711381168886466
1150168 -0.9975344894665905 0.012662774704247986
1159904 -0.9976456444443936 0.013634867901150028
1169640 -0.9982793277545542 0.013738007558420263
1179376 -0.9975906916077518 0.013144718048608523
1189112 -0.9983431425835542 0.012957572838685184
1198848 -0.9930355141780371 0.013295967717530645
1208584 -0.9967562108841852 0.013286192991200985
1218320 -0.9976615317929106 0.013383813429511242
1228056 -0.9979942956507707 0.014153821899612331
1237792 -0.9976714475404261 0.012671253695568863
1247528 -0.9960235548835363 0.014525957957944778
1257264 -0.9983156676323475 0.013180428226448392
1267000 -0.9970546629344734 0.013351019173579793
1276736 -0.997560057653524 0.01490032804667147
1286472 -0.997523650955438 0.013652329158814137
1296208 -0.9977429222340388 0.01415376444304603
1305944 -0.9975901668707786 0.014565753946349319
1315680 -0.9974904768039358 0.014202424256210293
1325416 -0.9976239960617063 0.01415008805331249
1335152 -0.9974715838173421 0.014383110823461038
1344888 -0.9971109811228397 0.015095053728347609
1354624 -0.9979134750760211 0.014810028080542194
1364360 -0.998340076145823 0.014827408708378913
1374096 -0.9977760232530664 0.015052318930367731
1383832 -0.9979086853639046 0.016239674862807314
1393568 -0.9974013900573889 0.01508051768056734
1403304 -0.9966938138581183 0.01602379816244351
1413040 -0.9976134485086966 0.014882739022104739
1422776 -0.9974693021790914 0.01534361713072598
1432512 -0.9973923186893384 0.015350665137722678
1442248 -0.9969654905499362 0.015793709346191464
1451984 -0.9969119979196089 0.015433814238020151
1461720 -0.9968262586961824 0.015736063195195403
1471456 -0.9977833505168138 0.016205384866264116
1481192 -0.9977611494840849 0.015738435871842014
1490928 -0.9969996013069531 0.015797532974435598
1500664 -0.9959578831282345 0.015794917427344277
1510400 -0.9989951219146226 0.016919309108475385
1520136 -0.998086464261713 0.016138965708615498
1529872 -0.9968100856103579 0.018271505336958434
1539608 -0.9963565291824732 0.017856753289269434
1549344 -0.9979736913273416 0.015790644968980406
1559080 -0.9970654096132818 0.01700438592903351
1568816 -0.9978531401669383 0.01711940599136802
1578552 -0.997206827614083 0.017699821121447773
1588288 -0.9968523426780255 0.01801440449796545
1598024 -0.9976803769660615 0.016956776123411125
1607760 -0.9965113867934383 0.017891622161926333
1617496 -0.9970602551977905 0.017558310898525845
1627232 -0.9973691321968433 0.01750668553762516
1636968 -0.9979200497803097 0.016741147344655313
1646704 -0.9977363238106329 0.017914712049995153
1656440 -0.9966011504504988 0.017959782983034644
1666176 -0.997174336587486 0.017682074185025126
1675912 -0.997270926202125 0.017951347462500083
1685648 -0.9969153988020785 0.01772448596412755
1695384 -0.9967930628727112 0.018159424582691475
1705120 -0.9971184252472042 0.019202261360030864
1714856 -0.9977934928033526 0.017895866372137664
1724592 -0.9968783597715696 0.017742879599806288
1734328 -0.9970666951043632 0.01850319800229987
1744064 -0.9964537706273388 0.01907212755118484
1753800 -0.9964985840293652 0.01846192866081188
1763536 -0.997155538550211 0.018731224432565963
1773272 -0.9968728088523701 0.01931481918179288
1783008 -0.9964839022053134 0.019718967183974742
1792744 -0.9964891102325387 0.02007481133143496
1802480 -0.9979691940359512 0.019001487136675144
1812216 -0.9968512027657767 0.020054307212597444
1821952 -0.9966310097921727 0.0189977722370711
1831688 -0.9963975468090551 0.019816417963088966
1841424 -0.9975244701485133 0.019701054983538375
1851160 -0.9969809607984464 0.02023502617912231
1860896 -0.9972026263736002 0.020215679111618305
1870632 -0.9979155016957305 0.018374801455874994
1880368 -0.9958662618266862 0.021322540176098772
1890104 -0.9979102735790237 0.02090759422142662
1899840 -0.9971609104311121 0.020690164474741896
1909576 -0.9965576590886209 0.020507438504451105
1919312 -0.9966442685862786 0.020092858309070333
1929048 -0.9969314502067887 0.021050077414028583
1938784 -0.9966726298143317 0.02042122900708986
1948520 -0.9979420327623947 0.021939209201933273
1958256 -0.997556549802189 0.020670377289022317
1967992 -0.9967774491901481 0.02025959842269861
1977728 -0.9963145619779801 0.021741839817969545
1987464 -0.9965261228136494 0.021840227150450673
1997200 -0.9969965943272789 0.021108521290911366
2006936 -0.9972526186869167 0.021808677198359817
2016672 -0.9966305333299404 0.022935717678924272
2026408 -0.9976496575809148 0.020436647350898306
2036144 -0.9962094213766318 0.02165582193794271
2045880 -0.9970175824921093 0.021794150150397422
2055616 -0.997403268010415 0.02134130433081295
2065352 -0.9955568000485978 0.021918348957546213
2075088 -0.9968512682972286 0.021405895578404846
2084824 -0.997134792691389 0.022877405315116704
2094560 -0.9965245047727656 0.021803163695392893
2104296 -0.9965925644079136 0.02270689663131244
2114032 -0.9965437378202833 0.023484294555368053
2123768 -0.9972131343957954 0.022641376592010865
2133504 -0.9967050882461784 0.022827048617061453
2143240 -0.9964234817962491 0.022938271091922324
2152976 -0.9971539244577834 0.023390998848228838
2162712 -0.9971189854877428 0.02326345126883432
2172448 -0.9968685652126391 0.02249848325086322
2182184 -0.9966891048819697 0.022605940242429557
2191920 -0.9967030817964501 0.023188978751686733
2201656 -0.9962036666237121 0.023123932335118898
2211392 -0.9964248289018982 0.02429892034558741
2221128 -0.9975291439528166 0.024808994751244116
2230864 -0.9964779764229219 0.02393345894607195
2240600 -0.9967327016589053 0.023213737337634086
2250336 -0.9967833198072066 0.023370279593719335
2260072 -0.9972000458492999 0.02366405302484021
2269808 -0.9961969188045581 0.023707626166417525
2279544 -0.9963539314534154 0.024528643554485724
2289280 -0.9971385544022541 0.02423241804899898
2299016 -0.9968936321933706 0.02412874712059433
2308752 -0.9963403574205587 0.025212191309710065
2318488 -0.996176679140242 0.024850696456827723
2328224 -0.9962260804691137 0.02345838397523937
2337960 -0.9951188752557183 0.024593921354297676
2347696 -0.996783525220837 0.025111272358169227
2357432 -0.9967815502190638 0.02615336421759579
2367168 -0.9963673523157965 0.024657327248412006
2376904 -0.9965989304082871 0.025165988727568867
2386640 -0.9963741429148121 0.02533935477156973
2396376 -0.9970348249080372 0.02474734324188989
2406112 -0.9968722694550428 0.02488252609631335
2415848 -0.9958073094194634 0.026506142388608805
2425584 -0.9969483572536795 0.024746471553539394
2435320 -0.9960538428646226 0.025033248405483502
2445056 -0.9969990225497256 0.02549335572358119
2454792 -0.9956241960616015 0.025963862976463956
2464528 -0.9964861346733371 0.025744421205709724
2474264 -0.9971169535582227 0.026854129668808506
2484000 -0.996090878912493 0.026310322183798668
2493736 -0.9967572586458454 0.027007898283541835
2503472 -0.9958945020385462 0.027113396669431977
2513208 -0.996078343439785 0.02583452898042526
2522944 -0.9955679307718931 0.025870704086568604
2532680 -0.9967140394806988 0.025467891233488707
2542416 -0.99575260331401 0.026937047762764125
2552152 -0.9943132820959951 0.027116180503067803
2561888 -0.9963453236947403 0.027231854954365257
2571624 -0.9971563538841015 0.026691569586400662
2581360 -0.995544574835027 0.027609628186745075
2591096 -0.996086881697863 0.02708990633864298
2600832 -0.9968507526646925 0.025933130352837272
2610568 -0.9962187715689 0.027705044785612178
2620304 -0.9966558149202396 0.027280156634317102
2630040 -0.9962410849793819 0.0284341145165894
2639776 -0.9962328298643359 0.026752523280017093
2649512 -0.9961870225269567 0.02787568902927494
2659248 -0.9954285394701938 0.028277634402051888
2668984 -0.996657260320905 0.02745960170165469
2678720 -0.9970546939856371 0.028299985812906447
2688456 -0.9956584371852654 0.029403691697013557
2698192 -0.996481081458003 0.028289134362371696
2707928 -0.9957619947143482 0.029082685816528647
2717664 -0.9961103984771548 0.029055464014991445
2727400 -0.9957797225805951 0.027923217486268477
2737136 -0.996272299356437 0.027897386682234498
2746872 -0.9957896671383997 0.028191612745170826
2756608 -0.9950054975434562 0.02804471304713964
2766344 -0.9954036341364825 0.029540598973118358
2776080 -0.9963994429109896 0.029749606637262546
2785816 -0.9971186038633978 0.028894186940302984
2795552 -0.9962600999406095 0.02902529906893369
2805288 -0.9955647017570965 0.030031362578931412
2815024 -0.9961647736949812 0.02880905517966064
2824760 -0.9964660585780796 0.028803427034467005
2834496 -0.9953041907918654 0.0305910255290476
2844232 -0.9954158416087008 0.030255453590665934
2853968 -0.9962213277396487 0.029709043030471397
2863704 -0.9964596809204667 0.030254879352326847
2873440 -0.9961272943257458 0.030817444193933962
2883176 -0.9957347292464565 0.030693352455138947
2892912 -0.9952479803009504 0.02999561521693617
2902648 -0.996651456317613 0.031058387912138722
2912384 -0.9956592430855911 0.0308577378592566
2922120 -0.9969108582532207 0.02955098087450898
2931856 -0.9956378103485803 0.03110599903035787
2941592 -0.9949386986254992 0.029049926692262473
2951328 -0.996410718126403 0.0308968646640258
2961064 -0.9965042208235748 0.030494039659876702
2970800 -0.9958672013586146 0.030429190509668153
2980536 -0.9956790484066644 0.03109372316403024
2990272 -0.9954047468367561 0.031138571150525065
3000008 -0.9930990141327186 0.03177911056095314
3009744 -0.9963940490266749 0.03228088890707623
3019480 -0.9959083881016688 0.03145167806602029
3029216 -0.9959088135745825 0.0314525678351976
3038952 -0.9952307625081682 0.03279774936827805
3048688 -0.9958619739584802 0.03100391957564132
3058424 -0.9957087882113099 0.031902022057539045
3068160 -0.9956344200676438 0.031108488538572045
3077896 -0.9953473175882808 0.03174981190521242
3087632 -0.9958009953275678 0.033041818603183094
3097368 -0.9955664548490922 0.03281912486183822
3107104 -0.9957632969762172 0.03273913455201692
3116840 -0.9967067664930553 0.031325936281679914
3126576 -0.9953305083084321 0.0327433279548708
3136312 -0.9949291895377775 0.033205757310779356
3146048 -0.9966855529168442 0.03292000735561975
3155784 -0.9952657791475966 0.03311882498761991
3165520 -0.9964803185087098 0.03244999194084681
3175256 -0.996333345834443 0.03266342638151823
3184992 -0.9950828331140461 0.03301607860649462
3194728 -0.9953967980385763 0.032797129010579684
3204464 -0.9967223479861874 0.03410201191487228
3214200 -0.9950179201180099 0.03331347055017459
3223936 -0.9950693038501638 0.033416800777861196
3233672 -0.9966830062059138 0.03267367772683776
3243408 -0.9955974213148134 0.0328159920849429
3253144 -0.9949509609657756 0.03235440626539631
3262880 -0.996180907128403 0.03401496056968431
3272616 -0.9954263486304612 0.03322414041703438
3282352 -0.9956421649855706 0.03309561239761959
3292088 -0.9956243091258457 0.03414396497849966
3301824 -0.9955511376595928 0.03486235768033673
3311560 -0.9954682636510561 0.03430612318365831
3321296 -0.9953021706967614 0.03435763649265999
3331032 -0.9963284900190896 0.034269541456772495
3340768 -0.9946560537672442 0.03300982133941054
3350504 -0.9962211996319916 0.03419928585561926
3360240 -0.9961437699981526 0.03436259898673925
3369976 -0.9950611070324058 0.03622107523235902
3379712 -0.9947405332085814 0.03489406636259062
3389448 -0.9955650027744863 0.03450407735716539
3399184 -0.9954283823796384 0.035674095171256553
3408920 -0.9962898282441809 0.035523767214659704
3418656 -0.9949730218297164 0.036333096158397055
3428392 -0.9965540381558665 0.03521757595364237
3438128 -0.9959246718097917 0.03478024663797694
3447864 -0.9956542135507215 0.03416991463677249
3457600 -0.9953981276098902 0.036566886180814905
3467336 -0.99460952902943 0.03556529172602276
3477072 -0.9967893641803636 0.0368613683161024
3486808 -0.9947566843925493 0.03615871253304182
3496544 -0.9958418655295882 0.035711972810861484
3506280 -0.9954298624767396 0.03696283034663067
3516016 -0.9942513493955841 0.03510879513483238
3525752 -0.9960685617018131 0.036789743630776396
3535488 -0.9956807503482031 0.03680237359851652
3545224 -0.9955748566722117 0.03600461731281073
3554960 -0.9945172985114006 0.03682978310824711
3564696 -0.995691342071013 0.03566826074305356
3574432 -0.995231138985057 0.03696069250543968
3584168 -0.9943027233971174 0.036059031908863996
3593904 -0.9952072930460851 0.03687977912424055
3603640 -0.9952236040366713 0.03665670851333058
3613376 -0.995050434907812 0.03618157344668085
3623112 -0.9943146471500612 0.03846039489243222
3632848 -0.9956390374974509 0.03701818094842307
3642584 -0.9954066409432647 0.03839786429660846
3652320 -0.9950086005168058 0.037644648754707355
3662056 -0.9961994992286388 0.037304439294713894
3671792 -0.9950930233391876 0.038135117662736806
3681528 -0.9938787300817223 0.037633310141529264
3691264 -0.9946891236904927 0.03790706094469083
3701000 -0.995190094896406 0.038377494465268676
3710736 -0.9956455931838114 0.03895817395432711
3720472 -0.9949571649622019 0.037417632680042986
3730208 -0.9954173701319529 0.03860446934773754
3739944 -0.9962941782929619 0.038615314578266155
3749680 -0.9953780623331328 0.03823430612958877
3759416 -0.9954736534863757 0.038699783037203006
3769152 -0.9946527254213765 0.038930077730123046
3778888 -0.9939945376877998 0.038701425529746515
3788624 -0.9959555627567565 0.03820628691053584
3798360 -0.9965399137487049 0.039504805814969984
3808096 -0.9945922426659366 0.040398103980865685
3817832 -0.9951064729944292 0.03866353355784868
3827568 -0.9954229490549242 0.039602515294817696
3837304 -0.9939054970585103 0.03947433741143994
3847040 -0.994619827491557 0.038932749127334125
3856776 -0.9953513273142264 0.03974797166873092
3866512 -0.9957898463076374 0.03990352473577216
3876248 -0.9951242478878125 0.039407520111191474
3885984 -0.9950421039626193 0.039925274310705895
3895720 -0.994640412136003 0.038624280589572485
3905456 -0.9946206267364939 0.039076602241872586
3915192 -0.9938584673389292 0.03944560613640986
3924928 -0.9960382377220227 0.041285283431777405
3934664 -0.9946360891874862 0.04065585841293076
3944400 -0.9946406665328613 0.039346283484571844
3954136 -0.9951240254373913 0.04014499972394966
3963872 -0.9953488360116313 0.04129300348525674
3973608 -0.9938943388886476 0.0417455673709901
3983344 -0.9939967753869291 0.04020043485814614
3993080 -0.9945495619730622 0.040263757236863096
4002816 -0.996726828603185 0.041340237938685825
4012552 -0.9947122249105975 0.04086120758271266
4022288 -0.9944221270966592 0.04163966991576797
4032024 -0.99564395273561 0.041546422936072955
4041760 -0.9955835977032497 0.04136468428014442
4051496 -0.9937550318707143 0.04219215545999537
4061232 -0.9948350020149725 0.041910572699915674
