# HZ S RI R 50
3000000 -0.38525120480014663 0.49462668120491765 -0.0846805012057034 -0.07272510725334892 0 0 0 0
3026419 -0.37854359592743625 0.49481511080271623 -0.08577715807917125 -0.0726455277377991 0 0 0 0
3052838 -0.37136541427365627 0.49391359996018913 -0.08667260327603124 -0.07243679173718987 0 0 0 0
3079257 -0.3663734613476523 0.49072129185093116 -0.08756354329629354 -0.072169642175207 0 0 0 0
3105676 -0.36024575558782784 0.4898483275674236 -0.08843925801777713 -0.07218484364310414 0 0 0 0
3132095 -0.3535629611006777 0.4886905567105525 -0.08935072866243646 -0.07180931744244133 0 0 0 0
3158514 -0.34820666597782995 0.48705735622127766 -0.090193529538679 -0.07164325954832965 0 0 0 0
3184933 -0.3417419604993988 0.4846517195787487 -0.09088581891191674 -0.07131599958158104 0 0 0 0
3211352 -0.33649540444323617 0.4822946960458002 -0.0917910445920631 -0.07123633320426355 0 0 0 0
3237771 -0.3307040747022549 0.48098313517598573 -0.09269360781948804 -0.07098122269349602 0 0 0 0
3264190 -0.3260923858623217 0.4788847796841894 -0.09376720699087507 -0.07058559822019184 0 0 0 0
3290609 -0.31977326093017644 0.47684336272195843 -0.0942559440955658 -0.07041154790866544 0 0 0 0
3317028 -0.31435108761429137 0.47357862887742996 -0.09517585913959513 -0.0702503811878668 0 0 0 0
3343447 -0.3086655721060049 0.4731271338470043 -0.09621405614655797 -0.06976726776406747 0 0 0 0
3369866 -0.303692226020861 0.4693208397512778 -0.09686484500471709 -0.0694456132873758 0 0 0 0
3396285 -0.2978414850910355 0.46765226635850415 -0.09776400387253838 -0.06913138566528887 0 0 0 0
3422704 -0.290978594088679 0.4654969078330914 -0.09858029037340504 -0.0688543505438143 0 0 0 0
3449123 -0.2873587573544665 0.46209252121603817 -0.0990375632634724 -0.06849249829278947 0 0 0 0
3475542 -0.2810890790889569 0.45986984445324686 -0.0999038411373791 -0.06828267134260002 0 0 0 0
3501961 -0.27657705017804457 0.45839772361252185 -0.10092401769947731 -0.06789585741467237 0 0 0 0
3528380 -0.2708603778356538 0.4553858531194885 -0.10152920345247886 -0.06742269764566977 0 0 0 0
3554799 -0.26682654701791225 0.452058966361269 -0.10231106505060425 -0.06707919247964422 0 0 0 0
3581218 -0.26108786941497136 0.4497328023350022 -0.10289536177719079 -0.06684992362005335 0 0 0 0
3607637 -0.2560664954066425 0.4470314619728277 -0.103684999987606 -0.06649610406329641 0 0 0 0
3634056 -0.25073395039778806 0.4459431827421636 -0.1045623836035962 -0.06619242037235235 0 0 0 0
3660475 -0.24629641791390433 0.4415550624516539 -0.10503713193468239 -0.06575873639833865 0 0 0 0
3686894 -0.2414998325365766 0.4390217754076021 -0.10575798151602367 -0.0653906429618575 0 0 0 0
3713313 -0.23699672492919321 0.4363449415711891 -0.10661576282371402 -0.06484926529883048 0 0 0 0
3739732 -0.23242161350318638 0.4331938657617341 -0.10749714199597141 -0.06443475886235421 0 0 0 0
3766151 -0.22766313281384634 0.4302852034720272 -0.10798031470654534 -0.06398992676180804 0 0 0 0
3792570 -0.22307741312026647 0.4272601972355771 -0.10865816267910258 -0.0636977222285077 0 0 0 0
3818989 -0.2176989565448236 0.4251454424728406 -0.10927327948767464 -0.06312780175888696 0 0 0 0
3845408 -0.2135639865402981 0.4210076234760531 -0.10986135079877501 -0.0629156035205497 0 0 0 0
3871827 -0.20986196632370027 0.4185401474399512 -0.1107385164377723 -0.062204970639745866 0 0 0 0
3898246 -0.20450682370823264 0.4159505045730498 -0.11138702489669303 -0.06173349684890396 0 0 0 0
3924665 -0.20085540542546687 0.4109446374265671 -0.11204221453810959 -0.061321393964237254 0 0 0 0
3951084 -0.19638465318513326 0.40739677679899594 -0.11237168570859916 -0.061207649951231825 0 0 0 0
3977503 -0.19208425304018834 0.4057728069375664 -0.11326313096924366 -0.060486216581302044 0 0 0 0
4003922 -0.1878710915627402 0.40286504221873176 -0.11379682283631203 -0.05983248942081376 0 0 0 0
4030341 -0.1853216449325381 0.3984285605864782 -0.11438767836796991 -0.059550306489247015 0 0 0 0
4056760 -0.18049679511066202 0.3952859765341377 -0.11500902790094643 -0.05926421670338281 0 0 0 0
4083179 -0.17664830776169876 0.39246915271264876 -0.11569641014275565 -0.05871874129923252 0 0 0 0
4109598 -0.17175993196197442 0.3895396722994955 -0.11625724406849916 -0.058316714337687904 0 0 0 0
4136017 -0.16856956158169722 0.3857310299092098 -0.11682994077058148 -0.05758669905001473 0 0 0 0
4162436 -0.16491622637146502 0.3819364985461493 -0.11739825579393388 -0.057169279463469724 0 0 0 0
4188855 -0.1603041498270857 0.3794279997084191 -0.11786571203242585 -0.05678866819917186 0 0 0 0
4215274 -0.15732915257076774 0.37529251556852855 -0.11858069630861902 -0.056295496107529625 0 0 0 0
4241693 -0.15289431663122116 0.3721587287352873 -0.11893988798501212 -0.05585919341092752 0 0 0 0
4268112 -0.15028921038885013 0.3688882809567991 -0.11955875014952867 -0.05548728870364004 0 0 0 0
4294531 -0.1458475949036826 0.3650595020669851 -0.12001463581385445 -0.054904508568020614 0 0 0 0
4320950 -0.14296638581515045 0.3608891402147436 -0.12068506060792764 -0.05423035094712462 0 0 0 0
4347369 -0.13895279718993706 0.3573773128043903 -0.12109702221307428 -0.05390894973852314 0 0 0 0
4373788 -0.1354410771140189 0.35450472707568237 -0.12162354591980676 -0.053281197727611376 0 0 0 0
4400207 -0.13279788530686096 0.34987580273150765 -0.12221178403292193 -0.052784444320334335 0 0 0 0
4426626 -0.1288489591655936 0.3469744477272144 -0.12285682771509875 -0.052226513951409696 0 0 0 0
4453045 -0.12715346693886492 0.3440060509613371 -0.12314818433265382 -0.05187087805589014 0 0 0 0
4479464 -0.12263571905559517 0.33968670021307285 -0.12357134102382637 -0.051345479854448796 0 0 0 0
4505883 -0.119785326239135 0.3354218857772019 -0.12427179026248569 -0.05065168902496282 0 0 0 0
4532302 -0.11618475793838713 0.33187769756412266 -0.1245814731712062 -0.05035688575603388 0 0 0 0
4558721 -0.11445254106024214 0.3287763153516579 -0.12499554530564645 -0.04983198210285928 0 0 0 0
4585140 -0.11122285602951108 0.32418604203299783 -0.1255803736473076 -0.049245940553852466 0 0 0 0
4611559 -0.10783644302235625 0.3209176124380735 -0.12607840062585302 -0.048694350433548896 0 0 0 0
4637978 -0.10513744377030937 0.31731711408042546 -0.12630726465704756 -0.04824573504394135 0 0 0 0
4664397 -0.10218275866897804 0.3137229976804549 -0.12671068182241108 -0.04777516353906115 0 0 0 0
4690816 -0.0998019906833315 0.309965966374489 -0.1272889906431183 -0.046992029665476644 0 0 0 0
4717235 -0.09720230468975692 0.3054434674823654 -0.12785844512039812 -0.046489606423409706 0 0 0 0
4743654 -0.09415310227789374 0.30229309534759335 -0.12827117287741088 -0.04606940591247263 0 0 0 0
4770073 -0.09151345464479117 0.2983400360349864 -0.12855005673395847 -0.0455321739833139 0 0 0 0
4796492 -0.08862438511872477 0.2946257620289988 -0.12901132169751853 -0.044830445702614026 0 0 0 0
4822911 -0.08570378901827794 0.2908323008502785 -0.12931925836032687 -0.044413231265700265 0 0 0 0
4849330 -0.08342686548800758 0.2875886787658897 -0.12975153947338566 -0.04376506333649829 0 0 0 0
4875749 -0.08210648690930475 0.2832888161961411 -0.13021978286420746 -0.0432421247481021 0 0 0 0
4902168 -0.0797782268387083 0.2791334179358899 -0.13041062591158964 -0.042749298493714866 0 0 0 0
4928587 -0.07631359067574907 0.2753082322261191 -0.13087244388440997 -0.04211491217445031 0 0 0 0
4955006 -0.07472860569854244 0.2726294125182719 -0.13138864167462838 -0.041536039053479266 0 0 0 0
4981425 -0.07261600851245543 0.26843436308362534 -0.1317132497944783 -0.041081975571432505 0 0 0 0
5007844 -0.070703791173411 0.2645960454070601 -0.13191477881060668 -0.040608931999598606 0 0 0 0
5034263 -0.0683658673567325 0.2600602284844797 -0.13228898809586603 -0.04014142501144487 0 0 0 0
5060682 -0.06535379514954742 0.25634822992224093 -0.13257596383257167 -0.03925935988527677 0 0 0 0
5087101 -0.06411366299602474 0.25352266386945055 -0.1329022218109865 -0.039006845591522996 0 0 0 0
5113520 -0.06140693546105188 0.24888065565289033 -0.1331768296088883 -0.03828958314405785 0 0 0 0
5139939 -0.060134383502960076 0.24562148823335356 -0.1337020937996105 -0.03782635088749155 0 0 0 0
5166358 -0.058368206643196814 0.24209379825763772 -0.1338843555449962 -0.0374543160372345 0 0 0 0
5192777 -0.0562368797558045 0.23727303459842072 -0.13428324262320895 -0.03670667073801068 0 0 0 0
5219196 -0.05370410477785818 0.23326336117046606 -0.13440751224181505 -0.036149191003371176 0 0 0 0
5245615 -0.05157315706789075 0.22986280347608243 -0.13497704045124134 -0.03571695822294121 0 0 0 0
5272034 -0.05165402035601949 0.22610730407025723 -0.13504145932944345 -0.03512357003118469 0 0 0 0
5298453 -0.04869254482063229 0.22219731049579142 -0.13541709261764895 -0.03439780166886528 0 0 0 0
5324872 -0.04756957647500484 0.21806138850058485 -0.13585347172831216 -0.034019854897818676 0 0 0 0
5351291 -0.045970653639494506 0.21407093282690406 -0.136055953336536 -0.03331456394011243 0 0 0 0
5377710 -0.045059082577385015 0.2103734545234171 -0.1362890378619485 -0.032893095244814076 0 0 0 0
5404129 -0.0428308142362616 0.20612997649090695 -0.1365514162310352 -0.0323218809325435 0 0 0 0
5430548 -0.040291731532467366 0.20281746475306434 -0.13674747408299498 -0.03164062281320264 0 0 0 0
5456967 -0.040237947258958275 0.19900246557728796 -0.13691252027105702 -0.03143617464495252 0 0 0 0
5483386 -0.039246814828177795 0.19492228220159874 -0.13722566598457958 -0.03066329406068112 0 0 0 0
5509805 -0.036667226680369494 0.19123839869967293 -0.13747019854782502 -0.03002136549142452 0 0 0 0
5536224 -0.035841550415354695 0.18732325133639907 -0.13758791553465072 -0.029504780311139442 0 0 0 0
5562643 -0.033598641212600346 0.18379875886795352 -0.13782498226426754 -0.028944404646995794 0 0 0 0
5589062 -0.033381678553640416 0.18014807388734194 -0.13827648967721387 -0.028431642629335056 0 0 0 0
5615481 -0.032808952780805804 0.1758299968785355 -0.13826723802310587 -0.02798534003192609 0 0 0 0
5641900 -0.029898182193451268 0.17222305597543225 -0.13870311649044437 -0.02741052363394434 0 0 0 0
5668319 -0.028621471883755138 0.16887622626229928 -0.13899006428090654 -0.026991389430175913 0 0 0 0
5694738 -0.028907415406557474 0.16493163986340637 -0.13912967585657926 -0.026351095710036725 0 0 0 0
5721157 -0.026789873409641493 0.16165378610939896 -0.1392333605174826 -0.02576245475265916 0 0 0 0
5747576 -0.026178240446387866 0.1571973840272027 -0.1393127887650587 -0.02515451398620075 0 0 0 0
5773995 -0.02455641035258865 0.15385490827087916 -0.1397386786791893 -0.024637447681851492 0 0 0 0
5800414 -0.025212601874491272 0.14949509708742317 -0.13961544821923053 -0.02427045001860919 0 0 0 0
5826833 -0.02374735347834693 0.14670085101205538 -0.14001038162203347 -0.023414918374648822 0 0 0 0
5853252 -0.022334358303881655 0.14249524263760893 -0.14008539083281585 -0.022937256028056664 0 0 0 0
5879671 -0.021639659825428998 0.1390605637976442 -0.14037022337536473 -0.022400327458864607 0 0 0 0
5906090 -0.020716950653511465 0.13543819513221558 -0.14045277384672067 -0.02196064694800478 0 0 0 0
5932509 -0.01985679781603614 0.1317159638218732 -0.14056806146349743 -0.021452610419225835 0 0 0 0
5958928 -0.01947042664605489 0.12806165341399403 -0.14074997010249193 -0.020827146972619 0 0 0 0
5985347 -0.017678780140115324 0.12498107069007418 -0.1409230863987644 -0.020428564938096024 0 0 0 0
6011766 -0.017196107811045705 0.12130409229429985 -0.14118037882264903 -0.01977593071393286 0 0 0 0
6038185 -0.01735686774694551 0.11689721618112107 -0.14117915201351186 -0.0191582709671115 0 0 0 0
6064604 -0.01620953279213864 0.11392078760485795 -0.14127618058446875 -0.018687278483029122 0 0 0 0
6091023 -0.014630884201511644 0.11037747009303593 -0.14153026196898527 -0.01819366486007765 0 0 0 0
6117442 -0.014321553270520647 0.10611511327962567 -0.14167347947147452 -0.017645753947581413 0 0 0 0
6143861 -0.014741634443742995 0.10234603792145645 -0.14154945423059245 -0.01715090491464779 0 0 0 0
6170280 -0.0134795377887827 0.09939938564162368 -0.14172506893252254 -0.01666987874996032 0 0 0 0
6196699 -0.012765593974551685 0.09606174045044462 -0.14202132243841814 -0.016064077801039637 0 0 0 0
6223118 -0.012568541543740151 0.09156190941617605 -0.14210437517085628 -0.01535452725751454 0 0 0 0
6249537 -0.01279127287894284 0.08862547651689404 -0.1419680406650954 -0.015149991111389236 0 0 0 0
6275956 -0.012141785911067002 0.0849190556361754 -0.14211474110835526 -0.01450544888717501 0 0 0 0
6302375 -0.012070572275002535 0.08094260441535846 -0.14246276959116785 -0.013908979443191674 0 0 0 0
6328794 -0.011189890456940728 0.07753845748130148 -0.14247977616845406 -0.01339899708810676 0 0 0 0
6355213 -0.01059393420588257 0.0739389437811829 -0.1422274502205471 -0.01305093140883828 0 0 0 0
6381632 -0.01011322983397883 0.06994089834980556 -0.14252698353482288 -0.012581295755938441 0 0 0 0
6408051 -0.010208276191705204 0.06673215983318385 -0.142526291288236 -0.012017486002731064 0 0 0 0
6434470 -0.009896923339019825 0.06280029603226353 -0.14253668871057068 -0.011535752290936218 0 0 0 0
6460889 -0.009639333568384537 0.059332280351286085 -0.14271551503294774 -0.010951665990101446 0 0 0 0
6487308 -0.00955653058831105 0.05545894127355859 -0.14269807061321158 -0.010381915413994455 0 0 0 0
6513727 -0.009478699698923582 0.05231201259458661 -0.142971335183356 -0.009785719324559686 0 0 0 0
6540146 -0.009273725062632908 0.04864146529630409 -0.1430035492840692 -0.00928672051331923 0 0 0 0
6566565 -0.009484118122752268 0.044354321185557544 -0.14297995969620048 -0.008855677303822354 0 0 0 0
6592984 -0.009533050198968947 0.040965063585596206 -0.14286326835878976 -0.00823720372470376 0 0 0 0
6619403 -0.009330354384060017 0.03723797594248809 -0.1431711016010928 -0.007665782743858715 0 0 0 0
6645822 -0.009343888279988624 0.034003614620197777 -0.14318671329193894 -0.007531907674636471 0 0 0 0
6672241 -0.009687085065002292 0.030501190479690674 -0.14314097206067333 -0.006880863844205936 0 0 0 0
6698660 -0.009713266827188082 0.027414102610327503 -0.143244966161886 -0.006543311932178923 0 0 0 0
6725079 -0.009321100635097664 0.02436814165912586 -0.1432863600116921 -0.005790304728416767 0 0 0 0
6751498 -0.009807053983052231 0.02030657107655401 -0.14332844396155325 -0.005371966457245961 0 0 0 0
6777917 -0.009792019908521741 0.01711364476497978 -0.1431324985206934 -0.004744430600015273 0 0 0 0
6804336 -0.009938692829463292 0.013785425593797317 -0.1434402984720942 -0.004322366015966925 0 0 0 0
6830755 -0.010568237445208488 0.011400764527368663 -0.14326482386997744 -0.004088743191314514 0 0 0 0
6857174 -0.010301453352823951 0.007950267674246891 -0.14343322617095508 -0.003322191124791905 0 0 0 0
6883593 -0.010662563247247415 0.004411785007689316 -0.14335691778705284 -0.002683551050186857 0 0 0 0
6910012 -0.011397744594800037 0.0014001977579094717 -0.14329598498725812 -0.002566027375947697 0 0 0 0
6936431 -0.01115996733458824 -0.001385030467825217 -0.14333203668665795 -0.0018940892628794544 0 0 0 0
6962850 -0.011238000919949686 -0.004940082253192267 -0.14352733310321386 -0.0014111372931358752 0 0 0 0
6989269 -0.01165988474296692 -0.008284474284581202 -0.14339910487203056 -0.0009230893403212714 0 0 0 0
7015688 -0.012557666887993405 -0.011141733301451743 -0.14331700385855484 -0.0005230609216510221 0 0 0 0
7042107 -0.012448266450920297 -0.014213705196635127 -0.14333987094847753 -1.9411523420156983e-06 0 0 0 0
7068526 -0.01260790446302564 -0.01801818800902516 -0.1434568616126272 0.0007128176796321056 0 0 0 0
7094945 -0.013194638127192862 -0.020862552148726437 -0.1430709576549428 0.0007980182254787803 0 0 0 0
7121364 -0.013430669891065004 -0.023366174097090922 -0.14325363699294863 0.0012962188534484482 0 0 0 0
7147783 -0.01378093208437549 -0.026845278626800254 -0.1432766075145641 0.0021388383454842745 0 0 0 0
7174202 -0.014706825319015529 -0.029826415813699127 -0.1432522067707462 0.002147392021330142 0 0 0 0
7200621 -0.01485875799754481 -0.03340164344516918 -0.1430486431885488 0.0028070272066663786 0 0 0 0
7227040 -0.015472462005262819 -0.035744382403453796 -0.14323924539793267 0.003226029768252773 0 0 0 0
7253459 -0.015639236785635086 -0.03894112560519516 -0.1430792739111124 0.003738402431300053 0 0 0 0
7279878 -0.0163064520004482 -0.04216413259426465 -0.1431760994037494 0.004204288123104594 0 0 0 0
7306297 -0.017425152530785446 -0.045432553899528466 -0.14319436544967235 0.004523201372275281 0 0 0 0
7332716 -0.01726273524128266 -0.04855329781110444 -0.14307311487126112 0.005203149366159249 0 0 0 0
7359135 -0.018589570092502773 -0.05134680993869729 -0.14311257894609183 0.0055244978891738255 0 0 0 0
7385554 -0.018349390597897405 -0.05355532005870175 -0.14327125759246176 0.006177854172969505 0 0 0 0
7411973 -0.019054239205168237 -0.057030124221152334 -0.1431327419190248 0.006651347266624724 0 0 0 0
7438392 -0.01979037152296013 -0.060267586377286964 -0.14289676467728524 0.006837683140144826 0 0 0 0
7464811 -0.020661551987714348 -0.06314206288589172 -0.14277098559363594 0.007317874935742235 0 0 0 0
7491230 -0.020869464490900103 -0.06578864981217725 -0.14283050407581518 0.007822217993462314 0 0 0 0
7517649 -0.021772097597230436 -0.0685276473223202 -0.14276113982817193 0.008389676077659225 0 0 0 0
7544068 -0.022717268583657906 -0.0713749653581613 -0.14263371796782906 0.008620227725808798 0 0 0 0
7570487 -0.02281516384113386 -0.07451239976767984 -0.14274445295688673 0.009119046982334629 0 0 0 0
7596906 -0.023693639856605952 -0.07723518571788494 -0.1427336786525593 0.009841693347454014 0 0 0 0
7623325 -0.024603512329506992 -0.08067634197443156 -0.1424613500737652 0.010054121929780327 0 0 0 0
7649744 -0.02476144724104654 -0.08295791079169057 -0.14211112341486568 0.010220907746234492 0 0 0 0
7676163 -0.025466912676960794 -0.08683070430315878 -0.14222038040538051 0.01088268710144057 0 0 0 0
7702582 -0.026585945031344 -0.08972935096441667 -0.14228583853901408 0.011194334916146879 0 0 0 0
7729001 -0.027165479347972296 -0.09278201559374728 -0.14213533878824475 0.011612979771214085 0 0 0 0
7755420 -0.02752966130762143 -0.09432551949190764 -0.14192588084020577 0.012116903132904366 0 0 0 0
7781839 -0.028421485393096704 -0.09756133978252493 -0.14202399282698 0.012618992811814151 0 0 0 0
7808258 -0.029821750489434976 -0.10092333770392357 -0.1419047881837266 0.013161664477628223 0 0 0 0
7834677 -0.029973680350822887 -0.10368768254975488 -0.14172177858714788 0.013141052622766318 0 0 0 0
7861096 -0.031111164465581185 -0.10656017678983343 -0.1416965111898532 0.013622783898990156 0 0 0 0
7887515 -0.03196643331721761 -0.10942470319276856 -0.14161826969993793 0.014078477741188979 0 0 0 0
7913934 -0.032814215283752717 -0.11194611628506822 -0.14183666447712773 0.01480585543372635 0 0 0 0
7940353 -0.03383005985007118 -0.1141628875655424 -0.14160928222342964 0.015147004060766241 0 0 0 0
7966772 -0.034792497156169055 -0.11711567242257657 -0.1412935901757162 0.01531062007925477 0 0 0 0
7993191 -0.03567878934076932 -0.11996629531554039 -0.1410999550026381 0.015779159303794442 0 0 0 0
8019610 -0.03660907306041167 -0.12239482580176858 -0.1410191014086611 0.0161952858956397 0 0 0 0
8046029 -0.03718788203980581 -0.12540624389504235 -0.141162145440939 0.016834620610972496 0 0 0 0
8072448 -0.03794838074308797 -0.12774999583600724 -0.14096251974604157 0.01710783402356421 0 0 0 0
8098867 -0.03940359362838725 -0.130259569351667 -0.14089108509655326 0.01731296002170997 0 0 0 0
8125286 -0.04067405281793933 -0.13269007966370527 -0.14075188139495892 0.017746062886635654 0 0 0 0
8151705 -0.04156440334700833 -0.1353516153528456 -0.14060276797879126 0.018329702215001208 0 0 0 0
8178124 -0.04223579659242141 -0.1379120607192859 -0.14051693768926576 0.018827910413384413 0 0 0 0
8204543 -0.04317290245186186 -0.14047108416373752 -0.14037434179667282 0.01901685179215023 0 0 0 0
8230962 -0.04427716161644553 -0.14256303849706664 -0.1401874723362051 0.0193019133037723 0 0 0 0
8257381 -0.045842561016097766 -0.1451051148374055 -0.14023830861999917 0.019945914427315515 0 0 0 0
8283800 -0.04717749858279993 -0.14894920312652934 -0.14020901214180517 0.020246769476620206 0 0 0 0
