# HZ S RI R 50
50000 -1.0019700854983706 0.006598267903838453
74413 -0.9932941715555167 0.012125864890135545
98826 -0.9842655749903475 0.012719266314196594
123239 -1.0044735487330838 0.010154323600474665
147652 -1.003180448647139 0.010728352757250082
172065 -0.9994255075264457 0.01733285604915437
196478 -0.9968466948819044 0.018661106878743956
220891 -0.9981648143115628 0.021403715727713542
245304 -0.9988459211782039 0.02243419180051331
269717 -1.0077198648510117 0.037682619834526004
294130 -1.0163563663430717 0.0722352555172818
318543 -1.003544497538993 0.039399892923669515
342956 -1.0008696546199263 0.033117169127655166
367369 -0.9979400304536766 0.035845176676668
391782 -0.9990049717304239 0.038209612956352224
416195 -0.9996675884824088 0.03961475330051794
440608 -0.9981675726377754 0.04272447254022079
465021 -0.99882144879278 0.04486119369124905
489434 -0.9988308203299493 0.04719535409638116
513847 -0.9984639153226158 0.04940267621120554
538260 -0.9971607502896506 0.05179208215377326
562673 -0.9972024352821249 0.054275429812414205
587086 -0.9974574891297271 0.05599384329870865
611499 -0.992357203290721 0.05782757018148491
635912 -0.9980302570404918 0.061326520068387826
660325 -0.9977722385882084 0.06462767566276784
684738 -0.9971738167348001 0.06574528008174256
709151 -0.9963347852308829 0.06789457742551652
733564 -0.9965630258324665 0.06982826590139216
757977 -0.995896805099346 0.07174356771779009
782390 -0.9970716192628681 0.07439750109677115
806803 -0.996011652051081 0.07686151703250417
831216 -0.9961281809067523 0.08005987205533341
855629 -0.9967527971773643 0.08229191903450972
880042 -0.9967335281832388 0.08419178636936833
904455 -0.9946416814657945 0.08571840640585364
928868 -0.9952581162646359 0.08926703719247885
953281 -0.9938561137482966 0.09244859574286424
977694 -0.9950092943383401 0.0930121929459563
1002107 -0.9941654991006078 0.09564206005212919
1026520 -0.99514416277125 0.09960764009466394
1050933 -0.9906804110171252 0.09954392884125507
1075346 -0.9938302385314863 0.10261778028881624
1099759 -0.9924996556375679 0.10555199096613067
1124172 -0.9936939822931772 0.10728704349885397
1148585 -0.992792526991606 0.10993339705604963
1172998 -0.9923627385407071 0.11166994597367294
1197411 -0.9949675511182989 0.11510998265104574
1221824 -0.9933321966717209 0.11759258397314064
1246237 -0.9910238310038979 0.11872191272812578
1270650 -0.9920179942346672 0.1212012172362627
1295063 -0.9905475416693946 0.12361394784571476
1319476 -0.9909673113788969 0.12580150399447976
1343889 -0.9917729543844465 0.12895734550445434
1368302 -0.9905343672438632 0.13051974722027654
1392715 -0.9903033414310467 0.13380466628365112
1417128 -0.9894955800005382 0.13449153409655365
1441541 -0.9904671365483848 0.1390739213120972
1465954 -0.9893591064748086 0.14042418774080556
1490367 -0.9894957304140598 0.14354761782189202
1514780 -0.9875873099610162 0.14508630140897982
1539193 -0.9894946090152734 0.14621002541851472
1563606 -0.9872652044313756 0.1496964688354365
1588019 -0.98688401453909 0.15227782227943407
1612432 -0.9861143749463928 0.15361666625855203
1636845 -0.9868376883627102 0.15611795429484537
1661258 -0.9852140539084786 0.15925079817051874
1685671 -0.9861802497624701 0.16076635878439108
1710084 -0.9851785368441043 0.16246483888348168
1734497 -0.9852854006202821 0.16574707061330984
1758910 -0.9839366188049319 0.16761283815343644
1783323 -0.9835165865762372 0.17087813066358767
1807736 -0.9836293477807153 0.17204663186272526
1832149 -0.9833527250891564 0.17512628148849613
1856562 -0.9814264934499592 0.17801216644852338
1880975 -0.981648646608343 0.1799395865147235
1905388 -0.9803190644805648 0.18181211936607483
1929801 -0.9818898658849343 0.18460281225223138
1954214 -0.9808678222539371 0.1859449912374282
1978627 -0.9805297452940416 0.18804392966321024
2003040 -0.979106201074325 0.19143081063916717
2027453 -0.9799050768164486 0.19377156972074983
2051866 -0.9781377604257103 0.19579272753651145
2076279 -0.9782734811636997 0.19829865006915787
2100692 -0.9779367273447123 0.20069454412376292
2125105 -0.9781313152351356 0.20141076645597042
2149518 -0.9768373491441134 0.20506662000927373
2173931 -0.9765598413056618 0.20649398224071253
2198344 -0.9763560220215833 0.21060158373868126
2222757 -0.9759329494107936 0.2104337857558329
2247170 -0.9758364216383593 0.2142228461904602
2271583 -0.9740648400706466 0.21665794536721458
2295996 -0.9742315989043431 0.21895542041881025
2320409 -0.9739634427085373 0.21933887488332673
2344822 -0.9732020845215048 0.2232717850281087
2369235 -0.9722451204565155 0.22427991315815507
2393648 -0.971495987984397 0.2280927255532266
2418061 -0.9712798861975428 0.22985905618018052
2442474 -0.9711287526535244 0.2330419284665423
2466887 -0.969422292694962 0.23433992105322005
2491300 -0.9695262359556348 0.237016804146422
2515713 -0.9682735825936246 0.2397660237177497
2540126 -0.9693833811752456 0.24179128896289637
2564539 -0.9675453761344113 0.24456156821933947
2588952 -0.9681751713111292 0.2453049767603168
2613365 -0.9673084229677996 0.2497712792088328
2637778 -0.9658080368355756 0.2503664383192429
2662191 -0.9659094606804999 0.25498163877609503
2686604 -0.9646016103809799 0.2548704770787714
2711017 -0.9649544845583641 0.25751214305000075
2735430 -0.9630464642168804 0.258445103677634
2759843 -0.9637406781836431 0.26254604633308676
2784256 -0.9622744964235718 0.2638980868766444
2808669 -0.9620995420032465 0.26805721455359005
2833082 -0.9605869426831606 0.26935627403307205
2857495 -0.9609831354072311 0.2708906986241183
2881908 -0.960236915398426 0.274715701415085
2906321 -0.9596466601160748 0.27454038530134933
2930734 -0.959296494434602 0.2795474511646205
2955147 -0.9578160837168201 0.279272760722327
2979560 -0.9572774601180241 0.2836370247468923
3003973 -0.9565134430994139 0.2848436355195811
3028386 -0.9561491666808485 0.2882216037078381
3052799 -0.9552929962351253 0.28991845491716856
3077212 -0.9546887520642034 0.29120634450663074
3101625 -0.9538575832017439 0.29427053226470723
3126038 -0.9531626056879617 0.2950242579498826
3150451 -0.9518534231411439 0.2997652280112454
3174864 -0.9511906363190651 0.29972241767465696
3199277 -0.9512850374923547 0.30460801955599726
3223690 -0.9497155768671219 0.30501345909417454
3248103 -0.9495041453485248 0.30830077412574125
3272516 -0.9485231467890739 0.30991180313511235
3296929 -0.9486266358006455 0.31315711632888943
3321342 -0.9477851744771261 0.3150005480742011
3345755 -0.945746550265275 0.31656058811992394
3370168 -0.9448700407486517 0.31858199418504385
3394581 -0.9447424317918109 0.32072788008896314
3418994 -0.9445095641853367 0.3235533562812756
3443407 -0.9425595128597194 0.3250038492069283
3467820 -0.9424909876665963 0.32845941515928534
3492233 -0.9412586601039689 0.3299337291735964
3516646 -0.9404860387884056 0.3330885692621654
3541059 -0.939445896074114 0.33428667384946265
3565472 -0.9381225864798528 0.3374725234472267
3589885 -0.938346492759032 0.33978257847245485
3614298 -0.9371318087909492 0.3416181875901667
3638711 -0.9362838092824488 0.3444139094421613
3663124 -0.9353026015337235 0.34496704269752904
3687537 -0.9347774294856722 0.3477897146937872
3711950 -0.9344932102493201 0.35008575890676036
3736363 -0.9325436428871106 0.3520765432215696
3760776 -0.9318210795819123 0.3562400541523758
3785189 -0.9306943593581196 0.3567758349069941
3809602 -0.9314005564137393 0.36022355780840737
3834015 -0.9299484130256754 0.3607098461992682
3858428 -0.9294722178750281 0.36406106170765035
3882841 -0.9284519132346932 0.36601425595597165
3907254 -0.927006674092363 0.36873618860296764
3931667 -0.9267512477180846 0.3714138540838469
3956080 -0.9245039352942066 0.37222572403602255
3980493 -0.9237958453708078 0.37514669022257024
4004906 -0.9232869061243395 0.3771573398393126
4029319 -0.9218193054439952 0.37879438647302055
4053732 -0.9210269813938748 0.38181373783602196
4078145 -0.9211480555959853 0.38470368901455104
4102558 -0.9193297557244051 0.3867555430531395
4126971 -0.9188709330351318 0.38895709881962853
4151384 -0.9173550870256216 0.3908273901951341
4175797 -0.9172839761574806 0.39394319062386085
4200210 -0.9153328334266807 0.39445446239182347
4224623 -0.9145302785674946 0.39901358412711807
4249036 -0.9136272484485588 0.39933829794733694
4273449 -0.9125954475884595 0.40337763337500504
4297862 -0.9119176163502268 0.40455172125797734
4322275 -0.9115370367886764 0.4074749800166085
4346688 -0.9101777895479298 0.40801474940613974
4371101 -0.9092748518704237 0.4119281718706605
4395514 -0.9073815783103742 0.41315348431146265
4419927 -0.9068481543927613 0.4161603399500223
4444340 -0.9051431574823273 0.4174473548934297
4468753 -0.9043463422471991 0.4207023865044272
4493166 -0.9025453092784583 0.42133980029844503
4517579 -0.9022840013915291 0.4249525134272642
4541992 -0.9016934201915454 0.4266767744269273
4566405 -0.9001411751422914 0.4282151748081188
4590818 -0.8997472527377735 0.43182896184608643
4615231 -0.8983389112531838 0.43431829385066656
4639644 -0.8970865912265047 0.4344655434780641
4664057 -0.8969658597977241 0.43869815931278183
4688470 -0.8951828112047837 0.4390448047707233
4712883 -0.8940025531914993 0.44333896190445143
4737296 -0.8920781476984729 0.4451064430673521
4761709 -0.8920618356357652 0.4475784516661759
4786122 -0.8908685472784172 0.4480141918839599
4810535 -0.8904648226630086 0.4506118968349662
4834948 -0.8879153672635977 0.4533431065334697
4859361 -0.8870137107241957 0.453872440361792
4883774 -0.887417623072329 0.45775953189153906
4908187 -0.8842714560264945 0.4593708103803408
4932600 -0.8842162385819429 0.4622600682746283
4957013 -0.8828156609892013 0.463783226240251
4981426 -0.8811102735315299 0.4655862514864173
5005839 -0.8805191985932815 0.46880521137651243
5030252 -0.8781026091005001 0.4698011830472978
5054665 -0.877777586088557 0.47338378957392035
5079078 -0.8758263968199951 0.4745787227012172
5103491 -0.8758045872494619 0.4773439214798271
5127904 -0.873886034035774 0.4788560270733664
5152317 -0.8725629235378934 0.481638320053263
5176730 -0.8717754000692741 0.483059368254439
5201143 -0.8706723300599634 0.48515845214716896
5225556 -0.8681588165010966 0.4873476374060969
5249969 -0.8683503252766095 0.4907489654225378
5274382 -0.8677771691897813 0.4928954033422702
5298795 -0.865476999397942 0.49363613386443994
5323208 -0.8649406234107886 0.4956625149742935
5347621 -0.862771721479587 0.4988473116533099
5372034 -0.863066936842646 0.5002292061534265
5396447 -0.8601738721991034 0.5034692406552665
5420860 -0.8590177984747922 0.50468655934061
5445273 -0.8584198547576687 0.5089767234688056
5469686 -0.85633458297928 0.509442072328223
5494099 -0.8551755557425855 0.5118864192903739
5518512 -0.8542423245638678 0.5140709793620006
5542925 -0.8526493371064567 0.5162738661910999
5567338 -0.8519493768325135 0.5184804973409625
5591751 -0.8501625185052667 0.5214180896128919
5616164 -0.8473112207182917 0.5218011013167567
5640577 -0.8476989886574245 0.5244438394657239
5664990 -0.8460204718247195 0.5269590598687381
5689403 -0.8450865334109996 0.5285752764002551
5713816 -0.8446156571628156 0.5304031248663609
5738229 -0.8425011229274584 0.5324109042920613
5762642 -0.8410329653512116 0.5353721287542823
5787055 -0.8381860494465275 0.5374245987774618
5811468 -0.837577778035411 0.5380067699305027
5835881 -0.8354121195477112 0.5416531488005035
5860294 -0.8358168343276016 0.5437946258809462
5884707 -0.8334346624744755 0.5450407826523606
5909120 -0.8321265948453945 0.5478464225110871
5933533 -0.8299563670597153 0.5492397805261752
5957946 -0.8298299160703327 0.5512092078768926
5982359 -0.8278296781754682 0.5548714487248904
6006772 -0.8271969604112906 0.5552808526761112
6031185 -0.8248739071393107 0.5586889236494422
6055598 -0.823017126916496 0.5596361182327433
6080011 -0.8230794952159047 0.5633505050808977
6104424 -0.8213096373667317 0.5645367851278459
6128837 -0.8184355906425219 0.5662952399624078
6153250 -0.8184743822976653 0.5689311561813258
6177663 -0.8154842239263661 0.5709880478069203
6202076 -0.8145406514006754 0.5734036855955632
6226489 -0.8120558910958449 0.5741459413981936
6250902 -0.8125277822093612 0.5783662792846449
6275315 -0.8096705110040607 0.5792271938603561
6299728 -0.8094886676294258 0.5814673067135305
6324141 -0.8065714024712201 0.5823626651912119
6348554 -0.8066008288540973 0.584315996378282
6372967 -0.8034821721739064 0.5878233991062579
6397380 -0.8037650557809718 0.5902266832146568
6421793 -0.8001119083392392 0.5924792429854622
6446206 -0.8002780210180698 0.593462808373537
6470619 -0.7973982858395304 0.5956077679823881
6495032 -0.7974254711328738 0.5974147665653697
6519445 -0.794085354818713 0.6001033990984201
6543858 -0.7938948718627369 0.6010972027625876
6568271 -0.7905659213874189 0.6040853269577688
6592684 -0.7904293904301196 0.6069989053267657
6617097 -0.7858666649994049 0.6077480004279947
6641510 -0.7859691203533753 0.6105215915068934
6665923 -0.7835270687907121 0.6115708468277554
6690336 -0.7834119530292106 0.6147883644915385
6714749 -0.7822413273160513 0.6147679978396279
6739162 -0.7809350326504063 0.6190439560071093
6763575 -0.7782219124519141 0.6189795683727362
6787988 -0.7767265750979585 0.6229151989408028
6812401 -0.7744268994169498 0.6249727155379321
6836814 -0.774552215499859 0.6266706314683222
6861227 -0.7721173957849063 0.6277240871605793
6885640 -0.7714883619852358 0.629883293400576
6910053 -0.7680623595992866 0.6330063523442255
6934466 -0.7662977243965389 0.634979172856819
6958879 -0.7647808423994901 0.6366246793591239
6983292 -0.7648330341564048 0.638269286372496
7007705 -0.7614200009736388 0.6389087058113013
7032118 -0.761117249360787 0.6421278555062011
7056531 -0.7569581655985121 0.645221728834804
7080944 -0.7572520300093261 0.6462840489339557
7105357 -0.7536026538991825 0.6482103495692623
7129770 -0.7529429634840661 0.6507842452748385
7154183 -0.7518640881445736 0.6525784664023319
7178596 -0.7492041213372486 0.6541922455270892
7203009 -0.7477029302158749 0.6566920377360727
7227422 -0.7456476299543326 0.6583548896829844
7251835 -0.7449011875262277 0.6601616060616288
7276248 -0.743350106838824 0.6621167870625829
7300661 -0.7417821648029194 0.6639759150431587
7325074 -0.7377767476036072 0.666149717190914
7349487 -0.7385927774729447 0.6675539974122301
7373900 -0.7340472075506675 0.6691443822788091
7398313 -0.7339008693284828 0.6721929156172158
7422726 -0.7306615089414976 0.6731351639839429
7447139 -0.7308051124043592 0.6760360136009748
7471552 -0.7286083554618902 0.6761880568006655
7495965 -0.727207573326085 0.6793774920074609
7520378 -0.7246959378687297 0.6811503507988007
7544791 -0.722416782270814 0.6835610327753997
7569204 -0.7201614290971854 0.6848047027757479
7593617 -0.719083651393502 0.6878854507751679
7618030 -0.7166698904809007 0.6892514988727965
7642443 -0.7143788615095101 0.6911354780916397
7666856 -0.7133875811687225 0.6936930352327638
7691269 -0.7104157488506151 0.6945915371352033
7715682 -0.7094277469484932 0.6962277890103296
7740095 -0.7082412915067887 0.6978887497510136
7764508 -0.7047845056660438 0.6999649204123893
7788921 -0.7047439110537129 0.7020608523741594
7813334 -0.7005748428484345 0.7038962663100107
7837747 -0.7002314855808149 0.7050413201535322
7862160 -0.6974035059455443 0.707963122917006
7886573 -0.6959428904888313 0.7099831533348454
7910986 -0.6934438646428807 0.7124048426127049
7935399 -0.6921646280629817 0.7136314162585227
7959812 -0.6893499676373737 0.7166404298813781
7984225 -0.6880211606788351 0.7169792071565038
8008638 -0.6862103398825825 0.7190855673540266
8033051 -0.6832937480843948 0.719539669599995
8057464 -0.6817403532452763 0.7230151863350675
8081877 -0.6802801972305837 0.723370476381928
8106290 -0.6780417814460025 0.7258073114422354
8130703 -0.675203037372841 0.7273397560348729
8155116 -0.6739919328563571 0.7308541327946622
8179529 -0.6719000291823413 0.7303385635881217
8203942 -0.669612998566372 0.734680219125469
8228355 -0.6685402226316502 0.7349230276966842
8252768 -0.6669589189697807 0.7382914597479917
8277181 -0.6626055469889666 0.7388694356982304
8301594 -0.662840089847204 0.73988514796302
8326007 -0.6587110232961148 0.743647168083029
8350420 -0.658252409303777 0.7459093502348537
8374833 -0.6547214931827098 0.7463678954484718
8399246 -0.6535756878444223 0.7475827501769045
8423659 -0.6495068809725439 0.7508673848633336
8448072 -0.6504655050745437 0.7521908440492835
8472485 -0.6469368615712099 0.7538250724040025
8496898 -0.6437697770054206 0.7543305416181095
8521311 -0.641153633589015 0.7573784794788431
8545724 -0.6403421316065501 0.7579338152547332
8570137 -0.6372524067070994 0.7620546593739846
8594550 -0.6352458647553851 0.7622637943674183
8618963 -0.634011026455099 0.7644032556820072
8643376 -0.6309624912122337 0.7646941623072774
8667789 -0.6291514047559023 0.7677024566019288
8692202 -0.6263781704141218 0.7689825817749956
8716615 -0.6248443169380266 0.771040548087032
8741028 -0.622038938908934 0.7732897321316147
8765441 -0.6201998130379639 0.7746767758508056
8789854 -0.6186864602795225 0.7743334497146975
8814267 -0.6144478611290292 0.7784258781785756
8838680 -0.6139766013737983 0.7781392264927381
8863093 -0.6112346653631228 0.7823901968014728
8887506 -0.6099063761598681 0.7825530353540513
8911919 -0.608363199451756 0.7852362533710132
8936332 -0.6056828053827898 0.7861127809037016
8960745 -0.6012022592943231 0.7883192752148206
8985158 -0.6006955792791107 0.7883153877974226
9009571 -0.5975382305680877 0.7914762240500323
9033984 -0.5962473138745495 0.793404706177163
9058397 -0.5927269802482104 0.7960445173126618
9082810 -0.5900566749459263 0.794906441342932
9107223 -0.5884662870810621 0.7981875935218472
9131636 -0.5871211209665388 0.79956305531137
9156049 -0.5842533102058425 0.8022276658658397
9180462 -0.5815159542950392 0.8033018351627477
9204875 -0.5802985724295883 0.8036290513156059
9229288 -0.5757370844981259 0.8064373526322051
9253701 -0.5753330140605345 0.8088621804871887
9278114 -0.570973347114874 0.810265757899987
9302527 -0.571090205077475 0.8092578281462085
9326940 -0.5674859750170753 0.8131584387210052
9351353 -0.5654448667190942 0.8129924918299534
9375766 -0.5626698656930091 0.8166928061073452
9400179 -0.5592714869756108 0.8172597524801277
9424592 -0.5575928770402203 0.8182994256658012
9449005 -0.5550235023245113 0.8198651028878721
9473418 -0.5529141510946479 0.8219164308500109
9497831 -0.5510965073530679 0.8239112448905761
9522244 -0.5481244714398095 0.8257944654238438
9546657 -0.5457319362730956 0.8267498600638773
9571070 -0.5443140535178794 0.8275250785297571
9595483 -0.5410867145333303 0.8307212825591083
9619896 -0.5391840579240357 0.8302666842572255
9644309 -0.5351662464154956 0.833769712431544
9668722 -0.5337990541899988 0.8339212047394586
9693135 -0.5304405204087363 0.8367376123823255
9717548 -0.528455104018041 0.8368946913306466
9741961 -0.526960017298283 0.8387616790996667
9766374 -0.5235275811077843 0.8403967440392973
9790787 -0.5212364436662084 0.8426304655696321
9815200 -0.5182830951438651 0.8425910148108999
9839613 -0.5165852174556296 0.8450504779084707
9864026 -0.5137286090077039 0.8463394613395375
9888439 -0.510597756209775 0.8485777265809064
9912852 -0.5087822684863275 0.8486444980434564
9937265 -0.5055284306774886 0.8508911568633053
9961678 -0.5034861072795822 0.8521350415282278
9986091 -0.5012505917469244 0.8532260266536253
10010504 -0.49820653467783255 0.854076162720766
10034917 -0.49551481609325243 0.8570957797819306
10059330 -0.49447343354671947 0.8575401081784255
10083743 -0.49082270258490374 0.8589820335896121
10108156 -0.4875979745857892 0.8609283965681263
10132569 -0.4854768617000052 0.8613725738053869
10156982 -0.48471171058550916 0.8629129881413022
10181395 -0.47870910563320207 0.8655454823386847
10205808 -0.47776624289337677 0.8671329366903217
10230221 -0.47361255481564335 0.8668168442138884
10254634 -0.47135626215730114 0.8691780970176918
10279047 -0.46855160196746776 0.8702029065911205
10303460 -0.4673946693667482 0.8714436320100928
10327873 -0.46406249632277424 0.8726230021891765
10352286 -0.46045920105357463 0.8737011363782611
10376699 -0.45897221433900864 0.8761684224579946
